(1725511085.547374) can0 60A#00000000
(1725511085.627240) can0 60A#00000110
(1725511085.707515) can0 60A#00000310
(1725511085.787379) can0 60A#00000510
(1725511085.857402) can0 60A#00000710
(1725511085.922211) can0 60A#00000910
(1725511085.992392) can0 60A#00000b10
(1725511086.062527) can0 60A#00000d10
(1725511086.132738) can0 60A#00000f10
(1725511086.202745) can0 60A#00001110
(1725511086.277829) can0 60A#00001310
(1725511086.352742) can0 60A#00001510
(1725511086.427565) can0 60A#00001710
(1725511086.497550) can0 60A#00001910
(1725511086.572549) can0 60A#00001b10
(1725511086.647583) can0 60A#00001d10
(1725511086.722788) can0 60A#00001f10
(1725511086.797688) can0 60A#06002110
(1725511086.797981) can0 60B#004ef3fd80200198
(1725511086.797999) can0 60B#015023fd80200175
(1725511086.798266) can0 60B#024ee40380200191
(1725511086.798563) can0 60B#03501bf980200191
(1725511086.798909) can0 60B#04504c1d80200189
(1725511086.799330) can0 60B#0551e4618020017d
(1725511086.799723) can0 60C#00ad278d822064
(1725511086.799762) can0 60C#01ad278d822064
(1725511086.800001) can0 60C#02a5278d822064
(1725511086.800017) can0 60C#03a5678d822064
(1725511086.800239) can0 60C#04a5678d822064
(1725511086.800939) can0 60C#05a5a78d822064
(1725511086.801308) can0 60D#007d0fa070800505
(1725511086.801338) can0 60D#017d0fa070800505
(1725511086.801764) can0 60D#027d0fa070800505
(1725511086.801802) can0 60D#037d0fa070800505
(1725511086.802200) can0 60D#047d0fa070800505
(1725511086.802656) can0 60D#057d0fa070800505
(1725511086.867939) can0 60A#04002310
(1725511086.868258) can0 60B#024ed401801fa194
(1725511086.868731) can0 60B#03500bf98020019c
(1725511086.868767) can0 60B#04504c1d80200189
(1725511086.869176) can0 60B#0551e4618020017a
(1725511086.869630) can0 60C#029ce57c8220c8
(1725511086.869667) can0 60C#039d278c8220a8
(1725511086.870148) can0 60C#049d278d0220a8
(1725511086.870187) can0 60C#05a5ad8d822068
(1725511086.870656) can0 60D#027cafa170800a0c
(1725511086.870692) can0 60D#037c6fa070800605
(1725511086.871129) can0 60D#047d0fa070800505
(1725511086.871164) can0 60D#057d2fa070800505
(1725511086.942776) can0 60A#04002510
(1725511086.943208) can0 60B#024ed3ff801ee198
(1725511086.943244) can0 60B#035003f98020019f
(1725511086.943732) can0 60B#04504c1d80200189
(1725511086.943770) can0 60B#0551e4618020017a
(1725511086.944217) can0 60C#029ce57b8220e8
(1725511086.944255) can0 60C#039d257c0220e8
(1725511086.944741) can0 60C#049d277c0220c8
(1725511086.944779) can0 60C#05a5af8d82204c
(1725511086.945248) can0 60D#027d2fa170800a0c
(1725511086.945284) can0 60D#037d2fa070800605
(1725511086.945562) can0 60D#047d0fa070800505
(1725511086.945747) can0 60D#057d2fa070800505
(1725511087.017782) can0 60A#04002710
(1725511087.018274) can0 60B#024ed3ff801ee199
(1725511087.018310) can0 60B#035003f9802001a1
(1725511087.018750) can0 60B#04504c1d8020018a
(1725511087.018786) can0 60B#0551e4618020017a
(1725511087.019024) can0 60C#0294e57b0220e8
(1725511087.019041) can0 60C#039d257b8220e8
(1725511087.019305) can0 60C#049d277b8220e8
(1725511087.019586) can0 60C#05adb18d82204c
(1725511087.020025) can0 60D#027d2fa170800a0c
(1725511087.020486) can0 60D#037d4fa070800705
(1725511087.020940) can0 60D#047d0fa070800505
(1725511087.020977) can0 60D#057d2fa070800505
(1725511087.087726) can0 60A#04002910
(1725511087.088141) can0 60B#024ecbfe801f219b
(1725511087.088660) can0 60B#035003f9802001a2
(1725511087.088697) can0 60B#04504c1d8020018a
(1725511087.089126) can0 60B#0551e4618020017a
(1725511087.089171) can0 60C#0294e36a8220e8
(1725511087.089666) can0 60C#0395257b0220e8
(1725511087.089703) can0 60C#049d257b0220e8
(1725511087.089970) can0 60C#05adb18d82202c
(1725511087.089991) can0 60D#027d2fa170800a0c
(1725511087.090404) can0 60D#037d4fa070800705
(1725511087.090807) can0 60D#047d0fa070800505
(1725511087.090867) can0 60D#057d2fa070800505
(1725511087.162959) can0 60A#03002b10
(1725511087.163365) can0 60B#024ecbfe801f419c
(1725511087.163401) can0 60B#035003f9802001a3
(1725511087.163751) can0 60B#04504c1d8020018a
(1725511087.163796) can0 60C#0294a36a8220e8
(1725511087.164063) can0 60C#0395256a8220e8
(1725511087.164284) can0 60C#0495257b0220e8
(1725511087.164585) can0 60D#027d2fa170800a0c
(1725511087.164855) can0 60D#037d4fa070800805
(1725511087.165263) can0 60D#047d0fa070800505
(1725511087.237659) can0 60A#03002d10
(1725511087.237951) can0 60B#024ecbfe801f819c
(1725511087.238364) can0 60B#034ffbf9802001a4
(1725511087.238824) can0 60B#04504c1d8020018a
(1725511087.238894) can0 60C#0294a35a8220e8
(1725511087.239332) can0 60C#0394e56a8220e8
(1725511087.239370) can0 60C#0495256a8220e8
(1725511087.239805) can0 60D#027d2fa170800a0c
(1725511087.239863) can0 60D#037d4fa070800805
(1725511087.240268) can0 60D#047d0fa070800505
(1725511087.312965) can0 60A#03002f10
(1725511087.313429) can0 60B#024ecbfe801fa19d
(1725511087.313466) can0 60B#034ffbf9802001a5
(1725511087.313924) can0 60B#04504c1d8020018a
(1725511087.313968) can0 60C#0294a35a0220e8
(1725511087.314408) can0 60C#0394e56a8220e8
(1725511087.314446) can0 60C#0495256a8220e8
(1725511087.314734) can0 60D#027d2fa170800a0c
(1725511087.314748) can0 60D#037d4fa070800905
(1725511087.314963) can0 60D#047d0fa070800505
(1725511087.382816) can0 60A#03003110
(1725511087.383223) can0 60B#024ecbfe801fa19d
(1725511087.383734) can0 60B#034ffbf9802001a5
(1725511087.383771) can0 60B#04504c1d8020018a
(1725511087.384195) can0 60C#0294a35a0220e8
(1725511087.384233) can0 60C#0394e56a8220e8
(1725511087.384748) can0 60C#0494e56a8220e8
(1725511087.384787) can0 60D#027d2fa170800a0c
(1725511087.385183) can0 60D#037d2fa070800905
(1725511087.385219) can0 60D#047d0fa070800505
(1725511087.457733) can0 60A#05003310
(1725511087.458105) can0 60B#004f7c0280200178
(1725511087.458431) can0 60B#01512bf380200179
(1725511087.458613) can0 60B#024ecbfe801fc19e
(1725511087.458795) can0 60B#034ffbf9802001a5
(1725511087.459192) can0 60B#04504c1d8020018a
(1725511087.459438) can0 60C#00a5278d822064
(1725511087.459455) can0 60C#01a5678d822064
(1725511087.459803) can0 60C#028ca34a0220e8
(1725511087.460121) can0 60C#0394e55a0220e8
(1725511087.460491) can0 60C#0494e55a8220e8
(1725511087.460940) can0 60D#007d0fa070800505
(1725511087.461324) can0 60D#017d0fa070800505
(1725511087.461340) can0 60D#027d0fa170800a0c
(1725511087.461720) can0 60D#037d2fa070800905
(1725511087.462143) can0 60D#047d0fa070800505
(1725511087.532945) can0 60A#05003510
(1725511087.533178) can0 60B#004f7c01801fc184
(1725511087.533194) can0 60B#01512bf380200179
(1725511087.533593) can0 60B#024ecbfe801fc19e
(1725511087.533777) can0 60B#034ffbf9802001a6
(1725511087.533965) can0 60B#04504c1d8020018a
(1725511087.534313) can0 60C#00a52b8d822068
(1725511087.534507) can0 60C#019d278c8220a8
(1725511087.534691) can0 60C#028ca34a0220e8
(1725511087.535040) can0 60C#0394e55a0220e8
(1725511087.535223) can0 60C#0494e55a8220e8
(1725511087.535429) can0 60D#007d0fa070800505
(1725511087.535771) can0 60D#017d4fa070800505
(1725511087.535949) can0 60D#027d0fa170800a0c
(1725511087.536533) can0 60D#037d2fa070800a05
(1725511087.536570) can0 60D#047d0fa070800505
(1725511087.607695) can0 60A#05003710
(1725511087.607908) can0 60B#004f7c00801fa188
(1725511087.608460) can0 60B#01512bf380200178
(1725511087.608876) can0 60B#024ecbfe801fe19e
(1725511087.608912) can0 60B#034ffbf9802001a6
(1725511087.609282) can0 60B#04504c1d8020018a
(1725511087.609557) can0 60C#00a52f8d022048
(1725511087.609578) can0 60C#019d2b8c8220a8
(1725511087.609959) can0 60C#028ca34a0220e8
(1725511087.610240) can0 60C#038ce55a0220e8
(1725511087.610263) can0 60C#0494e55a0220e8
(1725511087.610673) can0 60D#007d0fa070800505
(1725511087.610906) can0 60D#017d2fa070800505
(1725511087.611096) can0 60D#027d0fa170800a0c
(1725511087.611280) can0 60D#037d2fa070800a05
(1725511087.611532) can0 60D#047d0fa070800505
(1725511087.682814) can0 60A#05003910
(1725511087.683245) can0 60B#004f7c00801fa188
(1725511087.683536) can0 60B#01512bf380200178
(1725511087.683682) can0 60B#024ecbfe801fe19e
(1725511087.683949) can0 60B#034ffbf9802001a6
(1725511087.684332) can0 60B#04504c1d8020018a
(1725511087.684760) can0 60C#00a56f8d02202c
(1725511087.684798) can0 60C#019d277b8220c8
(1725511087.685233) can0 60C#028ca34a0220e8
(1725511087.685271) can0 60C#038ce55a0220e8
(1725511087.688274) can0 60C#0494e55a0220e8
(1725511087.688313) can0 60D#007d0fa070800505
(1725511087.688325) can0 60D#017d0fa070800505
(1725511087.688336) can0 60D#027d0fa170800a0c
(1725511087.688346) can0 60D#037d2fa070800a05
(1725511087.688356) can0 60D#047d0fa070800505
(1725511087.752964) can0 60A#04003b10
(1725511087.753397) can0 60B#01512bf380200178
(1725511087.753434) can0 60B#024ecbfe801fe19e
(1725511087.753828) can0 60B#034ffbf9802001a6
(1725511087.754281) can0 60B#04504c1d8020018a
(1725511087.754325) can0 60C#019d277b8220c8
(1725511087.754726) can0 60C#028ca33a0220e8
(1725511087.754764) can0 60C#038ce34a0220e8
(1725511087.755018) can0 60C#0494e55a0220e8
(1725511087.755281) can0 60D#017d0fa070800505
(1725511087.755695) can0 60D#027d0fa170800a0c
(1725511087.755731) can0 60D#037d2fa070800a05
(1725511087.755987) can0 60D#047d0fa070800505
(1725511087.827870) can0 60A#04003d10
(1725511087.828095) can0 60B#01512bf380200178
(1725511087.828279) can0 60B#024ecbfe801fe19e
(1725511087.828506) can0 60B#034ffbf9802001a6
(1725511087.828866) can0 60B#04504c1d8020018a
(1725511087.829062) can0 60C#019d277b0220e8
(1725511087.829248) can0 60C#028ca33a0220e8
(1725511087.829594) can0 60C#038ce34a0220e8
(1725511087.829785) can0 60C#0494e54a0220e8
(1725511087.830132) can0 60D#017d0fa070800505
(1725511087.830313) can0 60D#027d0fa170800a0c
(1725511087.830678) can0 60D#037d2fa070800a05
(1725511087.831026) can0 60D#047d0fa070800505
(1725511087.902891) can0 60A#05003f10
(1725511087.903188) can0 60B#0051e4628020017d
(1725511087.903471) can0 60B#01512bf380202179
(1725511087.903704) can0 60B#024ecbfe801fe19e
(1725511087.903896) can0 60B#034ffbf9802001a6
(1725511087.904080) can0 60B#04504c1d8020018a
(1725511087.904295) can0 60C#00a5678d822064
(1725511087.904534) can0 60C#0195256a8220e8
(1725511087.904908) can0 60C#028ca33a0220e8
(1725511087.905133) can0 60C#038ce34a0220e8
(1725511087.905365) can0 60C#048ce54a0220e8
(1725511087.905612) can0 60D#007d0fa070800505
(1725511087.905882) can0 60D#017d0fa070800505
(1725511087.906144) can0 60D#027d0fa170800a0d
(1725511087.906343) can0 60D#037d0fa070800b05
(1725511087.906704) can0 60D#047d0fa070800505
(1725511087.977923) can0 60A#05004110
(1725511087.978219) can0 60B#0051e4628020017b
(1725511087.978499) can0 60B#01512bf380202179
(1725511087.979357) can0 60B#024ecbfe801fe19e
(1725511087.982476) can0 60B#034ffbf9802001a6
(1725511087.982517) can0 60B#04504c1d8020018a
(1725511087.982538) can0 60C#00a56d8d822068
(1725511087.982552) can0 60C#0195256a8220e8
(1725511087.982565) can0 60C#028ca33a0220e8
(1725511087.982578) can0 60C#038ce34a0220e8
(1725511087.982590) can0 60C#048ce54a0220e8
(1725511087.982602) can0 60D#007cefa070800505
(1725511087.982612) can0 60D#017d0fa070800505
(1725511087.985116) can0 60D#027d0fa170800a0d
(1725511087.985152) can0 60D#037d2fa070800b05
(1725511087.985162) can0 60D#047d0fa070800505
(1725511088.049649) can0 60A#06004310
(1725511088.052275) can0 60B#0051e4628020017a
(1725511088.052313) can0 60B#01512bf380202178
(1725511088.052324) can0 60B#024ecbfe801fe19e
(1725511088.052334) can0 60B#034ffbf9802001a6
(1725511088.052344) can0 60B#04504c1d8020018a
(1725511088.052355) can0 60B#0559e43080200180
(1725511088.052373) can0 60C#00a56f8d022068
(1725511088.052387) can0 60C#0195256a8220c8
(1725511088.052400) can0 60C#028ca33a0220e8
(1725511088.052413) can0 60C#038ce34a0220e8
(1725511088.052425) can0 60C#048ce54a0220e8
(1725511088.052441) can0 60C#05a5a78d822064
(1725511088.052453) can0 60D#007ccfa070800505
(1725511088.055129) can0 60D#017d0fa070800505
(1725511088.055166) can0 60D#027d0fa170800b0d
(1725511088.055177) can0 60D#037d4fa070800b05
(1725511088.055187) can0 60D#047d0fa070800505
(1725511088.055197) can0 60D#057d0fa070800505
(1725511088.123096) can0 60A#06004510
(1725511088.123428) can0 60B#0051e4628020017a
(1725511088.123443) can0 60B#01512bf480202178
(1725511088.123703) can0 60B#024ecbfe8020019e
(1725511088.123976) can0 60B#034ffbf9802001a6
(1725511088.124218) can0 60B#04504c1d8020018a
(1725511088.124561) can0 60B#0559e4308020017f
(1725511088.124899) can0 60C#00ad6f8d02204c
(1725511088.125150) can0 60C#0195256a8220c8
(1725511088.125176) can0 60C#028ca33a0220e8
(1725511088.125514) can0 60C#038ce34a0220e8
(1725511088.125822) can0 60C#048ce54a0220e8
(1725511088.126110) can0 60C#05a5ad8d822068
(1725511088.126417) can0 60D#007ccfa070800505
(1725511088.126720) can0 60D#017d0fa070800505
(1725511088.127008) can0 60D#027d0fa170800b0d
(1725511088.127028) can0 60D#037d4fa070800b05
(1725511088.127328) can0 60D#047d0fa070800505
(1725511088.127634) can0 60D#057d2fa070800505
(1725511088.198133) can0 60A#06004710
(1725511088.198172) can0 60B#0051e4628020017a
(1725511088.198443) can0 60B#01512bf480204177
(1725511088.198694) can0 60B#024ecbfe8020019e
(1725511088.198930) can0 60B#034ffbf9802001a6
(1725511088.199227) can0 60B#04504c1d8020018a
(1725511088.199541) can0 60B#0559e4308020017e
(1725511088.199858) can0 60C#00adb18d02204c
(1725511088.200168) can0 60C#0195276a8220c8
(1725511088.200515) can0 60C#028ca33a0220e8
(1725511088.200534) can0 60C#038ca34a0220e8
(1725511088.200837) can0 60C#048ce54a0220e8
(1725511088.201085) can0 60C#05a5af8d822048
(1725511088.201320) can0 60D#007ccfa070800505
(1725511088.201589) can0 60D#017d0fa070800505
(1725511088.201869) can0 60D#027d0fa170800b0d
(1725511088.202170) can0 60D#037d4fa070800b05
(1725511088.202511) can0 60D#047d0fa070800505
(1725511088.202814) can0 60D#057d2fa070800505
(1725511088.272929) can0 60A#05004910
(1725511088.273223) can0 60B#01512bf480204177
(1725511088.273464) can0 60B#024ecbfe8020019e
(1725511088.273706) can0 60B#034ffbf9802001a6
(1725511088.273999) can0 60B#04504c1d8020018a
(1725511088.274244) can0 60B#0559e4308020017e
(1725511088.274587) can0 60C#0195275a8220c8
(1725511088.274859) can0 60C#028ca33a0220e8
(1725511088.275085) can0 60C#038ca33a0220e8
(1725511088.275337) can0 60C#048ce54a0220e8
(1725511088.275728) can0 60C#05adb18d82202c
(1725511088.276129) can0 60D#017d0fa070800505
(1725511088.276165) can0 60D#027d0fa170800c0d
(1725511088.276629) can0 60D#037d4fa070800b05
(1725511088.276916) can0 60D#047d0fa070800505
(1725511088.276931) can0 60D#057d2fa070800505
(1725511088.348306) can0 60A#04004b10
(1725511088.348766) can0 60B#01512bf480202177
(1725511088.348802) can0 60B#024ecbfe8020019e
(1725511088.349264) can0 60B#034ffbf9802001a6
(1725511088.349300) can0 60B#04504c1d8020018a
(1725511088.349576) can0 60C#0195255a8220e8
(1725511088.349607) can0 60C#028ca33a0220e8
(1725511088.349905) can0 60C#038ca33a0220e8
(1725511088.350274) can0 60C#048ce54a0220e8
(1725511088.350731) can0 60D#017d2fa070800505
(1725511088.350768) can0 60D#027d0fa170800c0d
(1725511088.351191) can0 60D#037d2fa070800b05
(1725511088.351228) can0 60D#047d0fa070800505
(1725511088.418144) can0 60A#04004d10
(1725511088.418655) can0 60B#01512bf380200178
(1725511088.418692) can0 60B#024ecbfe8020019e
(1725511088.418994) can0 60B#034ffbf9802001a6
(1725511088.419285) can0 60B#04504c1d8020018a
(1725511088.419315) can0 60C#0194e55a0220e8
(1725511088.419737) can0 60C#028ca33a0220e8
(1725511088.420023) can0 60C#038ca33a0220e8
(1725511088.420040) can0 60C#048ce53a0220e8
(1725511088.420409) can0 60D#017d2fa070800505
(1725511088.420887) can0 60D#027d0fa170800d0d
(1725511088.421350) can0 60D#037d2fa070800b05
(1725511088.421387) can0 60D#047d0fa070800505
(1725511088.493330) can0 60A#04004f10
(1725511088.493791) can0 60B#01512bf380200178
(1725511088.493828) can0 60B#024ecbfe8020019f
(1725511088.494289) can0 60B#034ffbf9802001a6
(1725511088.494325) can0 60B#04504c1d8020018a
(1725511088.494620) can0 60C#0194e54a0220e8
(1725511088.494637) can0 60C#028c633a0220e8
(1725511088.494903) can0 60C#038ca33a0220e8
(1725511088.495271) can0 60C#048ce53a0220e8
(1725511088.495737) can0 60D#017d2fa070800505
(1725511088.495774) can0 60D#027d0fa170800d0d
(1725511088.496186) can0 60D#037d2fa070800b05
(1725511088.496660) can0 60D#047d0fa070800505
(1725511088.568468) can0 60A#04005110
(1725511088.568507) can0 60B#01512bf380200178
(1725511088.568972) can0 60B#024ecbfe8020019f
(1725511088.569009) can0 60B#034ffbf9802001a6
(1725511088.569430) can0 60B#04504c1d8020018a
(1725511088.569475) can0 60C#0194e54a0220e8
(1725511088.569926) can0 60C#028c633a0220e8
(1725511088.569952) can0 60C#038ca33a0220e8
(1725511088.570309) can0 60C#048ca53a0220e8
(1725511088.570708) can0 60D#017d2fa070800505
(1725511088.570745) can0 60D#027d0fa170800d0d
(1725511088.571126) can0 60D#037d2fa070800b05
(1725511088.571653) can0 60D#047d0fa070800505
(1725511088.643240) can0 60A#04005310
(1725511088.643545) can0 60B#01512bf380200179
(1725511088.643567) can0 60B#024ecbfe8020019f
(1725511088.643830) can0 60B#034ffbf9802001a6
(1725511088.644323) can0 60B#04504c1d8020018a
(1725511088.644367) can0 60C#0194e54a0220e8
(1725511088.644956) can0 60C#028c633a0220e8
(1725511088.645249) can0 60C#038ca33a0220e8
(1725511088.645276) can0 60C#048ca53a0220e8
(1725511088.645554) can0 60D#017d2fa070800505
(1725511088.645578) can0 60D#027d0fa170800d0d
(1725511088.645802) can0 60D#037d0fa070800b05
(1725511088.646924) can0 60D#047d0fa070800505
(1725511088.715803) can0 60A#04005510
(1725511088.715876) can0 60B#01512bf380200179
(1725511088.715890) can0 60B#024ecbfe8020019f
(1725511088.715901) can0 60B#034ffbf9802001a6
(1725511088.715913) can0 60B#04504c1d8020018a
(1725511088.715928) can0 60C#0194e54a0220e8
(1725511088.715941) can0 60C#028c633a0220e8
(1725511088.715965) can0 60C#038ca33a0220e8
(1725511088.718953) can0 60C#048ca53a0220e8
(1725511088.719016) can0 60D#017d0fa070800505
(1725511088.719028) can0 60D#027d0fa170800e0d
(1725511088.719038) can0 60D#037d0fa070800b05
(1725511088.719050) can0 60D#047d0fa070800505
(1725511088.788164) can0 60A#04005710
(1725511088.788467) can0 60B#01512bf380200179
(1725511088.788695) can0 60B#024ecbfe8020019f
(1725511088.788913) can0 60B#034ffbf9802001a6
(1725511088.789145) can0 60B#04504c1d8020018a
(1725511088.789360) can0 60C#0194e54a0220e8
(1725511088.789560) can0 60C#028c633a0220e8
(1725511088.790329) can0 60C#038ca33a0220e8
(1725511088.790594) can0 60C#048ca53a0220e8
(1725511088.790616) can0 60D#017d0fa070800505
(1725511088.791474) can0 60D#027d0fa170800e0e
(1725511088.791840) can0 60D#037d0fa070800b05
(1725511088.791893) can0 60D#047d0fa070800505
(1725511088.863611) can0 60A#04005910
(1725511088.863651) can0 60B#01512bf380200179
(1725511088.863892) can0 60B#024ecbfe8020019f
(1725511088.863912) can0 60B#034ffbf9802001a6
(1725511088.864113) can0 60B#04504c1d8020018a
(1725511088.864444) can0 60C#018ce54a0220e8
(1725511088.864656) can0 60C#028c633a0220e8
(1725511088.864872) can0 60C#038ca33a0220e8
(1725511088.865093) can0 60C#048ca53a0220e8
(1725511088.865508) can0 60D#017d0fa070800505
(1725511088.865689) can0 60D#027d0fa170800e0e
(1725511088.865880) can0 60D#037d0fa070800b05
(1725511088.866256) can0 60D#047d0fa070800505
(1725511088.938178) can0 60A#04005b10
(1725511088.938429) can0 60B#01512bf380200179
(1725511088.938613) can0 60B#024ecbfe8020019f
(1725511088.938954) can0 60B#034ffbf9802001a6
(1725511088.939317) can0 60B#04504c1d8020018a
(1725511088.939559) can0 60C#018ce54a0220e8
(1725511088.939748) can0 60C#028c633a0220e8
(1725511088.939935) can0 60C#038ca33a0220e8
(1725511088.940119) can0 60C#048ca53a0220e8
(1725511088.940745) can0 60D#017d0fa070800505
(1725511088.940781) can0 60D#027d0fa170800e0e
(1725511088.941126) can0 60D#037d0fa070800b05
(1725511088.941466) can0 60D#047d0fa070800505
(1725511089.008700) can0 60A#04005d10
(1725511089.008784) can0 60B#01512bf380200179
(1725511089.009048) can0 60B#024ecbfe8020019f
(1725511089.009069) can0 60B#034ffbf9802001a6
(1725511089.009300) can0 60B#04504c1d8020018a
(1725511089.009614) can0 60C#018ce54a0220e8
(1725511089.009926) can0 60C#028c633a0220e8
(1725511089.010491) can0 60C#038ca33a0220e8
(1725511089.010546) can0 60C#048ca53a0220e8
(1725511089.011132) can0 60D#017d0fa070800505
(1725511089.011168) can0 60D#027d0fa170800e0e
(1725511089.011650) can0 60D#037d0fa070800c05
(1725511089.011696) can0 60D#047d0fa070800505
(1725511089.083162) can0 60A#04005f10
(1725511089.083449) can0 60B#01512bf380200178
(1725511089.083643) can0 60B#024ecbfe8020019f
(1725511089.084015) can0 60B#034ffbf9802001a6
(1725511089.084221) can0 60B#04504c1d8020018a
(1725511089.084452) can0 60C#018ce54a0220e8
(1725511089.084669) can0 60C#0284633a0220e8
(1725511089.084916) can0 60C#038ca33a0220e8
(1725511089.085150) can0 60C#048ca53a0220e8
(1725511089.085522) can0 60D#017d0fa070800505
(1725511089.085719) can0 60D#027d0fa170800e0e
(1725511089.085918) can0 60D#037d2fa070800b05
(1725511089.086287) can0 60D#047d0fa070800505
(1725511089.158255) can0 60A#04006110
(1725511089.158558) can0 60B#01512bf380200178
(1725511089.158799) can0 60B#024ecbfe8020019f
(1725511089.159034) can0 60B#034ffbf9802001a6
(1725511089.159262) can0 60B#04504c1d8020018a
(1725511089.159546) can0 60C#018ce54a8220e8
(1725511089.159771) can0 60C#0284633a0220e8
(1725511089.160012) can0 60C#038ca33a0220e8
(1725511089.160438) can0 60C#048ca53a0220e8
(1725511089.160691) can0 60D#017d0fa070800505
(1725511089.160942) can0 60D#027d0fa170800e0e
(1725511089.161201) can0 60D#037d2fa070800b05
(1725511089.161473) can0 60D#047d0fa070800505
(1725511089.233485) can0 60A#04006310
(1725511089.233926) can0 60B#01512bf380200178
(1725511089.233963) can0 60B#024ecbfe8020019f
(1725511089.234279) can0 60B#034ffbf9802001a6
(1725511089.234293) can0 60B#04504c1d8020018a
(1725511089.234719) can0 60C#018ce53a0220e8
(1725511089.235151) can0 60C#0284633a0220e8
(1725511089.235190) can0 60C#038ca33a0220e8
(1725511089.235615) can0 60C#048ca53a0220e8
(1725511089.235904) can0 60D#017d0fa070800505
(1725511089.235919) can0 60D#027d0fa170800e0e
(1725511089.236279) can0 60D#037d2fa070800b05
(1725511089.236690) can0 60D#047d0fa070800505
(1725511089.303335) can0 60A#04006510
(1725511089.303545) can0 60B#01512bf380200178
(1725511089.303728) can0 60B#024ecbff8020019f
(1725511089.304238) can0 60B#034ffbf9802001a6
(1725511089.304672) can0 60B#04504c1d8020018a
(1725511089.304717) can0 60C#018ce53a0220e8
(1725511089.304925) can0 60C#0284633a0220e8
(1725511089.305279) can0 60C#038ca33a0220e8
(1725511089.305686) can0 60C#048ca53a0220e8
(1725511089.305725) can0 60D#017d0fa070800505
(1725511089.305930) can0 60D#027d0fa170800e0e
(1725511089.306277) can0 60D#037d2fa070800b05
(1725511089.306545) can0 60D#047d0fa070800505
(1725511089.378469) can0 60A#04006710
(1725511089.378883) can0 60B#01512bf380200178
(1725511089.378919) can0 60B#024ecbff8020019f
(1725511089.379286) can0 60B#034ffbf9802001a6
(1725511089.379552) can0 60B#04504c1d8020018a
(1725511089.379578) can0 60C#018ce53a0220e8
(1725511089.379961) can0 60C#0284633a0220e8
(1725511089.380193) can0 60C#038ca33a0220e8
(1725511089.380430) can0 60C#048ca53a0220e8
(1725511089.380615) can0 60D#017d0fa070800505
(1725511089.380796) can0 60D#027d0fa170800e0e
(1725511089.381141) can0 60D#037d2fa070800b05
(1725511089.381322) can0 60D#047d0fa070800505
(1725511089.453333) can0 60A#04006910
(1725511089.453544) can0 60B#01512bf380200178
(1725511089.453727) can0 60B#024ecbff8020019f
(1725511089.454300) can0 60B#034ffbf9802001a6
(1725511089.454557) can0 60B#04504c1d8020018a
(1725511089.454585) can0 60C#018ce53a0220e8
(1725511089.454936) can0 60C#0284633a0220e8
(1725511089.455353) can0 60C#038ca33a0220e8
(1725511089.455384) can0 60C#048ca53a0220e8
(1725511089.455733) can0 60D#017d0fa070800505
(1725511089.456457) can0 60D#027d0fa170800e0e
(1725511089.456789) can0 60D#037d2fa070800b05
(1725511089.456817) can0 60D#047d0fa070800505
(1725511089.528384) can0 60A#04006b10
(1725511089.528620) can0 60B#01512bf380200178
(1725511089.528908) can0 60B#024ecbff8020019f
(1725511089.529205) can0 60B#034ffbf9802001a6
(1725511089.529440) can0 60B#04504c1d8020018a
(1725511089.529676) can0 60C#018ce53a0220e8
(1725511089.529894) can0 60C#0284633a0220e8
(1725511089.530225) can0 60C#038ca33a0220e8
(1725511089.530559) can0 60C#048ca53a0220e8
(1725511089.530760) can0 60D#017d0fa070800505
(1725511089.531107) can0 60D#027d0fa170800e0e
(1725511089.531614) can0 60D#037d2fa070800b05
(1725511089.531654) can0 60D#047d0fa070800505
(1725511089.598496) can0 60A#04006d10
(1725511089.598784) can0 60B#01512bf380200178
(1725511089.599035) can0 60B#024ecbff8020019f
(1725511089.599287) can0 60B#034ffbf9802001a6
(1725511089.599549) can0 60B#04504c1d8020018a
(1725511089.599798) can0 60C#018ce53a0220e8
(1725511089.600312) can0 60C#0284633a0220e8
(1725511089.600351) can0 60C#038ca33a0220e8
(1725511089.601072) can0 60C#048ca53a0220e8
(1725511089.601111) can0 60D#017d0fa070800505
(1725511089.601424) can0 60D#027d0fa170800e0e
(1725511089.601455) can0 60D#037d0fa070800b05
(1725511089.601807) can0 60D#047d0fa070800505
(1725511089.673706) can0 60A#04006f10
(1725511089.674112) can0 60B#01512bf380200177
(1725511089.674149) can0 60B#024ecbff8020019f
(1725511089.674655) can0 60B#034ffbf9802001a6
(1725511089.674691) can0 60B#04504c1d8020018a
(1725511089.675026) can0 60C#018ce53a8220e8
(1725511089.675046) can0 60C#0284633a0220e8
(1725511089.675395) can0 60C#038ca33a0220e8
(1725511089.675883) can0 60C#048ca53a0220e8
(1725511089.675921) can0 60D#017d0fa070800505
(1725511089.676317) can0 60D#027d0fa170800e0e
(1725511089.676354) can0 60D#037d0fa070800b05
(1725511089.676627) can0 60D#047d0fa070800505
(1725511089.748493) can0 60A#04007110
(1725511089.748912) can0 60B#01512bf380200177
(1725511089.749331) can0 60B#024ecbff8020019f
(1725511089.749369) can0 60B#034ffbf9802001a6
(1725511089.749638) can0 60B#04504c1d8020018a
(1725511089.749889) can0 60C#018ce53a8220e8
(1725511089.749908) can0 60C#0284633a0220e8
(1725511089.750149) can0 60C#038ca33a0220e8
(1725511089.750345) can0 60C#048ca53a0220e8
(1725511089.750752) can0 60D#017d0fa070800505
(1725511089.750983) can0 60D#027d0fa170800e0e
(1725511089.751211) can0 60D#037d0fa070800b05
(1725511089.751452) can0 60D#047d0fa070800505
(1725511089.823640) can0 60A#04007310
(1725511089.823972) can0 60B#01512bf380200177
(1725511089.823991) can0 60B#024ecbff8020019f
(1725511089.824212) can0 60B#034ffbf9802001a6
(1725511089.824475) can0 60B#04504c1d8020018a
(1725511089.824708) can0 60C#018ce53a8220e8
(1725511089.824906) can0 60C#0284633a0220e8
(1725511089.825124) can0 60C#038ca33a0220e8
(1725511089.825523) can0 60C#048ca53a0220e8
(1725511089.825825) can0 60D#017cefa070800505
(1725511089.826176) can0 60D#027d0fa170800e0e
(1725511089.826575) can0 60D#037d0fa070800b05
(1725511089.827225) can0 60D#047d0fa070800505
(1725511089.898598) can0 60A#04007510
(1725511089.898893) can0 60B#01512bf380200177
(1725511089.899132) can0 60B#024ecbff8020019f
(1725511089.899349) can0 60B#034ffbf9802001a6
(1725511089.899546) can0 60B#04504c1d8020018a
(1725511089.899752) can0 60C#018ce53a8220e8
(1725511089.899967) can0 60C#0284633a0220e8
(1725511089.900183) can0 60C#038ca33a0220e8
(1725511089.900440) can0 60C#048ca53a0220e8
(1725511089.900814) can0 60D#017cefa070800505
(1725511089.902118) can0 60D#027d0fa170800e0e
(1725511089.902568) can0 60D#037d0fa070800b05
(1725511089.902907) can0 60D#047d0fa070800505
(1725511089.968568) can0 60A#04007710
(1725511089.968962) can0 60B#01512bf380200177
(1725511089.968985) can0 60B#024ecbff8020019f
(1725511089.969222) can0 60B#034ffbf9802001a6
(1725511089.969676) can0 60B#04504c1d8020018a
(1725511089.970061) can0 60C#018ce53a8220e8
(1725511089.970120) can0 60C#0284633a0220e8
(1725511089.970362) can0 60C#038ca33a0220e8
(1725511089.970567) can0 60C#048ca53a0220e8
(1725511089.970759) can0 60D#017cefa070800505
(1725511089.970963) can0 60D#027d0fa170800e0e
(1725511089.971382) can0 60D#037d0fa070800b05
(1725511089.971590) can0 60D#047d0fa070800505
(1725511090.043703) can0 60A#04007910
(1725511090.043742) can0 60B#01512bf480200176
(1725511090.043934) can0 60B#024ecbff8020019f
(1725511090.044287) can0 60B#034ffbf9802001a6
(1725511090.044533) can0 60B#04504c1d8020018a
(1725511090.044741) can0 60C#018ce53a8220e8
(1725511090.045001) can0 60C#0284633a0220e8
(1725511090.045234) can0 60C#038ca33a0220e8
(1725511090.045671) can0 60C#048ca53a0220e8
(1725511090.045878) can0 60D#017cefa070800505
(1725511090.046064) can0 60D#027d0fa170800e0e
(1725511090.046248) can0 60D#037cefa070800b05
(1725511090.046618) can0 60D#047d0fa070800505
(1725511090.118608) can0 60A#04007b10
(1725511090.118827) can0 60B#01512bf480202176
(1725511090.119080) can0 60B#024ecbff8020019f
(1725511090.119269) can0 60B#034ffbf9802001a6
(1725511090.119502) can0 60B#04504c1d8020018a
(1725511090.119762) can0 60C#018ce53a8220e8
(1725511090.119960) can0 60C#0284633a0220e8
(1725511090.120374) can0 60C#038ca33a0220e8
(1725511090.120601) can0 60C#048ca53a0220e8
(1725511090.120824) can0 60D#017d0fa070800505
(1725511090.121025) can0 60D#027d0fa170800e0e
(1725511090.121459) can0 60D#037cefa070800b05
(1725511090.121647) can0 60D#047d0fa070800505
(1725511090.193689) can0 60A#04007d10
(1725511090.194055) can0 60B#01512bf480202176
(1725511090.194275) can0 60B#024ecbff8020019f
(1725511090.194294) can0 60B#034ffbf9802001a6
(1725511090.194517) can0 60B#04504c1d8020018a
(1725511090.194742) can0 60C#018ce53a8220e8
(1725511090.195127) can0 60C#0284633a0220e8
(1725511090.195338) can0 60C#038ca33a0220e8
(1725511090.195534) can0 60C#048ca53a0220e8
(1725511090.195817) can0 60D#017d0fa070800505
(1725511090.196041) can0 60D#027d0fa170800e0e
(1725511090.196440) can0 60D#037cefa070800b05
(1725511090.196637) can0 60D#047d0fa070800505
(1725511090.268579) can0 60A#04007f10
(1725511090.268909) can0 60B#01512bf480202176
(1725511090.269145) can0 60B#024ecbff8020019f
(1725511090.269393) can0 60B#034ffbf9802001a6
(1725511090.269643) can0 60B#04504c1d8020018a
(1725511090.269985) can0 60C#018ce53a8220e8
(1725511090.270277) can0 60C#0284633a0220e8
(1725511090.270539) can0 60C#038ca33a0220e8
(1725511090.270564) can0 60C#048ca53a0220e8
(1725511090.270885) can0 60D#017d0fa070800505
(1725511090.271438) can0 60D#027d0fa170800e0e
(1725511090.271696) can0 60D#037cefa070800b05
(1725511090.271719) can0 60D#047d0fa070800505
(1725511090.338682) can0 60A#04008110
(1725511090.338899) can0 60B#01512bf480202176
(1725511090.339088) can0 60B#024ecbff8020019f
(1725511090.339545) can0 60B#034ffbf9802001a6
(1725511090.339784) can0 60B#04504c1d8020018a
(1725511090.340031) can0 60C#018ce53a8220e8
(1725511090.340274) can0 60C#0284633a0220e8
(1725511090.340555) can0 60C#038ca33a0220e8
(1725511090.340787) can0 60C#048ca53a0220e8
(1725511090.341018) can0 60D#017d2fa070800505
(1725511090.341269) can0 60D#027d0fa170800e0e
(1725511090.341549) can0 60D#037cefa070800b05
(1725511090.341756) can0 60D#047d0fa070800505
(1725511090.413807) can0 60A#04008310
(1725511090.414240) can0 60B#01512bf480202176
(1725511090.414276) can0 60B#024ecbff8020019f
(1725511090.414697) can0 60B#034ffbf9802001a6
(1725511090.414974) can0 60B#04504c1d8020018a
(1725511090.415000) can0 60C#018ce53a8220e8
(1725511090.415235) can0 60C#0284633a0220e8
(1725511090.415599) can0 60C#038ca33a0220e8
(1725511090.416012) can0 60C#048ca53a0220e8
(1725511090.416051) can0 60D#017d2fa070800505
(1725511090.416423) can0 60D#027d0fa170800e0e
(1725511090.416813) can0 60D#037d0fa070800b05
(1725511090.416877) can0 60D#047d0fa070800505
(1725511090.488692) can0 60A#04008510
(1725511090.488905) can0 60B#01512bf580202176
(1725511090.489255) can0 60B#024ecbff8020019e
(1725511090.489668) can0 60B#034ffbf9802001a6
(1725511090.489906) can0 60B#04504c1d8020018a
(1725511090.489929) can0 60C#018ce53a8220e8
(1725511090.490283) can0 60C#0284633a0220e8
(1725511090.490681) can0 60C#038ca33a0220e8
(1725511090.490978) can0 60C#048ca53a0220e8
(1725511090.491003) can0 60D#017d4fa070800505
(1725511090.491362) can0 60D#027d0fa170800e0e
(1725511090.491753) can0 60D#037d0fa070800b05
(1725511090.492029) can0 60D#047d0fa070800505
(1725511090.566894) can0 60A#04008710
(1725511090.566936) can0 60B#01512bf580202176
(1725511090.566948) can0 60B#024ecbff8020019e
(1725511090.566958) can0 60B#034ffbf9802001a6
(1725511090.566968) can0 60B#04504c1d8020018a
(1725511090.566982) can0 60C#0194e53a8220e8
(1725511090.566995) can0 60C#0284633a0220e8
(1725511090.567008) can0 60C#038ca33a0220e8
(1725511090.567020) can0 60C#048ca53a0220e8
(1725511090.569708) can0 60D#017d6fa070800505
(1725511090.569750) can0 60D#027d0fa170800e0e
(1725511090.569762) can0 60D#037d0fa070800b05
(1725511090.569772) can0 60D#047d0fa070800505
(1725511090.638695) can0 60A#04008910
(1725511090.638957) can0 60B#01512bf580202176
(1725511090.639311) can0 60B#024ecbff8020019f
(1725511090.639544) can0 60B#034ffbf9802001a6
(1725511090.639727) can0 60B#04504c1d8020018a
(1725511090.639963) can0 60C#018ce53a8220e8
(1725511090.640282) can0 60C#0284633a0220e8
(1725511090.640751) can0 60C#038ca33a0220e8
(1725511090.640805) can0 60C#048ca53a0220e8
(1725511090.644335) can0 60D#017d8fa070800505
(1725511090.644394) can0 60D#027d0fa170800e0e
(1725511090.644406) can0 60D#037d0fa070800b05
(1725511090.644416) can0 60D#047d0fa070800505
(1725511090.708797) can0 60A#04008b10
(1725511090.709164) can0 60B#015123f580202176
(1725511090.709193) can0 60B#024ecbff8020019f
(1725511090.709482) can0 60B#034ffbf9802001a6
(1725511090.709728) can0 60B#04504c1d8020018a
(1725511090.709962) can0 60C#018ce53a0220e8
(1725511090.710171) can0 60C#0284633a0220e8
(1725511090.711174) can0 60C#038ca33a0220e8
(1725511090.711216) can0 60C#048ca53a0220e8
(1725511090.713113) can0 60D#017d8fa070800505
(1725511090.713178) can0 60D#027d0fa170800e0e
(1725511090.713190) can0 60D#037d0fa070800b05
(1725511090.713201) can0 60D#047d0fa070800505
(1725511090.787226) can0 60A#04008d10
(1725511090.787268) can0 60B#015123f580202176
(1725511090.787280) can0 60B#024ecbff8020019e
(1725511090.787291) can0 60B#034ffbf9802001a6
(1725511090.787302) can0 60B#04504c1d8020018a
(1725511090.787317) can0 60C#018ca53a0220e8
(1725511090.787332) can0 60C#0284633a0220e8
(1725511090.787345) can0 60C#038ca33a0220e8
(1725511090.787357) can0 60C#048ca53a0220e8
(1725511090.787369) can0 60D#017dafa070800505
(1725511090.787379) can0 60D#027d0fa170800e0e
(1725511090.787651) can0 60D#037d0fa070800b05
(1725511090.787682) can0 60D#047d0fa070800505
(1725511090.858782) can0 60A#04008f10
(1725511090.859343) can0 60B#015123f580202176
(1725511090.859627) can0 60B#024ecbff8020019e
(1725511090.859645) can0 60B#034ffbf9802001a6
(1725511090.859888) can0 60B#04504c1d8020018a
(1725511090.861161) can0 60C#018ce53a8220e8
(1725511090.863727) can0 60C#0284633a0220e8
(1725511090.863771) can0 60C#038ca33a0220e8
(1725511090.863784) can0 60C#048ca53a0220e8
(1725511090.863799) can0 60D#017dafa070800505
(1725511090.863810) can0 60D#027d0fa170800e0e
(1725511090.863821) can0 60D#037d0fa070800b05
(1725511090.863831) can0 60D#047d0fa070800505
(1725511090.933941) can0 60A#04009110
(1725511090.934232) can0 60B#015123f580202176
(1725511090.934252) can0 60B#024ecbff8020019e
(1725511090.934548) can0 60B#034ffbf9802001a6
(1725511090.934748) can0 60B#04504c1d8020018a
(1725511090.935023) can0 60C#018ce53a8220e8
(1725511090.935258) can0 60C#0284633a0220e8
(1725511090.936044) can0 60C#038ca33a0220e8
(1725511090.938632) can0 60C#048ca53a0220e8
(1725511090.938670) can0 60D#017dafa070800505
(1725511090.938682) can0 60D#027d0fa170800e0e
(1725511090.938692) can0 60D#037d0fa070800b05
(1725511090.938702) can0 60D#047d0fa070800505
(1725511091.003882) can0 60A#04009310
(1725511091.004198) can0 60B#015123f580202176
(1725511091.004491) can0 60B#024ecbff8020019e
(1725511091.004701) can0 60B#034ffbf9802001a6
(1725511091.004902) can0 60B#04504c1d8020018a
(1725511091.005108) can0 60C#018ce53a8220e8
(1725511091.005304) can0 60C#0284633a0220e8
(1725511091.005508) can0 60C#038ca33a0220e8
(1725511091.005896) can0 60C#048ca53a0220e8
(1725511091.006280) can0 60D#017dafa070800505
(1725511091.006560) can0 60D#027d0fa170800e0e
(1725511091.006580) can0 60D#037d0fa070800b05
(1725511091.007028) can0 60D#047d0fa070800505
(1725511091.078912) can0 60A#04009510
(1725511091.079134) can0 60B#015123f480200176
(1725511091.079335) can0 60B#024ecbff8020019e
(1725511091.079617) can0 60B#034ffbf9802001a6
(1725511091.079881) can0 60B#04504c1d8020018a
(1725511091.080197) can0 60C#018ca53a0220e8
(1725511091.080512) can0 60C#0284633a0220e8
(1725511091.080735) can0 60C#038ca33a0220e8
(1725511091.081033) can0 60C#048ca53a0220e8
(1725511091.081346) can0 60D#017d8fa070800505
(1725511091.081653) can0 60D#027d0fa170800e0e
(1725511091.081671) can0 60D#037d0fa070800b05
(1725511091.082010) can0 60D#047d0fa070800505
(1725511091.154066) can0 60A#04009710
(1725511091.154104) can0 60B#015123f480200177
(1725511091.154324) can0 60B#024ecbff8020019e
(1725511091.154514) can0 60B#034ffbf9802001a6
(1725511091.154874) can0 60B#04504c1d8020018a
(1725511091.155099) can0 60C#018ca53a0220e8
(1725511091.155327) can0 60C#0284633a0220e8
(1725511091.155550) can0 60C#038ca33a0220e8
(1725511091.155993) can0 60C#048ca53a0220e8
(1725511091.156225) can0 60D#017d8fa070800505
(1725511091.156435) can0 60D#027d0fa170800e0e
(1725511091.156623) can0 60D#037d0fa070800b05
(1725511091.156881) can0 60D#047d0fa070800505
(1725511091.228976) can0 60A#04009910
(1725511091.229304) can0 60B#015123f480200177
(1725511091.229325) can0 60B#024ecbff8020019e
(1725511091.229545) can0 60B#034ffbf9802001a6
(1725511091.229897) can0 60B#04504c1d8020018a
(1725511091.230225) can0 60C#018ca53a0220e8
(1725511091.230651) can0 60C#0284633a0220e8
(1725511091.230988) can0 60C#038ca33a0220e8
(1725511091.231022) can0 60C#048ca53a0220e8
(1725511091.231276) can0 60D#017d6fa070800505
(1725511091.231529) can0 60D#027d0fa170800e0e
(1725511091.231761) can0 60D#037d0fa070800b05
(1725511091.231997) can0 60D#047d0fa070800505
(1725511091.298990) can0 60A#04009b10
(1725511091.299294) can0 60B#015123f480200178
(1725511091.299538) can0 60B#024ecbff8020019e
(1725511091.299761) can0 60B#034ffbf9802001a6
(1725511091.299963) can0 60B#04504c1d8020018a
(1725511091.300221) can0 60C#018ca53a0220e8
(1725511091.300459) can0 60C#0284633a0220e8
(1725511091.300673) can0 60C#038ca33a0220e8
(1725511091.300951) can0 60C#048ca53a0220e8
(1725511091.301178) can0 60D#017d4fa070800505
(1725511091.301489) can0 60D#027d0fa170800e0e
(1725511091.301736) can0 60D#037d0fa070800b05
(1725511091.301961) can0 60D#047d0fa070800505
(1725511091.373964) can0 60A#04009d10
(1725511091.374302) can0 60B#015123f480200178
(1725511091.374570) can0 60B#024ecbff8020019e
(1725511091.374794) can0 60B#034ffbf9802001a6
(1725511091.375003) can0 60B#04504c1d8020018a
(1725511091.375267) can0 60C#018ca53a0220e8
(1725511091.375573) can0 60C#0284633a0220e8
(1725511091.375799) can0 60C#038ca33a0220e8
(1725511091.375999) can0 60C#048ca53a0220e8
(1725511091.376222) can0 60D#017d2fa070800505
(1725511091.376539) can0 60D#027d0fa170800e0e
(1725511091.376803) can0 60D#037d0fa070800b05
(1725511091.377057) can0 60D#047d0fa070800505
(1725511091.451856) can0 60A#04009f10
(1725511091.451896) can0 60B#01512bf380200178
(1725511091.451908) can0 60B#024ecbff8020019e
(1725511091.451918) can0 60B#034ffbf9802001a6
(1725511091.451928) can0 60B#04504c1d8020018a
(1725511091.451942) can0 60C#018ca53a0220e8
(1725511091.451956) can0 60C#0284633a0220e8
(1725511091.451968) can0 60C#038ca33a0220e8
(1725511091.451980) can0 60C#048ca53a0220e8
(1725511091.454636) can0 60D#017d0fa070800505
(1725511091.454673) can0 60D#027d0fa170800e0e
(1725511091.454683) can0 60D#037d0fa070800b05
(1725511091.454694) can0 60D#047d0fa070800505
(1725511091.524018) can0 60A#0400a110
(1725511091.524225) can0 60B#015123f380200178
(1725511091.524718) can0 60B#024ecbff8020019e
(1725511091.524744) can0 60B#034ffbf9802001a6
(1725511091.525187) can0 60B#04504c1d8020018a
(1725511091.525561) can0 60C#018ca53a0220e8
(1725511091.525598) can0 60C#0284633a0220e8
(1725511091.525975) can0 60C#038ca33a0220e8
(1725511091.526685) can0 60C#048ca53a0220e8
(1725511091.526727) can0 60D#017d0fa070800505
(1725511091.529398) can0 60D#027d0fa170800e0e
(1725511091.529457) can0 60D#037d0fa070800b05
(1725511091.529469) can0 60D#047d0fa070800505
(1725511091.593934) can0 60A#0400a310
(1725511091.594193) can0 60B#01512bf380200177
(1725511091.594592) can0 60B#024ecbff8020019e
(1725511091.595026) can0 60B#034ffbf9802001a6
(1725511091.595420) can0 60B#04504c1d8020018a
(1725511091.595465) can0 60C#018ca53a8220e8
(1725511091.595679) can0 60C#0284633a0220e8
(1725511091.595697) can0 60C#038ca33a0220e8
(1725511091.596084) can0 60C#048ca53a0220e8
(1725511091.596346) can0 60D#017d0fa070800505
(1725511091.596570) can0 60D#027d0fa170800e0e
(1725511091.596784) can0 60D#037d0fa070800b05
(1725511091.596972) can0 60D#047d0fa070800505
(1725511091.669153) can0 60A#0400a510
(1725511091.669461) can0 60B#01512bf380200177
(1725511091.669675) can0 60B#024ecbff8020019e
(1725511091.669920) can0 60B#034ffbf9802001a6
(1725511091.670415) can0 60B#04504c1d8020018a
(1725511091.670653) can0 60C#018ca53a8220e8
(1725511091.670670) can0 60C#0284633a0220e8
(1725511091.670869) can0 60C#038ca33a0220e8
(1725511091.671226) can0 60C#048ca53a0220e8
(1725511091.671247) can0 60D#017cefa070800505
(1725511091.671672) can0 60D#027d0fa170800e0e
(1725511091.671907) can0 60D#037d0fa070800b05
(1725511091.672088) can0 60D#047d0fa070800505
(1725511091.744165) can0 60A#0400a710
(1725511091.744547) can0 60B#01512bf380200177
(1725511091.744800) can0 60B#024ecbff8020019e
(1725511091.744826) can0 60B#034ffbf9802001a6
(1725511091.745522) can0 60B#04504c1d8020018a
(1725511091.748013) can0 60C#018ce53a8220e8
(1725511091.748051) can0 60C#0284633a0220e8
(1725511091.748065) can0 60C#038ca33a0220e8
(1725511091.748078) can0 60C#048ca53a0220e8
(1725511091.748091) can0 60D#017cefa070800505
(1725511091.748101) can0 60D#027d0fa170800e0e
(1725511091.748112) can0 60D#037d0fa070800b05
(1725511091.748123) can0 60D#047d0fa070800505
(1725511091.819106) can0 60A#0400a910
(1725511091.819725) can0 60B#01512bf480200178
(1725511091.819976) can0 60B#024ecbff8020019e
(1725511091.819993) can0 60B#034ffbf9802001a6
(1725511091.820975) can0 60B#04504c1d8020018a
(1725511091.823640) can0 60C#018ce53a8220e8
(1725511091.823703) can0 60C#0284633a0220e8
(1725511091.823720) can0 60C#038ca33a0220e8
(1725511091.823733) can0 60C#048ca53a0220e8
(1725511091.823747) can0 60D#017cefa070800505
(1725511091.823758) can0 60D#027d0fa170800e0e
(1725511091.823768) can0 60D#037d0fa070800b05
(1725511091.823778) can0 60D#047d0fa070800505
(1725511091.889013) can0 60A#0400ab10
(1725511091.889220) can0 60B#01512bf380200177
(1725511091.889585) can0 60B#024ecbff8020019e
(1725511091.889766) can0 60B#034ffbf9802001a6
(1725511091.890276) can0 60B#04504c1d8020018a
(1725511091.890661) can0 60C#018ce53a8220e8
(1725511091.890700) can0 60C#0284633a0220e8
(1725511091.890911) can0 60C#038ca33a0220e8
(1725511091.891098) can0 60C#048ca53a0220e8
(1725511091.891281) can0 60D#017cefa070800505
(1725511091.891715) can0 60D#027d0fa170800e0e
(1725511091.891945) can0 60D#037d0fa070800b05
(1725511091.892168) can0 60D#047d0fa070800505
(1725511091.964014) can0 60A#0400ad10
(1725511091.964425) can0 60B#01512bf380200178
(1725511091.964607) can0 60B#024ecbff8020019e
(1725511091.964790) can0 60B#034ffbf9802001a6
(1725511091.965299) can0 60B#04504c1d8020018a
(1725511091.965537) can0 60C#018ce53a8220e8
(1725511091.965554) can0 60C#0284633a0220e8
(1725511091.965898) can0 60C#038ca33a0220e8
(1725511091.966086) can0 60C#048ca53a0220e8
(1725511091.966297) can0 60D#017cefa070800505
(1725511091.966662) can0 60D#027d0fa170800e0e
(1725511091.966880) can0 60D#037d0fa070800b05
(1725511091.967144) can0 60D#047d0fa070800505
(1725511092.039214) can0 60A#0400af10
(1725511092.039587) can0 60B#01512bf480200177
(1725511092.040042) can0 60B#024ecbff8020019e
(1725511092.040079) can0 60B#034ffbf9802001a6
(1725511092.040447) can0 60B#04504c1d8020018a
(1725511092.040684) can0 60C#018ce53a8220e8
(1725511092.040701) can0 60C#0284633a0220e8
(1725511092.041091) can0 60C#038ca33a0220e8
(1725511092.041403) can0 60C#048ca53a0220e8
(1725511092.041433) can0 60D#017cefa070800505
(1725511092.041657) can0 60D#027d0fa170800e0e
(1725511092.041874) can0 60D#037d0fa070800b05
(1725511092.042595) can0 60D#047d0fa070800505
(1725511092.114224) can0 60A#0400b110
(1725511092.114622) can0 60B#01512bf480200177
(1725511092.114870) can0 60B#024ecbff8020019e
(1725511092.114887) can0 60B#034ffbf9802001a6
(1725511092.115069) can0 60B#04504c1d8020018a
(1725511092.115431) can0 60C#018ce53a8220e8
(1725511092.115616) can0 60C#0284633a0220e8
(1725511092.115829) can0 60C#038ca33a0220e8
(1725511092.116189) can0 60C#048ca53a0220e8
(1725511092.116426) can0 60D#017cefa070800505
(1725511092.116608) can0 60D#027d0fa170800e0e
(1725511092.116949) can0 60D#037d0fa070800b05
(1725511092.117302) can0 60D#047d0fa070800505
(1725511092.184314) can0 60A#0400b310
(1725511092.184638) can0 60B#015123f480200177
(1725511092.184959) can0 60B#024ecbff8020019e
(1725511092.184977) can0 60B#034ffbf9802001a6
(1725511092.185274) can0 60B#04504c1d8020018a
(1725511092.185593) can0 60C#018ce53a8220e8
(1725511092.185911) can0 60C#0284633a0220e8
(1725511092.186216) can0 60C#038ca33a0220e8
(1725511092.186235) can0 60C#048ca53a0220e8
(1725511092.186539) can0 60D#017cefa070800505
(1725511092.186772) can0 60D#027d0fa170800e0e
(1725511092.187090) can0 60D#037d0fa070800b05
(1725511092.187353) can0 60D#047d0fa070800505
(1725511092.259266) can0 60A#0400b510
(1725511092.259511) can0 60B#015123f480200177
(1725511092.259709) can0 60B#024ecbff8020019e
(1725511092.260016) can0 60B#034ffbf9802001a6
(1725511092.260240) can0 60B#04504c1d8020018a
(1725511092.260668) can0 60C#018ce53a8220e8
(1725511092.260961) can0 60C#0284633a0220e8
(1725511092.261039) can0 60C#038ca33a0220e8
(1725511092.261339) can0 60C#048ca53a0220e8
(1725511092.261562) can0 60D#017d0fa070800505
(1725511092.261827) can0 60D#027d0fa170800d0e
(1725511092.262287) can0 60D#037d0fa070800b05
(1725511092.262561) can0 60D#047d0fa070800505
(1725511092.334270) can0 60A#0400b710
(1725511092.334502) can0 60B#015123f480200177
(1725511092.334743) can0 60B#024ecbff8020019e
(1725511092.334963) can0 60B#034ffbf9802001a6
(1725511092.335218) can0 60B#04504c1d8020018a
(1725511092.335626) can0 60C#018ce53a8220e8
(1725511092.335916) can0 60C#0284633a0220e8
(1725511092.336302) can0 60C#038ca33a0220e8
(1725511092.336728) can0 60C#048ca53a0220e8
(1725511092.336767) can0 60D#017d0fa070800505
(1725511092.337000) can0 60D#027d0fa170800d0e
(1725511092.337015) can0 60D#037d0fa070800b05
(1725511092.337249) can0 60D#047d0fa070800505
(1725511092.409664) can0 60A#0400b910
(1725511092.409704) can0 60B#015123f480200177
(1725511092.410113) can0 60B#024ecbff8020019e
(1725511092.410133) can0 60B#034ffbf9802001a6
(1725511092.411183) can0 60B#04504c1d8020018a
(1725511092.413690) can0 60C#018ce53a8220e8
(1725511092.413728) can0 60C#0284633a0220e8
(1725511092.413745) can0 60C#038ca33a0220e8
(1725511092.413758) can0 60C#048ca53a0220e8
(1725511092.413770) can0 60D#017d2fa070800505
(1725511092.413781) can0 60D#027d0fa170800d0e
(1725511092.413791) can0 60D#037d0fa070800b05
(1725511092.413801) can0 60D#047d0fa070800505
(1725511092.479592) can0 60A#0500bb10
(1725511092.479630) can0 60B#0050d45080200188
(1725511092.479835) can0 60B#015123f480200177
(1725511092.480212) can0 60B#024ecbff8020019e
(1725511092.480504) can0 60B#034ffbf9802001a6
(1725511092.480518) can0 60B#04504c1d8020018a
(1725511092.480710) can0 60C#00a5278d822064
(1725511092.481162) can0 60C#018ce53a8220e8
(1725511092.481464) can0 60C#0284633a0220e8
(1725511092.481876) can0 60C#038ca33a0220e8
(1725511092.482439) can0 60C#048ca53a0220e8
(1725511092.482478) can0 60D#007d0fa070800505
(1725511092.482902) can0 60D#017d2fa070800505
(1725511092.482939) can0 60D#027d0fa170800d0e
(1725511092.483337) can0 60D#037d0fa070800b05
(1725511092.483373) can0 60D#047d0fa070800505
(1725511092.554600) can0 60A#0500bd10
(1725511092.555007) can0 60B#0050d45080200188
(1725511092.555044) can0 60B#015123f480200177
(1725511092.555410) can0 60B#024ecbff8020019e
(1725511092.555447) can0 60B#034ffbf9802001a6
(1725511092.555814) can0 60B#04504c1d8020018a
(1725511092.556111) can0 60C#00a52d8d82206c
(1725511092.556131) can0 60C#018ce53a8220e8
(1725511092.556322) can0 60C#0284633a0220e8
(1725511092.556735) can0 60C#038ca33a0220e8
(1725511092.557004) can0 60C#048ca53a0220e8
(1725511092.557031) can0 60D#007d0fa070800505
(1725511092.557309) can0 60D#017d2fa070800505
(1725511092.557506) can0 60D#027d0fa170800d0e
(1725511092.557899) can0 60D#037d0fa070800b05
(1725511092.558158) can0 60D#047d0fa070800505
(1725511092.629336) can0 60A#0500bf10
(1725511092.629551) can0 60B#0050d45080200188
(1725511092.629732) can0 60B#015123f480200177
(1725511092.630242) can0 60B#024ecbff8020019e
(1725511092.630638) can0 60B#034ffbf9802001a6
(1725511092.630674) can0 60B#04504c1d8020018a
(1725511092.630915) can0 60C#00a56f8d82204c
(1725511092.631165) can0 60C#018ce53a8220e8
(1725511092.631599) can0 60C#0284633a0220e8
(1725511092.632013) can0 60C#038ca33a0220e8
(1725511092.632052) can0 60C#048ca53a0220e8
(1725511092.632420) can0 60D#007d0fa070800505
(1725511092.632812) can0 60D#017d4fa070800505
(1725511092.632872) can0 60D#027d0fa170800d0e
(1725511092.633078) can0 60D#037d0fa070800b05
(1725511092.633092) can0 60D#047d0fa070800505
(1725511092.704331) can0 60A#0500c110
(1725511092.704542) can0 60B#0050d45080200188
(1725511092.704726) can0 60B#015123f480200177
(1725511092.705240) can0 60B#024ecbff8020019e
(1725511092.705528) can0 60B#034ffbf9802001a6
(1725511092.705543) can0 60B#04504c1d8020018a
(1725511092.705893) can0 60C#00ad718d82204c
(1725511092.706078) can0 60C#0194e53a8220e8
(1725511092.706316) can0 60C#0284633a0220e8
(1725511092.706556) can0 60C#038ca33a0220e8
(1725511092.706795) can0 60C#048ca53a0220e8
(1725511092.707248) can0 60D#007d0fa070800505
(1725511092.707552) can0 60D#017d4fa070800505
(1725511092.707870) can0 60D#027d0fa170800d0e
(1725511092.708273) can0 60D#037d0fa070800b05
(1725511092.708309) can0 60D#047d0fa070800505
(1725511092.774503) can0 60A#0500c310
(1725511092.774776) can0 60B#0050d45080200188
(1725511092.775019) can0 60B#015123f480200177
(1725511092.775249) can0 60B#024ecbff8020019e
(1725511092.775538) can0 60B#034ffbf9802001a6
(1725511092.775731) can0 60B#04504c1d8020018a
(1725511092.775928) can0 60C#00adb18d82202c
(1725511092.776217) can0 60C#018ce53a8220e8
(1725511092.776477) can0 60C#0284633a0220e8
(1725511092.776696) can0 60C#038ca33a0220e8
(1725511092.777015) can0 60C#048ca53a0220e8
(1725511092.777263) can0 60D#007d0fa070800505
(1725511092.777524) can0 60D#017d6fa070800505
(1725511092.777719) can0 60D#027d0fa170800d0e
(1725511092.777975) can0 60D#037d0fa070800b05
(1725511092.778221) can0 60D#047d0fa070800505
(1725511092.849732) can0 60A#0400c510
(1725511092.849770) can0 60B#015123f480200177
(1725511092.850216) can0 60B#024ecbff8020019e
(1725511092.850732) can0 60B#034ffbf9802001a6
(1725511092.850768) can0 60B#04504c1d8020018a
(1725511092.851225) can0 60C#018ce53a0220e8
(1725511092.851264) can0 60C#0284633a0220e8
(1725511092.851703) can0 60C#038ca33a0220e8
(1725511092.851742) can0 60C#048ca53a0220e8
(1725511092.852106) can0 60D#017d6fa070800505
(1725511092.852142) can0 60D#027d0fa170800d0e
(1725511092.852573) can0 60D#037d0fa070800b05
(1725511092.853049) can0 60D#047d0fa070800505
(1725511092.924776) can0 60A#0400c710
(1725511092.924815) can0 60B#015123f480200177
(1725511092.925133) can0 60B#024ecbff8020019e
(1725511092.925147) can0 60B#034ffbf9802001a6
(1725511092.925408) can0 60B#04504c1d8020018a
(1725511092.925823) can0 60C#018ce53a8220e8
(1725511092.926137) can0 60C#0284633a0220e8
(1725511092.926156) can0 60C#038ca33a0220e8
(1725511092.926417) can0 60C#048ca53a0220e8
(1725511092.926826) can0 60D#017d6fa070800505
(1725511092.927091) can0 60D#027d0fa170800d0e
(1725511092.927501) can0 60D#037d0fa070800b05
(1725511092.927982) can0 60D#047d0fa070800505
(1725511092.999389) can0 60A#0400c910
(1725511092.999635) can0 60B#015123f480200177
(1725511092.999873) can0 60B#024ecbff8020019e
(1725511093.000433) can0 60B#034ffbf9802001a6
(1725511093.000662) can0 60B#04504c1d8020018a
(1725511093.000684) can0 60C#018ca53a0220e8
(1725511093.000890) can0 60C#0284633a0220e8
(1725511093.001084) can0 60C#038ca33a0220e8
(1725511093.001674) can0 60C#048ca53a0220e8
(1725511093.001963) can0 60D#017d4fa070800505
(1725511093.001982) can0 60D#027d0fa170800d0e
(1725511093.002335) can0 60D#037d0fa070800b05
(1725511093.002726) can0 60D#047d0fa070800505
(1725511093.069757) can0 60A#0400cb10
(1725511093.069819) can0 60B#015123f480200177
(1725511093.070170) can0 60B#024ecbff8020019e
(1725511093.070465) can0 60B#034ffbf9802001a6
(1725511093.070482) can0 60B#04504c1d8020018a
(1725511093.070716) can0 60C#018ce53a8220e8
(1725511093.070948) can0 60C#0284633a0220e8
(1725511093.071184) can0 60C#038ca33a0220e8
(1725511093.071511) can0 60C#048ca53a0220e8
(1725511093.071782) can0 60D#017d4fa070800505
(1725511093.073081) can0 60D#027d0fa170800d0e
(1725511093.073508) can0 60D#037d0fa070800b05
(1725511093.073545) can0 60D#047d0fa070800505
(1725511093.144532) can0 60A#0400cd10
(1725511093.144744) can0 60B#015123f480200178
(1725511093.144927) can0 60B#024ecbff8020019e
(1725511093.145303) can0 60B#034ffbf9802001a6
(1725511093.145705) can0 60B#04504c1d8020018a
(1725511093.145990) can0 60C#018ca53a0220e8
(1725511093.146013) can0 60C#0284633a0220e8
(1725511093.146373) can0 60C#038ca33a0220e8
(1725511093.146688) can0 60C#048ca53a0220e8
(1725511093.146921) can0 60D#017d0fa070800505
(1725511093.147166) can0 60D#027d0fa170800d0e
(1725511093.147591) can0 60D#037d0fa070800b05
(1725511093.147819) can0 60D#047d0fa070800505
(1725511093.219574) can0 60A#0400cf10
(1725511093.219873) can0 60B#015123f480200178
(1725511093.220175) can0 60B#024ecbff8020019e
(1725511093.220536) can0 60B#034ffbf9802001a6
(1725511093.220852) can0 60B#04504c1d8020018a
(1725511093.220876) can0 60C#018ca53a0220e8
(1725511093.221144) can0 60C#0284633a0220e8
(1725511093.221408) can0 60C#038ca33a0220e8
(1725511093.221674) can0 60C#048ca53a0220e8
(1725511093.222015) can0 60D#017d0fa070800505
(1725511093.222316) can0 60D#027d0fa170800d0e
(1725511093.222619) can0 60D#037d0fa070800b05
(1725511093.222636) can0 60D#047d0fa070800505
(1725511093.294718) can0 60A#0400d110
(1725511093.295024) can0 60B#015123f480200178
(1725511093.295042) can0 60B#024ecbff8020019e
(1725511093.295351) can0 60B#034ffbf9802001a6
(1725511093.295656) can0 60B#04504c1d8020018a
(1725511093.295957) can0 60C#018ca53a0220e8
(1725511093.296284) can0 60C#0284633a0220e8
(1725511093.296620) can0 60C#038ca33a0220e8
(1725511093.296640) can0 60C#048ca53a0220e8
(1725511093.296968) can0 60D#017d2fa070800505
(1725511093.297272) can0 60D#027d0fa170800e0e
(1725511093.297623) can0 60D#037d0fa070800b05
(1725511093.297641) can0 60D#047d0fa070800505
(1725511093.364752) can0 60A#0500d310
(1725511093.364975) can0 60B#004fb40a8020017a
(1725511093.364990) can0 60B#015123f480200178
(1725511093.365548) can0 60B#024ecbff8020019e
(1725511093.365866) can0 60B#034ffbf9802001a6
(1725511093.365888) can0 60B#04504c1d8020018a
(1725511093.366163) can0 60C#00a5278d822064
(1725511093.366393) can0 60C#018ca53a0220e8
(1725511093.366631) can0 60C#0284633a0220e8
(1725511093.366888) can0 60C#038ca33a0220e8
(1725511093.367198) can0 60C#048ca53a0220e8
(1725511093.367548) can0 60D#007d0fa070800505
(1725511093.367868) can0 60D#017d2fa070800505
(1725511093.368142) can0 60D#027d0fa170800e0e
(1725511093.368156) can0 60D#037d0fa070800b05
(1725511093.368451) can0 60D#047d0fa070800505
(1725511093.439713) can0 60A#0500d510
(1725511093.440104) can0 60B#004fbc0a8020017a
(1725511093.440121) can0 60B#015123f480200179
(1725511093.440398) can0 60B#024ecbff8020019e
(1725511093.440626) can0 60B#034ffbf9802001a6
(1725511093.440839) can0 60B#04504c1d8020018a
(1725511093.441099) can0 60C#009ce78c8220a8
(1725511093.441468) can0 60C#018ca53a0220e8
(1725511093.441898) can0 60C#0284633a0220e8
(1725511093.442170) can0 60C#038ca33a0220e8
(1725511093.442189) can0 60C#048ca53a0220e8
(1725511093.442431) can0 60D#007d4fa070800505
(1725511093.442785) can0 60D#017d2fa070800505
(1725511093.443014) can0 60D#027d0fa170800e0e
(1725511093.443197) can0 60D#037d0fa070800b05
(1725511093.443423) can0 60D#047cefa070800505
(1725511093.514632) can0 60A#0600d710
(1725511093.514973) can0 60B#004fbc0a8020017a
(1725511093.515317) can0 60B#015123f480200179
(1725511093.515755) can0 60B#024ecbff8020019e
(1725511093.515792) can0 60B#034ffbf9802001a6
(1725511093.516226) can0 60B#04504c1d8020018a
(1725511093.516667) can0 60B#054f8be580200186
(1725511093.516712) can0 60C#009d2b8c8220ac
(1725511093.517156) can0 60C#018ca53a0220e8
(1725511093.517195) can0 60C#0284633a0220e8
(1725511093.517661) can0 60C#038ca33a0220e8
(1725511093.517698) can0 60C#048ca53a0220e8
(1725511093.517937) can0 60C#05a5278d822064
(1725511093.517954) can0 60D#007d4fa070800505
(1725511093.518359) can0 60D#017d4fa070800505
(1725511093.518819) can0 60D#027d0fa170800e0e
(1725511093.518876) can0 60D#037d0fa070800b05
(1725511093.519312) can0 60D#047cefa070800505
(1725511093.519773) can0 60D#057d0fa070800505
(1725511093.590045) can0 60A#0600d910
(1725511093.590085) can0 60B#004fbc0a8020217a
(1725511093.590515) can0 60B#015123f480200178
(1725511093.590552) can0 60B#024ecbff8020019e
(1725511093.590981) can0 60B#034ffbf9802001a6
(1725511093.591437) can0 60B#04504c1d8020018a
(1725511093.591475) can0 60B#054f8be580200186
(1725511093.591876) can0 60C#009d277b8220c8
(1725511093.592192) can0 60C#018ca53a0220e8
(1725511093.594694) can0 60C#0284633a0220e8
(1725511093.594733) can0 60C#038ca33a0220e8
(1725511093.594746) can0 60C#048ca53a0220e8
(1725511093.594759) can0 60C#05a52d8d82206c
(1725511093.594771) can0 60D#007d0fa070800505
(1725511093.594782) can0 60D#017d4fa070800505
(1725511093.594793) can0 60D#027d0fa170800e0e
(1725511093.594804) can0 60D#037d0fa070800b05
(1725511093.595222) can0 60D#047cefa070800505
(1725511093.595258) can0 60D#057d0fa070800505
(1725511093.659645) can0 60A#0600db10
(1725511093.659914) can0 60B#004fbc0a8020217a
(1725511093.660107) can0 60B#015123f480200178
(1725511093.660336) can0 60B#024ecbff8020019e
(1725511093.660713) can0 60B#034ffbf9802001a6
(1725511093.660912) can0 60B#04504c1d8020018a
(1725511093.661256) can0 60B#054f8be580200187
(1725511093.661581) can0 60C#009d297b8220cc
(1725511093.661908) can0 60C#018ca53a8220e8
(1725511093.662160) can0 60C#0284633a0220e8
(1725511093.662184) can0 60C#038ca33a0220e8
(1725511093.662458) can0 60C#048ca53a0220e8
(1725511093.662664) can0 60C#059d297c8220a8
(1725511093.662876) can0 60D#007d0fa070800505
(1725511093.663893) can0 60D#017d4fa070800505
(1725511093.663934) can0 60D#027d0fa170800e0e
(1725511093.663945) can0 60D#037d0fa070800b05
(1725511093.664205) can0 60D#047cefa070800505
(1725511093.664444) can0 60D#057cefa070800505
(1725511093.735009) can0 60A#0600dd10
(1725511093.735049) can0 60B#004fbc0a8020217a
(1725511093.735256) can0 60B#015123f480200178
(1725511093.736009) can0 60B#024ecbff8020019e
(1725511093.736290) can0 60B#034ffbf9802001a6
(1725511093.736315) can0 60B#04504c1d8020018a
(1725511093.736327) can0 60B#054f8be680202186
(1725511093.736541) can0 60C#009d6b7b8220cc
(1725511093.736741) can0 60C#018ca53a0220e8
(1725511093.736944) can0 60C#0284633a0220e8
(1725511093.737149) can0 60C#038ca53a0220e8
(1725511093.737347) can0 60C#048ca53a0220e8
(1725511093.737778) can0 60C#059ce77c0220c8
(1725511093.738097) can0 60D#007d0fa070800505
(1725511093.738467) can0 60D#017d4fa070800505
(1725511093.738709) can0 60D#027d0fa170800e0e
(1725511093.738727) can0 60D#037d0fa070800b05
(1725511093.738917) can0 60D#047cefa070800505
(1725511093.739347) can0 60D#057d4fa070800505
(1725511093.809839) can0 60A#0600df10
(1725511093.810143) can0 60B#004fbc0a8020217a
(1725511093.810167) can0 60B#015123f480200179
(1725511093.810606) can0 60B#024ecbfe8020019e
(1725511093.810990) can0 60B#034ffbf9802001a6
(1725511093.811337) can0 60B#04504c1d8020018a
(1725511093.811363) can0 60B#054f8be680202186
(1725511093.811710) can0 60C#009d6b7b8220ac
(1725511093.811993) can0 60C#018ca53a0220e8
(1725511093.812018) can0 60C#0284633a0220e8
(1725511093.812279) can0 60C#038ca53a0220e8
(1725511093.812599) can0 60C#048ca53a0220e8
(1725511093.813046) can0 60C#059ce77b8220e8
(1725511093.813457) can0 60D#007d0fa070800505
(1725511093.813493) can0 60D#017d4fa070800505
(1725511093.813964) can0 60D#027d0fa170800e0e
(1725511093.814001) can0 60D#037d0fa070800b05
(1725511093.814462) can0 60D#047cefa070800505
(1725511093.814498) can0 60D#057d2fa070800505
(1725511093.884827) can0 60A#0700e110
(1725511093.885322) can0 60B#004fbc0a8020217a
(1725511093.885358) can0 60B#015123f480200178
(1725511093.885792) can0 60B#024ecbfe8020019e
(1725511093.886250) can0 60B#034ffbf9802001a6
(1725511093.886286) can0 60B#04504c1d8020018a
(1725511093.886584) can0 60B#054f8be680202186
(1725511093.886598) can0 60B#064fbbf880200177
(1725511093.886892) can0 60C#009d6b7b8220ac
(1725511093.887306) can0 60C#018ca53a0220e8
(1725511093.887592) can0 60C#0284633a0220e8
(1725511093.887608) can0 60C#038ca53a0220e8
(1725511093.887895) can0 60C#048ca53a0220e8
(1725511093.888312) can0 60C#059d297b8220cc
(1725511093.888777) can0 60C#06a5278d822064
(1725511093.888816) can0 60D#007d0fa070800505
(1725511093.889278) can0 60D#017d2fa070800505
(1725511093.889314) can0 60D#027d0fa170800e0e
(1725511093.889701) can0 60D#037d0fa070800b05
(1725511093.889738) can0 60D#047cefa070800505
(1725511093.890004) can0 60D#057d2fa070800505
(1725511093.890315) can0 60D#067d0fa070800505
(1725511093.959837) can0 60A#0700e310
(1725511093.960091) can0 60B#004fbc0a8020217a
(1725511093.960278) can0 60B#015123f480200178
(1725511093.960502) can0 60B#024ecbfe8020019e
(1725511093.960682) can0 60B#034ffbf9802001a6
(1725511093.961050) can0 60B#04504c1d8020018a
(1725511093.961232) can0 60B#054f8be680202186
(1725511093.961426) can0 60B#064fabf980206182
(1725511093.961773) can0 60C#00a5ad7b8220ac
(1725511093.961958) can0 60C#018ca53a0220e8
(1725511093.962534) can0 60C#0284633a0220e8
(1725511093.962573) can0 60C#038ca53a0220e8
(1725511093.962947) can0 60C#048ca53a0220e8
(1725511093.963375) can0 60C#059d276b0220e8
(1725511093.963414) can0 60C#069d278d0220a8
(1725511093.963623) can0 60D#007d0fa070800505
(1725511093.963805) can0 60D#017d2fa070800505
(1725511093.963987) can0 60D#027d0fa170800e0e
(1725511093.964333) can0 60D#037d0fa070800b05
(1725511093.964514) can0 60D#047cefa070800505
(1725511093.964862) can0 60D#057d2fa070800505
(1725511093.965046) can0 60D#067bcfa070800505
(1725511094.029917) can0 60A#0800e510
(1725511094.030313) can0 60B#004fbc0a8020217a
(1725511094.030345) can0 60B#015123f480200173
(1725511094.030679) can0 60B#024ecbfe8020019e
(1725511094.031067) can0 60B#034ffbf9802001a6
(1725511094.031100) can0 60B#04504c1d8020018a
(1725511094.032024) can0 60B#054f8be680202186
(1725511094.034559) can0 60B#064fa3fa80206187
(1725511094.034596) can0 60B#0750dbf78020017c
(1725511094.034615) can0 60C#00a5ad7b8220ac
(1725511094.034628) can0 60C#018ca53a0220c8
(1725511094.034641) can0 60C#0284633a0220e8
(1725511094.034653) can0 60C#038ca33a0220e8
(1725511094.034665) can0 60C#048ca53a0220e8
(1725511094.034678) can0 60C#0594e56b0220e8
(1725511094.034690) can0 60C#069d2b7c8220a8
(1725511094.037216) can0 60C#07a5278d822064
(1725511094.037255) can0 60D#007d0fa070800505
(1725511094.037266) can0 60D#017d2fa070800505
(1725511094.037277) can0 60D#027d0fa170800e0e
(1725511094.037286) can0 60D#037d0fa070800b05
(1725511094.037296) can0 60D#047cefa070800505
(1725511094.037307) can0 60D#057d2fa070800505
(1725511094.037317) can0 60D#067c4fa070800505
(1725511094.037327) can0 60D#077d0fa070800505
(1725511094.104692) can0 60A#0800e710
(1725511094.104956) can0 60B#004fbc0a8020217a
(1725511094.105665) can0 60B#015123f480200176
(1725511094.105702) can0 60B#024ecbfe8020019e
(1725511094.105910) can0 60B#034ffbf9802001a6
(1725511094.106130) can0 60B#04504c1d8020018a
(1725511094.106492) can0 60B#054f8be680202185
(1725511094.106937) can0 60B#064f9bfa80208189
(1725511094.106973) can0 60B#0750dbf78020017b
(1725511094.107348) can0 60C#00a5ad7b8220ac
(1725511094.107746) can0 60C#018ca53a0220e8
(1725511094.107788) can0 60C#0284633a0220e8
(1725511094.108039) can0 60C#038ca53a0220e8
(1725511094.108060) can0 60C#048ca53a0220e8
(1725511094.108415) can0 60C#0594e55a8220e8
(1725511094.108814) can0 60C#069d2b7c8220a8
(1725511094.109079) can0 60C#07a52d8d8220a8
(1725511094.109096) can0 60D#007d0fa070800505
(1725511094.109273) can0 60D#017d0fa070800505
(1725511094.109663) can0 60D#027d0fa170800e0e
(1725511094.109859) can0 60D#037d0fa070800b05
(1725511094.110209) can0 60D#047cefa070800505
(1725511094.110423) can0 60D#057d2fa070800505
(1725511094.110602) can0 60D#067d2fa070800505
(1725511094.110944) can0 60D#077d0fa070800505
(1725511094.179753) can0 60A#0800e910
(1725511094.180012) can0 60B#004fbc0a8020217a
(1725511094.180495) can0 60B#015123f480200177
(1725511094.180816) can0 60B#024ecbfe8020019e
(1725511094.180882) can0 60B#034ffbf9802001a6
(1725511094.181165) can0 60B#04504c1d8020018a
(1725511094.181460) can0 60B#054f8be680200185
(1725511094.181651) can0 60B#064f9bfa8020818a
(1725511094.181834) can0 60B#0750dbf68020017c
(1725511094.182047) can0 60C#00adaf7b82208c
(1725511094.182543) can0 60C#018ca53a0220e8
(1725511094.182566) can0 60C#0284633a0220e8
(1725511094.182779) can0 60C#038ca33a0220e8
(1725511094.183140) can0 60C#048ca53a0220e8
(1725511094.183734) can0 60C#0594e55a8220e8
(1725511094.184029) can0 60C#069d2d7c0220a8
(1725511094.184060) can0 60C#07a56f8d8220c8
(1725511094.184304) can0 60D#007d0fa070800505
(1725511094.184550) can0 60D#017d0fa070800505
(1725511094.184827) can0 60D#027d0fa170800e0e
(1725511094.188302) can0 60D#037d0fa070800b05
(1725511094.188339) can0 60D#047ccfa070800505
(1725511094.188351) can0 60D#057d2fa070800505
(1725511094.188362) can0 60D#067dcfa070800505
(1725511094.188372) can0 60D#077d0fa070800505
(1725511094.254780) can0 60A#0800eb10
(1725511094.254988) can0 60B#004fbc0a8020217a
(1725511094.255334) can0 60B#015123f480200178
(1725511094.255519) can0 60B#024ecbfe8020019e
(1725511094.255869) can0 60B#034ffbf9802001a6
(1725511094.256052) can0 60B#04504c1d8020018a
(1725511094.256421) can0 60B#054f8be680200185
(1725511094.256602) can0 60B#064f93fb8020818c
(1725511094.256984) can0 60B#0750dbf6801fe17c
(1725511094.257348) can0 60C#00adef7b82208c
(1725511094.257580) can0 60C#018ca53a0220e8
(1725511094.257597) can0 60C#0284633a0220e8
(1725511094.257780) can0 60C#038ca53a0220e8
(1725511094.258443) can0 60C#048ca53a0220e8
(1725511094.258481) can0 60C#0594e55a8220e8
(1725511094.258870) can0 60C#069d2d7c0220a8
(1725511094.259104) can0 60C#07a56f8d0220c8
(1725511094.259121) can0 60D#007d0fa070800505
(1725511094.259300) can0 60D#017d0fa070800505
(1725511094.259661) can0 60D#027d0fa170800e0e
(1725511094.259851) can0 60D#037d0fa070800b05
(1725511094.260194) can0 60D#047ccfa070800505
(1725511094.260425) can0 60D#057d2fa070800505
(1725511094.260768) can0 60D#067defa070800505
(1725511094.260951) can0 60D#077d2fa070800505
(1725511094.330220) can0 60A#0700ed10
(1725511094.330276) can0 60B#015123f480200179
(1725511094.330618) can0 60B#024ecbfe8020019e
(1725511094.330646) can0 60B#034ffbf9802001a6
(1725511094.330927) can0 60B#04504c1d8020018b
(1725511094.331236) can0 60B#054f8be680200185
(1725511094.331555) can0 60B#064f93fb8020818d
(1725511094.332010) can0 60B#0750dbf6801fe17c
(1725511094.332303) can0 60C#018ca53a0220e8
(1725511094.332328) can0 60C#0284633a0220e8
(1725511094.332578) can0 60C#038ca53a0220e8
(1725511094.332600) can0 60C#048ca53a0220e8
(1725511094.332951) can0 60C#0594e55a8220e8
(1725511094.333337) can0 60C#069d6d7c022088
(1725511094.333570) can0 60C#07ad718d0220ac
(1725511094.333729) can0 60D#017d2fa070800505
(1725511094.333959) can0 60D#027d0fa170800e0e
(1725511094.334233) can0 60D#037d0fa070800b05
(1725511094.334986) can0 60D#047ccfa070800505
(1725511094.337547) can0 60D#057d2fa070800505
(1725511094.337586) can0 60D#067e4fa070800505
(1725511094.337597) can0 60D#077d2fa070800505
(1725511094.404892) can0 60A#0700ef10
(1725511094.405185) can0 60B#015123f48020017a
(1725511094.405538) can0 60B#024ecbfe8020019e
(1725511094.405862) can0 60B#034ffbf9802001a6
(1725511094.406094) can0 60B#04504c1d8020018b
(1725511094.406111) can0 60B#054f8be580200185
(1725511094.406334) can0 60B#064f93fb8020618d
(1725511094.406952) can0 60B#0750dbf6801fe17c
(1725511094.407270) can0 60C#018ca53a0220e8
(1725511094.407290) can0 60C#0284633a0220e8
(1725511094.407587) can0 60C#038ca53a0220e8
(1725511094.407907) can0 60C#048ca53a0220e8
(1725511094.408230) can0 60C#0594e54a8220e8
(1725511094.408250) can0 60C#069d6d6b822088
(1725511094.408619) can0 60C#07adb18d0220ac
(1725511094.408933) can0 60D#017d2fa070800505
(1725511094.409166) can0 60D#027d0fa170800e0e
(1725511094.409184) can0 60D#037d0fa070800b05
(1725511094.409467) can0 60D#047ccfa070800505
(1725511094.409773) can0 60D#057d2fa070800505
(1725511094.410083) can0 60D#067e8fa070800505
(1725511094.410389) can0 60D#077d2fa070800505
(1725511094.479906) can0 60A#0700f110
(1725511094.480134) can0 60B#015123f48020017a
(1725511094.480331) can0 60B#024ecbfe8020019e
(1725511094.480725) can0 60B#034ffbf9802001a6
(1725511094.481015) can0 60B#04504c1d80200189
(1725511094.481311) can0 60B#054f8be580200186
(1725511094.481692) can0 60B#064f93fb8020618e
(1725511094.482009) can0 60B#0750dbf6801fe17c
(1725511094.482045) can0 60C#018ca53a0220e8
(1725511094.482246) can0 60C#0284633a0220e8
(1725511094.482502) can0 60C#038ca53a0220e8
(1725511094.482881) can0 60C#048ca53a0220e8
(1725511094.483116) can0 60C#0594e54a8220e8
(1725511094.483341) can0 60C#069d2d6b822088
(1725511094.483564) can0 60C#07b5b38d0220ac
(1725511094.483755) can0 60D#017d4fa070800505
(1725511094.483985) can0 60D#027d0fa170800d0e
(1725511094.484184) can0 60D#037d0fa070800b05
(1725511094.484763) can0 60D#047ccfa070800505
(1725511094.485054) can0 60D#057d2fa070800505
(1725511094.485076) can0 60D#067eafa070800505
(1725511094.485333) can0 60D#077d2fa070800505
(1725511094.549989) can0 60A#0700f310
(1725511094.550368) can0 60B#015123f58020017b
(1725511094.550767) can0 60B#024ecbfe8020019e
(1725511094.551039) can0 60B#034ffbf9802001a6
(1725511094.551233) can0 60B#04504c1d80200186
(1725511094.551751) can0 60B#054f8be580200186
(1725511094.552163) can0 60B#064f93fb8020618e
(1725511094.552200) can0 60B#0750dbf6801fe17c
(1725511094.552433) can0 60C#018ca53a0220e8
(1725511094.552620) can0 60C#0284633a0220e8
(1725511094.553024) can0 60C#038ca53a0220e8
(1725511094.553423) can0 60C#048ca53a0220e8
(1725511094.553465) can0 60C#0594e54a8220e8
(1725511094.553676) can0 60C#06a52d6b822068
(1725511094.553875) can0 60C#07bdb38d02208c
(1725511094.554063) can0 60D#017d4fa070800505
(1725511094.554421) can0 60D#027d0fa170800e0e
(1725511094.554602) can0 60D#037d0fa070800b05
(1725511094.554784) can0 60D#047ccfa070800505
(1725511094.555128) can0 60D#057d0fa070800505
(1725511094.555334) can0 60D#067eafa070800505
(1725511094.555674) can0 60D#077d2fa070800505
(1725511094.624884) can0 60A#0800f510
(1725511094.625214) can0 60B#004fbc0a8020017b
(1725511094.625506) can0 60B#015123f58020217b
(1725511094.625806) can0 60B#024ecbfe8020019e
(1725511094.626086) can0 60B#034ffbf9802001a6
(1725511094.626391) can0 60B#04504c1d80200183
(1725511094.626668) can0 60B#054f8be580200186
(1725511094.626946) can0 60B#064f8bfb8020418f
(1725511094.627283) can0 60B#0750dbf68020017d
(1725511094.627310) can0 60C#00a5278d822064
(1725511094.627620) can0 60C#018ca53a0220e8
(1725511094.627923) can0 60C#0284633a0220e8
(1725511094.628216) can0 60C#038ca53a0220e8
(1725511094.628540) can0 60C#048ca53a0220e8
(1725511094.628560) can0 60C#0594e54a8220cc
(1725511094.628876) can0 60C#06a52b6b022068
(1725511094.629109) can0 60C#07a5278d822064
(1725511094.629378) can0 60D#007d0fa070800505
(1725511094.629636) can0 60D#017d4fa070800505
(1725511094.630063) can0 60D#027d0fa170800e0e
(1725511094.630375) can0 60D#037d0fa070800b05
(1725511094.630392) can0 60D#047cafa070800505
(1725511094.630688) can0 60D#057d0fa070800505
(1725511094.630998) can0 60D#067ecfa070800505
(1725511094.631309) can0 60D#077d0fa070800505
(1725511094.700042) can0 60A#0800f710
(1725511094.700367) can0 60B#004fb40a8020017b
(1725511094.700638) can0 60B#015123f58020217a
(1725511094.700920) can0 60B#024ecbfe8020019e
(1725511094.701193) can0 60B#034ffbf9802001a6
(1725511094.701487) can0 60B#04504c1d80200183
(1725511094.701791) can0 60B#054f8be580200186
(1725511094.701808) can0 60B#064f8bfb8020418f
(1725511094.702106) can0 60B#0750c3f68020017d
(1725511094.702414) can0 60C#009ce78c8220a8
(1725511094.702721) can0 60C#018ca53a0220e8
(1725511094.702990) can0 60C#0284633a0220e8
(1725511094.703295) can0 60C#038ca33a0220e8
(1725511094.703617) can0 60C#048ca53a8220cc
(1725511094.703636) can0 60C#0594e74a8220cc
(1725511094.703942) can0 60C#06a52b5b022048
(1725511094.704247) can0 60C#079ce78c8220a8
(1725511094.704613) can0 60D#007d0fa070800505
(1725511094.704630) can0 60D#017d6fa070800505
(1725511094.704860) can0 60D#027d0fa170800d0e
(1725511094.705117) can0 60D#037d0fa070800b05
(1725511094.705346) can0 60D#047cafa070800505
(1725511094.705572) can0 60D#057d0fa070800505
(1725511094.706106) can0 60D#067eafa070800505
(1725511094.706378) can0 60D#077bcfa070800505
(1725511094.775122) can0 60A#0800f910
(1725511094.775524) can0 60B#004fb40a8020017b
(1725511094.775940) can0 60B#015123f58020217b
(1725511094.775958) can0 60B#024ecbfe8020019e
(1725511094.776335) can0 60B#034ffbf9802001a6
(1725511094.776753) can0 60B#04504c1d80200183
(1725511094.776790) can0 60B#054f8be580200186
(1725511094.777185) can0 60B#064f8bfb8020418f
(1725511094.777221) can0 60B#0750c3f5801fe17c
(1725511094.777621) can0 60C#009ce77c0220e8
(1725511094.777881) can0 60C#018ca53a0220e8
(1725511094.778024) can0 60C#0284633a0220e8
(1725511094.778222) can0 60C#038ca33a0220e8
(1725511094.778532) can0 60C#048ce73a8220cc
(1725511094.778797) can0 60C#0594e74a8220cc
(1725511094.778818) can0 60C#06a52b5b022048
(1725511094.779025) can0 60C#079d297c8220a8
(1725511094.779265) can0 60D#007cefa070800505
(1725511094.779778) can0 60D#017d8fa070800505
(1725511094.780219) can0 60D#027d0fa170800d0e
(1725511094.780256) can0 60D#037d0fa070800b05
(1725511094.780692) can0 60D#047cafa070800505
(1725511094.780934) can0 60D#057d0fa070800505
(1725511094.780949) can0 60D#067eafa070800505
(1725511094.781157) can0 60D#077c4fa070800505
(1725511094.850270) can0 60A#0800fb10
(1725511094.850664) can0 60B#004fb40a8020017b
(1725511094.850701) can0 60B#015123f58020217b
(1725511094.850934) can0 60B#024ecbfe8020019e
(1725511094.851223) can0 60B#034ffbf9802001a6
(1725511094.851690) can0 60B#04504c1d80200183
(1725511094.851727) can0 60B#054f8be580200186
(1725511094.852005) can0 60B#064f8bfb8020418f
(1725511094.852407) can0 60B#0750bbf5801fc17c
(1725511094.852673) can0 60C#009ce77b8220e8
(1725511094.852689) can0 60C#018ca53a0220e8
(1725511094.853194) can0 60C#0284633a0220e8
(1725511094.853234) can0 60C#038ca33a0220e8
(1725511094.853700) can0 60C#048ce73a8220cc
(1725511094.853738) can0 60C#0595274a8220cc
(1725511094.853981) can0 60C#06a52b5b022028
(1725511094.854208) can0 60C#079d2b7c0220a8
(1725511094.854484) can0 60D#007cefa070800505
(1725511094.854756) can0 60D#017d8fa070800505
(1725511094.855023) can0 60D#027d0fa170800e0e
(1725511094.855295) can0 60D#037d2fa070800b05
(1725511094.855696) can0 60D#047cafa070800505
(1725511094.855963) can0 60D#057d0fa070800505
(1725511094.855980) can0 60D#067e6fa070800505
(1725511094.856359) can0 60D#077c8fa070800505
(1725511094.925028) can0 60A#0700fd10
(1725511094.925310) can0 60B#004fb40a8020017b
(1725511094.925521) can0 60B#015123f58020217b
(1725511094.925796) can0 60B#024ecbfe8020019e
(1725511094.926104) can0 60B#034ffbf9802001a6
(1725511094.926338) can0 60B#04504c1d80200183
(1725511094.926538) can0 60B#054f8be580200186
(1725511094.926989) can0 60B#0750bbf5801fc17c
(1725511094.927247) can0 60C#009d277b8220cc
(1725511094.927537) can0 60C#018ca53a0220e8
(1725511094.927563) can0 60C#0284633a0220e8
(1725511094.927768) can0 60C#038ca33a0220e8
(1725511094.931468) can0 60C#048ce73a8220cc
(1725511094.931509) can0 60C#0595294a8220ac
(1725511094.931522) can0 60C#079d2b7c0220a8
(1725511094.931537) can0 60D#007cefa070800505
(1725511094.931548) can0 60D#017d6fa070800505
(1725511094.931559) can0 60D#027d0fa170800e0e
(1725511094.931569) can0 60D#037d4fa070800b05
(1725511094.931579) can0 60D#047cafa070800505
(1725511094.931589) can0 60D#057d0fa070800505
(1725511094.931599) can0 60D#077d2fa070800505
(1725511095.000181) can0 60A#0700ff10
(1725511095.000540) can0 60B#004fb40a8020017b
(1725511095.000855) can0 60B#015123f58020017a
(1725511095.000874) can0 60B#024ecbfe8020019e
(1725511095.001172) can0 60B#034ff3f9802001a6
(1725511095.001539) can0 60B#04504c1d80200183
(1725511095.001836) can0 60B#054f8be580200186
(1725511095.002097) can0 60B#0750b3f5801fc17c
(1725511095.002123) can0 60C#009d297b8220cc
(1725511095.002400) can0 60C#018ca53a0220e8
(1725511095.002716) can0 60C#0284633a0220e8
(1725511095.003037) can0 60C#038ca33a0220e8
(1725511095.003348) can0 60C#0494e73a8220ac
(1725511095.003659) can0 60C#0595294a8220ac
(1725511095.003679) can0 60C#079d2b7b8220a8
(1725511095.003973) can0 60D#007cefa070800505
(1725511095.004274) can0 60D#017d6fa070800505
(1725511095.004617) can0 60D#027d0fa170800e0e
(1725511095.004925) can0 60D#037d8fa070800b05
(1725511095.005255) can0 60D#047cafa070800505
(1725511095.005272) can0 60D#057d0fa070800505
(1725511095.005585) can0 60D#077d6fa070800505
(1725511095.070219) can0 60A#08010110
(1725511095.070569) can0 60B#004fb40a8020017b
(1725511095.070590) can0 60B#015123f58020017a
(1725511095.070780) can0 60B#024ecbfe8020019e
(1725511095.071235) can0 60B#034ff3f9802001a6
(1725511095.071521) can0 60B#04504c1d80200183
(1725511095.071729) can0 60B#054f8be580200186
(1725511095.072113) can0 60B#064e44028020016c
(1725511095.072436) can0 60B#0750b3f4801fc17c
(1725511095.072471) can0 60C#009d6b7b8220cc
(1725511095.072976) can0 60C#018ca53a0220e8
(1725511095.073377) can0 60C#0284633a0220e8
(1725511095.073407) can0 60C#038ca33a0220e8
(1725511095.073624) can0 60C#0494e93a8220ac
(1725511095.073649) can0 60C#059d294a8220ac
(1725511095.074221) can0 60C#06a5278d822064
(1725511095.074579) can0 60C#079d2b6b8220a8
(1725511095.074612) can0 60D#007cefa070800505
(1725511095.074900) can0 60D#017d6fa070800505
(1725511095.075137) can0 60D#027d0fa170800e0e
(1725511095.075157) can0 60D#037dafa070800b05
(1725511095.076277) can0 60D#047cafa070800505
(1725511095.076720) can0 60D#057d0fa070800505
(1725511095.076761) can0 60D#067d0fa070800505
(1725511095.076772) can0 60D#077dafa070800505
(1725511095.145147) can0 60A#08010310
(1725511095.145538) can0 60B#004fb40a8020017a
(1725511095.145882) can0 60B#015123f58020017a
(1725511095.145900) can0 60B#024ecbfe8020019e
(1725511095.146162) can0 60B#034ff3f9802001a6
(1725511095.146537) can0 60B#04504c1d80200183
(1725511095.146807) can0 60B#054f8be580200186
(1725511095.147110) can0 60B#064e44028020016c
(1725511095.147447) can0 60B#0750b3f4801fc17c
(1725511095.147472) can0 60C#009d276a8220e8
(1725511095.147779) can0 60C#018ca53a0220e8
(1725511095.148089) can0 60C#0284633a0220e8
(1725511095.148364) can0 60C#038ca33a0220e8
(1725511095.148670) can0 60C#0494e94a8220ac
(1725511095.148689) can0 60C#059d294a8220ac
(1725511095.149012) can0 60C#06a52d8d82206c
(1725511095.149331) can0 60C#079d296b0220a8
(1725511095.149590) can0 60D#007d0fa070800505
(1725511095.149902) can0 60D#017d6fa070800505
(1725511095.150206) can0 60D#027d0fa170800e0e
(1725511095.150466) can0 60D#037dcfa070800b05
(1725511095.150484) can0 60D#047cafa070800505
(1725511095.150786) can0 60D#057d0fa070800505
(1725511095.151059) can0 60D#067d0fa070800505
(1725511095.151351) can0 60D#077e0fa070800505
(1725511095.220260) can0 60A#08010510
(1725511095.220556) can0 60B#004fb40a8020017a
(1725511095.220575) can0 60B#015123f580200179
(1725511095.220767) can0 60B#024ecbff8020019e
(1725511095.221233) can0 60B#034ff3f9802001a6
(1725511095.221552) can0 60B#04504c1d80200183
(1725511095.221788) can0 60B#054f8be580200186
(1725511095.222022) can0 60B#064e440280200160
(1725511095.222251) can0 60B#0750abf4801fc17c
(1725511095.222518) can0 60C#009d276a8220cc
(1725511095.222741) can0 60C#018ca53a0220e8
(1725511095.222980) can0 60C#0284633a0220e8
(1725511095.223365) can0 60C#038ca33a0220e8
(1725511095.223766) can0 60C#0494e94a8220ac
(1725511095.224187) can0 60C#059d294a8220ac
(1725511095.224226) can0 60C#06a56f8d822048
(1725511095.224675) can0 60C#0795296b0220a8
(1725511095.224717) can0 60D#007d0fa070800505
(1725511095.224978) can0 60D#017d6fa070800505
(1725511095.225005) can0 60D#027d0fa170800e0e
(1725511095.225370) can0 60D#037dcfa070800b05
(1725511095.225765) can0 60D#047cafa070800505
(1725511095.225993) can0 60D#057d0fa070800505
(1725511095.226008) can0 60D#067e6fa070800505
(1725511095.226545) can0 60D#077e2fa070800605
(1725511095.295254) can0 60A#09010710
(1725511095.295505) can0 60B#004fb40a8020017a
(1725511095.295876) can0 60B#015123f480200178
(1725511095.296268) can0 60B#024ecbff8020019e
(1725511095.296305) can0 60B#034ff3f9802001a6
(1725511095.296677) can0 60B#04504c1d80200183
(1725511095.296957) can0 60B#054f8be580200186
(1725511095.296976) can0 60B#064e44028020015b
(1725511095.297331) can0 60B#0750abf4801fc17d
(1725511095.297564) can0 60B#085154578020017c
(1725511095.297945) can0 60C#009d296a8220cc
(1725511095.298177) can0 60C#018ca53a8220e8
(1725511095.298194) can0 60C#0284633a0220e8
(1725511095.298597) can0 60C#038ca33a0220e8
(1725511095.298893) can0 60C#049d294a8220ac
(1725511095.299257) can0 60C#059d2b4a82208c
(1725511095.299505) can0 60C#06a5718d822048
(1725511095.299521) can0 60C#0795295a8220a8
(1725511095.299704) can0 60C#08a5278d822064
(1725511095.299905) can0 60D#007d0fa070800505
(1725511095.300251) can0 60D#017d6fa070800505
(1725511095.300506) can0 60D#027d0fa170800e0e
(1725511095.300689) can0 60D#037dcfa070800b05
(1725511095.301205) can0 60D#047cafa070800505
(1725511095.301670) can0 60D#057d0fa070800505
(1725511095.301833) can0 60D#067eefa070800505
(1725511095.302126) can0 60D#077e2fa070800605
(1725511095.302153) can0 60D#087d0fa070800505
(1725511095.370248) can0 60A#0a010910
(1725511095.370544) can0 60B#004fb40a8020017a
(1725511095.370736) can0 60B#015123f480200179
(1725511095.370952) can0 60B#024ecbff8020019e
(1725511095.371329) can0 60B#034ff3f9802001a6
(1725511095.371588) can0 60B#04504c1d80200183
(1725511095.371808) can0 60B#054f8be580200186
(1725511095.372192) can0 60B#064e44028020015b
(1725511095.372618) can0 60B#0750b3f4801fe17c
(1725511095.372654) can0 60B#085154578020017c
(1725511095.372895) can0 60B#094fa3c08020019d
(1725511095.373115) can0 60C#009d696a8220cc
(1725511095.373407) can0 60C#018ca53a0220e8
(1725511095.373699) can0 60C#0284633a0220e8
(1725511095.373934) can0 60C#038ca33a0220e8
(1725511095.373952) can0 60C#049d2b4a82208c
(1725511095.374595) can0 60C#05a56b4b02208c
(1725511095.375009) can0 60C#06ad718d82204c
(1725511095.375048) can0 60C#0795275a8220a8
(1725511095.375294) can0 60C#08a52d8d82206c
(1725511095.375314) can0 60C#09a5298d822064
(1725511095.375665) can0 60D#007d0fa070800505
(1725511095.375906) can0 60D#017d2fa070800505
(1725511095.376262) can0 60D#027d0fa170800e0e
(1725511095.376665) can0 60D#037dafa070800b05
(1725511095.376701) can0 60D#047cafa070800505
(1725511095.376955) can0 60D#057d0fa070800505
(1725511095.377313) can0 60D#067eefa070800505
(1725511095.377732) can0 60D#077e0fa070800605
(1725511095.377770) can0 60D#087d0fa070800505
(1725511095.378015) can0 60D#097d0fa070800505
(1725511095.445302) can0 60A#09010b10
(1725511095.445572) can0 60B#004fbc0a80200179
(1725511095.446111) can0 60B#015123f480200179
(1725511095.447525) can0 60B#024ecbfe8020019e
(1725511095.447573) can0 60B#034ff3f9802001a6
(1725511095.450044) can0 60B#04504c1d80200183
(1725511095.450083) can0 60B#054f8be580200186
(1725511095.450094) can0 60B#0750b3f4801fe17c
(1725511095.450104) can0 60B#08515457801fe17c
(1725511095.450114) can0 60B#094fa3c08020019d
(1725511095.450134) can0 60C#0095275a8220e8
(1725511095.450148) can0 60C#018ca53a0220e8
(1725511095.450160) can0 60C#0284633a0220e8
(1725511095.450172) can0 60C#038ca33a0220e8
(1725511095.450185) can0 60C#049d2b4b02208c
(1725511095.450197) can0 60C#05a56b4b02206c
(1725511095.450210) can0 60C#0795275a8220a8
(1725511095.452660) can0 60C#08a52b7c822088
(1725511095.452701) can0 60C#09a52d8d82206c
(1725511095.452715) can0 60D#007d2fa070800505
(1725511095.452725) can0 60D#017d2fa070800505
(1725511095.452736) can0 60D#027d0fa170800e0e
(1725511095.452746) can0 60D#037d8fa070800b05
(1725511095.452756) can0 60D#047cafa070800505
(1725511095.452766) can0 60D#057d0fa070800505
(1725511095.452776) can0 60D#077defa070800605
(1725511095.453011) can0 60D#087cafa070800505
(1725511095.453030) can0 60D#097d0fa070800505
(1725511095.515380) can0 60A#09010d10
(1725511095.515675) can0 60B#004fbc0a80200179
(1725511095.515994) can0 60B#015123f480200179
(1725511095.516295) can0 60B#024ecbfe8020019e
(1725511095.516313) can0 60B#034ffbf9802001a6
(1725511095.516613) can0 60B#04504c1d80200183
(1725511095.516931) can0 60B#054f8be580200186
(1725511095.517237) can0 60B#0750b3f4801fe17c
(1725511095.517581) can0 60B#08515457801fe17c
(1725511095.517595) can0 60B#094fa3c08020219d
(1725511095.517876) can0 60C#009d275a8220cc
(1725511095.518188) can0 60C#018ca53a0220e8
(1725511095.518507) can0 60C#0284633a0220e8
(1725511095.518813) can0 60C#038ca33a0220e8
(1725511095.519125) can0 60C#04a52b4b02206c
(1725511095.519145) can0 60C#05a56b4b02206c
(1725511095.519450) can0 60C#0795275a8220a8
(1725511095.519723) can0 60C#08a52d7c82208c
(1725511095.519957) can0 60C#099d2b7c8220a8
(1725511095.520261) can0 60D#007d2fa070800505
(1725511095.520617) can0 60D#017d4fa070800505
(1725511095.520635) can0 60D#027d0fa170800e0e
(1725511095.520922) can0 60D#037d6fa070800b05
(1725511095.521226) can0 60D#047cafa070800505
(1725511095.521539) can0 60D#057d0fa070800505
(1725511095.521840) can0 60D#077dcfa070800505
(1725511095.522128) can0 60D#087cafa070800505
(1725511095.522430) can0 60D#097b4fa070800505
(1725511095.590342) can0 60A#09010f10
(1725511095.590722) can0 60B#004fbc0a80200179
(1725511095.591001) can0 60B#015123f48020017a
(1725511095.591021) can0 60B#024ecbfe8020019e
(1725511095.591302) can0 60B#034ffbf9802001a6
(1725511095.591834) can0 60B#04504c1d80200183
(1725511095.592193) can0 60B#054f8be580200186
(1725511095.592223) can0 60B#0750b3f4801fe17c
(1725511095.592502) can0 60B#08515456801fa17b
(1725511095.592765) can0 60B#094fa3c08020219d
(1725511095.593134) can0 60C#009d275a8220cc
(1725511095.593451) can0 60C#018ca53a0220e8
(1725511095.593472) can0 60C#0284633a0220e8
(1725511095.593775) can0 60C#038ca33a0220e8
(1725511095.594110) can0 60C#04a52b4b02206c
(1725511095.594130) can0 60C#05a56b4b02204c
(1725511095.594436) can0 60C#0795275a8220a8
(1725511095.594748) can0 60C#089d297c0220a8
(1725511095.594996) can0 60C#099ce97c0220c8
(1725511095.595262) can0 60D#007d2fa070800505
(1725511095.595614) can0 60D#017d4fa070800505
(1725511095.595632) can0 60D#027d0fa170800e0e
(1725511095.595931) can0 60D#037d4fa070800b05
(1725511095.596233) can0 60D#047cafa070800505
(1725511095.596543) can0 60D#057d0fa070800505
(1725511095.596815) can0 60D#077d8fa070800505
(1725511095.597127) can0 60D#087e2fa070800505
(1725511095.597356) can0 60D#097c4fa070800505
(1725511095.665401) can0 60A#09011110
(1725511095.665638) can0 60B#004fbc0a80200179
(1725511095.665890) can0 60B#015123f58020017a
(1725511095.666157) can0 60B#024ecbff8020019e
(1725511095.666497) can0 60B#034ffbf9802001a6
(1725511095.666792) can0 60B#04504c1d80200183
(1725511095.667047) can0 60B#054f8be580200186
(1725511095.667065) can0 60B#0750b3f4801fe17c
(1725511095.667290) can0 60B#08515455801f817c
(1725511095.667538) can0 60B#094fa3c08020219d
(1725511095.667802) can0 60C#009d275a8220cc
(1725511095.668032) can0 60C#018ca53a0220e8
(1725511095.668463) can0 60C#0284633a0220e8
(1725511095.668683) can0 60C#038ca33a0220e8
(1725511095.668900) can0 60C#04a52b4b02204c
(1725511095.669153) can0 60C#05a56b4b02204c
(1725511095.669394) can0 60C#0794e74a8220a8
(1725511095.669658) can0 60C#089ce76b8220a8
(1725511095.669949) can0 60C#099ce77c0220e8
(1725511095.670214) can0 60D#007d2fa070800505
(1725511095.670497) can0 60D#017d4fa070800505
(1725511095.670733) can0 60D#027d0fa170800e0e
(1725511095.670965) can0 60D#037d2fa070800b05
(1725511095.671274) can0 60D#047cafa070800505
(1725511095.671599) can0 60D#057d0fa070800505
(1725511095.671834) can0 60D#077d0fa070800505
(1725511095.672133) can0 60D#087d6fa070800505
(1725511095.672398) can0 60D#097ccfa070800505
(1725511095.740203) can0 60A#09011310
(1725511095.740423) can0 60B#004fbc0a80200179
(1725511095.740772) can0 60B#015123f48020017b
(1725511095.740957) can0 60B#024ecbff8020019e
(1725511095.741526) can0 60B#034ff3f9802001a6
(1725511095.741564) can0 60B#04504c1d80200183
(1725511095.741945) can0 60B#054f8be580200186
(1725511095.742324) can0 60B#0750b3f4801fe17c
(1725511095.742553) can0 60B#08515455801fa17b
(1725511095.742568) can0 60B#094fa3c08020219d
(1725511095.743018) can0 60C#009d695a8220cc
(1725511095.743428) can0 60C#018ca53a0220e8
(1725511095.743881) can0 60C#0284633a0220e8
(1725511095.743921) can0 60C#038ca33a0220e8
(1725511095.744174) can0 60C#04a52b4b02204c
(1725511095.744193) can0 60C#05ad6d4b02202c
(1725511095.744626) can0 60C#0794e54a8220a8
(1725511095.744899) can0 60C#089d296b8220a8
(1725511095.744916) can0 60C#099d297c0220cc
(1725511095.745297) can0 60D#007d2fa070800505
(1725511095.745553) can0 60D#017d4fa070800505
(1725511095.745793) can0 60D#027d0fa170800e0e
(1725511095.746147) can0 60D#037d0fa070800b05
(1725511095.746590) can0 60D#047cafa070800505
(1725511095.746627) can0 60D#057d0fa070800505
(1725511095.747006) can0 60D#077d4fa070800605
(1725511095.747412) can0 60D#087d6fa070800505
(1725511095.747449) can0 60D#097ccfa070800505
(1725511095.815355) can0 60A#08011510
(1725511095.815564) can0 60B#004fbc0a80200179
(1725511095.815747) can0 60B#015123f48020017a
(1725511095.816094) can0 60B#024ecbfe8020019e
(1725511095.816275) can0 60B#034ff3f9802001a6
(1725511095.816499) can0 60B#04504c1d80200183
(1725511095.816839) can0 60B#0750b3f4801fe17c
(1725511095.817246) can0 60B#08515455801fa17b
(1725511095.817546) can0 60B#094f9bc18020219c
(1725511095.817750) can0 60C#009d695a8220ac
(1725511095.818003) can0 60C#018ca53a0220e8
(1725511095.818370) can0 60C#0284633a0220e8
(1725511095.818606) can0 60C#038ca53a0220e8
(1725511095.818623) can0 60C#04ad2d4b02202c
(1725511095.818875) can0 60C#0794e54a8220a8
(1725511095.819272) can0 60C#089d296b8220ac
(1725511095.819583) can0 60C#099d276b8220e8
(1725511095.819603) can0 60D#007d2fa070800505
(1725511095.819991) can0 60D#017d2fa070800505
(1725511095.820383) can0 60D#027d0fa170800e0e
(1725511095.820611) can0 60D#037d0fa070800b05
(1725511095.820626) can0 60D#047cafa070800505
(1725511095.821153) can0 60D#077d2fa070800605
(1725511095.821588) can0 60D#087d6fa070800505
(1725511095.821625) can0 60D#097d2fa070800505
(1725511095.890593) can0 60A#07011710
(1725511095.891001) can0 60B#004fbc0a80200179
(1725511095.891037) can0 60B#015123f48020017a
(1725511095.891407) can0 60B#024ecbfe8020019e
(1725511095.891443) can0 60B#034ff3f9802001a6
(1725511095.891647) can0 60B#0750b3f4801fe17c
(1725511095.891831) can0 60B#08515455801fa17b
(1725511095.892038) can0 60B#094f9bc18020219c
(1725511095.892429) can0 60C#009d695a8220ac
(1725511095.892614) can0 60C#018ca53a0220e8
(1725511095.892797) can0 60C#0284633a0220e8
(1725511095.893150) can0 60C#038ca53a0220e8
(1725511095.893336) can0 60C#0794e54a8220a8
(1725511095.893584) can0 60C#089d6b6b8220ac
(1725511095.893894) can0 60C#099d296b8220cc
(1725511095.894185) can0 60D#007d2fa070800505
(1725511095.894453) can0 60D#017d2fa070800505
(1725511095.894734) can0 60D#027d0fa170800e0e
(1725511095.895024) can0 60D#037d2fa070800b05
(1725511095.896481) can0 60D#077cefa070800605
(1725511095.896783) can0 60D#087d6fa070800505
(1725511095.896815) can0 60D#097d2fa070800505
(1725511095.960484) can0 60A#08011910
(1725511095.960725) can0 60B#004fbc0a80200179
(1725511095.960990) can0 60B#015123f48020017a
(1725511095.961507) can0 60B#024ecbfe8020019e
(1725511095.961734) can0 60B#034ff3f9802001a6
(1725511095.961751) can0 60B#04504c1c8020017c
(1725511095.962228) can0 60B#0750b3f4801fe17c
(1725511095.962541) can0 60B#08515455801fa17b
(1725511095.962562) can0 60B#094f9bc18020219c
(1725511095.962775) can0 60C#009d695a8220ac
(1725511095.963108) can0 60C#018ca53a0220e8
(1725511095.963450) can0 60C#0284633a0220e8
(1725511095.963471) can0 60C#038ca53a0220e8
(1725511095.964201) can0 60C#04a5278d822064
(1725511095.966954) can0 60C#0794e54a8220a8
(1725511095.966992) can0 60C#089d6b6b8220ac
(1725511095.967006) can0 60C#099d296b8220cc
(1725511095.967019) can0 60D#007d2fa070800505
(1725511095.967030) can0 60D#017d2fa070800505
(1725511095.967040) can0 60D#027d0fa170800e0e
(1725511095.967051) can0 60D#037d4fa070800b05
(1725511095.967061) can0 60D#047d0fa070800505
(1725511095.967071) can0 60D#077ccfa070800505
(1725511095.967969) can0 60D#087d6fa070800505
(1725511095.968009) can0 60D#097d2fa070800505
(1725511096.035488) can0 60A#08011b10
(1725511096.035905) can0 60B#004fbc0a80200179
(1725511096.036168) can0 60B#015123f480200179
(1725511096.036182) can0 60B#024ecbfe8020019e
(1725511096.036427) can0 60B#034ff3f9802001a6
(1725511096.036793) can0 60B#0450541c8020017e
(1725511096.037086) can0 60B#0750b3f4801fe17c
(1725511096.037299) can0 60B#08515454801fa17b
(1725511096.037528) can0 60B#094f9bc18020219c
(1725511096.037927) can0 60C#009d6b5a8220ac
(1725511096.038193) can0 60C#018ca53a8220e8
(1725511096.038213) can0 60C#0284633a0220e8
(1725511096.038455) can0 60C#038ca53a0220e8
(1725511096.038831) can0 60C#049ce78c8220a8
(1725511096.039099) can0 60C#0794e54a0220c8
(1725511096.039115) can0 60C#089d6b6b82208c
(1725511096.039531) can0 60C#099d6b6b8220cc
(1725511096.039747) can0 60D#007d2fa070800505
(1725511096.039972) can0 60D#017d2fa070800505
(1725511096.040338) can0 60D#027d0fa170800e0e
(1725511096.040746) can0 60D#037d6fa070800b05
(1725511096.041008) can0 60D#047dafa070800505
(1725511096.041022) can0 60D#077cafa070800505
(1725511096.041284) can0 60D#087d6fa070800505
(1725511096.041686) can0 60D#097d2fa070800505
(1725511096.110452) can0 60A#08011d10
(1725511096.110659) can0 60B#004fbc0a80200179
(1725511096.110853) can0 60B#015123f4801fe179
(1725511096.111038) can0 60B#024ecbfe8020019e
(1725511096.111420) can0 60B#034ff3f9802001a6
(1725511096.111601) can0 60B#0450541c80200181
(1725511096.111945) can0 60B#0750b3f4801fe17c
(1725511096.112166) can0 60B#08515454801fa17b
(1725511096.112462) can0 60B#094f9bc18020219c
(1725511096.112692) can0 60C#00a56b5a8220ac
(1725511096.112892) can0 60C#018ca53a8220e8
(1725511096.113322) can0 60C#0284633a0220e8
(1725511096.113516) can0 60C#038ca53a0220e8
(1725511096.113702) can0 60C#049ce77c0220e8
(1725511096.113892) can0 60C#0794e54a8220c8
(1725511096.114281) can0 60C#08a56d6b82208c
(1725511096.114504) can0 60C#099d6b6b8220cc
(1725511096.114689) can0 60D#007d2fa070800505
(1725511096.115043) can0 60D#017d0fa070800505
(1725511096.115224) can0 60D#027d0fa170800e0e
(1725511096.115585) can0 60D#037dafa070800b05
(1725511096.115764) can0 60D#047ccfa070800505
(1725511096.116144) can0 60D#077cafa070800505
(1725511096.116374) can0 60D#087d6fa070800505
(1725511096.116601) can0 60D#097d2fa070800505
(1725511096.185492) can0 60A#08011f10
(1725511096.185903) can0 60B#004fbc0a80200179
(1725511096.186167) can0 60B#015123f3801fe179
(1725511096.186181) can0 60B#024ecbfe8020019e
(1725511096.186532) can0 60B#034ff3f9802001a6
(1725511096.186754) can0 60B#0450541c801fe183
(1725511096.187121) can0 60B#0750b3f4801fe17c
(1725511096.187603) can0 60B#08515454801fa17b
(1725511096.188000) can0 60B#094f9bc18020219c
(1725511096.188026) can0 60C#00a56b5b02208c
(1725511096.188357) can0 60C#018ce53a8220e8
(1725511096.188389) can0 60C#0284633a0220e8
(1725511096.188693) can0 60C#038ca53a0220e8
(1725511096.188940) can0 60C#049ce77b8220e8
(1725511096.188957) can0 60C#0794e54a8220c8
(1725511096.189224) can0 60C#08a5ad6b82208c
(1725511096.189542) can0 60C#099d6b6b8220ac
(1725511096.189950) can0 60D#007d2fa070800505
(1725511096.190382) can0 60D#017d0fa070800505
(1725511096.190418) can0 60D#027d0fa170800e0e
(1725511096.190813) can0 60D#037dcfa070800b05
(1725511096.191243) can0 60D#047ccfa070800505
(1725511096.191279) can0 60D#077c8fa070800505
(1725511096.191690) can0 60D#087d6fa070800505
(1725511096.191726) can0 60D#097d2fa070800505
(1725511096.260606) can0 60A#08012110
(1725511096.260892) can0 60B#004fbc0a80200179
(1725511096.260907) can0 60B#015123f3801fe178
(1725511096.261295) can0 60B#024ecbfe8020019e
(1725511096.261712) can0 60B#034ff3f9802001a6
(1725511096.262103) can0 60B#0450541c801fe184
(1725511096.262125) can0 60B#0750b3f48020017c
(1725511096.262493) can0 60B#08515454801fa17b
(1725511096.262943) can0 60B#094f9bc18020219c
(1725511096.262989) can0 60C#00a5ab5b02208c
(1725511096.263230) can0 60C#018ce53a8220e8
(1725511096.263246) can0 60C#0284633a0220e8
(1725511096.263533) can0 60C#038ca33a0220e8
(1725511096.263926) can0 60C#0494e57b0220e8
(1725511096.264194) can0 60C#078ce53a0220c8
(1725511096.264537) can0 60C#08a5ad6b82206c
(1725511096.264913) can0 60C#09a56d6b8220ac
(1725511096.264953) can0 60D#007d2fa070800505
(1725511096.265429) can0 60D#017ccfa070800505
(1725511096.265800) can0 60D#027d0fa170800e0e
(1725511096.265832) can0 60D#037defa070800b05
(1725511096.266146) can0 60D#047cafa070800505
(1725511096.266176) can0 60D#077c8fa070800505
(1725511096.266480) can0 60D#087d6fa070800505
(1725511096.266775) can0 60D#097d2fa070800505
(1725511096.335529) can0 60A#08012310
(1725511096.335835) can0 60B#004fbc0a80200179
(1725511096.336229) can0 60B#015123f3801fe177
(1725511096.336664) can0 60B#024ecbfe8020019e
(1725511096.336697) can0 60B#034ff3f9802001a6
(1725511096.337037) can0 60B#04504c1c801fe183
(1725511096.337066) can0 60B#0750b3f48020017c
(1725511096.337413) can0 60B#08516454801fc17b
(1725511096.337792) can0 60B#094f9bc28020219c
(1725511096.338120) can0 60C#00a5ab5b02206c
(1725511096.338145) can0 60C#018ce53a8220e8
(1725511096.338468) can0 60C#0284633a0220e8
(1725511096.338833) can0 60C#038ca33a0220e8
(1725511096.338885) can0 60C#0494e56b0220e8
(1725511096.339177) can0 60C#078ce53a8220c8
(1725511096.339565) can0 60C#08a56b5b022088
(1725511096.340163) can0 60C#09a5ad6b8220ac
(1725511096.340200) can0 60D#007d2fa070800505
(1725511096.340211) can0 60D#017cefa070800505
(1725511096.340696) can0 60D#027d0fa170800e0e
(1725511096.340961) can0 60D#037e0fa070800b05
(1725511096.340983) can0 60D#047cafa070800505
(1725511096.341234) can0 60D#077c6fa070800505
(1725511096.341457) can0 60D#087ccfa070800505
(1725511096.341738) can0 60D#097d2fa070800505
(1725511096.410700) can0 60A#08012510
(1725511096.411035) can0 60B#004fbc0a80200179
(1725511096.411054) can0 60B#015123f3801fe178
(1725511096.411280) can0 60B#024ecbfe8020019e
(1725511096.411585) can0 60B#034ff3f9802001a6
(1725511096.411867) can0 60B#04504c1d80202182
(1725511096.412138) can0 60B#0750b3f48020017d
(1725511096.412368) can0 60B#08516454801fc17b
(1725511096.414968) can0 60B#094f9bc28020219c
(1725511096.417507) can0 60C#00a5ab5b02206c
(1725511096.417548) can0 60C#018ca53a0220e8
(1725511096.417562) can0 60C#0284633a0220e8
(1725511096.417575) can0 60C#038ca33a0220e8
(1725511096.417588) can0 60C#0494e56a8220e8
(1725511096.417600) can0 60C#078ca53a0220c8
(1725511096.417613) can0 60C#08a56b5b02206c
(1725511096.417627) can0 60C#09a5ad6b8220ac
(1725511096.417641) can0 60D#007d2fa070800505
(1725511096.417652) can0 60D#017c8fa070800505
(1725511096.417662) can0 60D#027d0fa170800e0e
(1725511096.417672) can0 60D#037e2fa070800b05
(1725511096.417683) can0 60D#047cafa070800505
(1725511096.417693) can0 60D#077c6fa070800505
(1725511096.417703) can0 60D#087ccfa070800505
(1725511096.417714) can0 60D#097d2fa070800505
(1725511096.480553) can0 60A#08012710
(1725511096.480833) can0 60B#004fbc0a80200179
(1725511096.483028) can0 60B#015123f380200179
(1725511096.485623) can0 60B#024ecbff8020019e
(1725511096.485662) can0 60B#034ff3f9802001a6
(1725511096.485672) can0 60B#04504c1d80204184
(1725511096.485683) can0 60B#0750b3f48020017c
(1725511096.485695) can0 60B#08516454801fc17b
