(1725515568.491527) can0 60A#00179110
(1725515568.491577) can0 60A#00179310
(1725515568.491592) can0 60A#00179510
(1725515572.727373) can0 60A#00000000
(1725515572.807189) can0 60A#00000110
(1725515572.887029) can0 60A#00000310
(1725515572.967125) can0 60A#00000510
(1725515573.037079) can0 60A#00000710
(1725515573.102251) can0 60A#00000910
(1725515573.172778) can0 60A#00000b10
(1725515573.243368) can0 60A#00000d10
(1725515573.312390) can0 60A#00000f10
(1725515573.377287) can0 60A#00001110
(1725515573.447330) can0 60A#00001310
(1725515573.522511) can0 60A#00001510
(1725515573.592237) can0 60A#00001710
(1725515573.662311) can0 60A#00001910
(1725515573.732459) can0 60A#00001b10
(1725515573.807405) can0 60A#00001d10
(1725515573.877540) can0 60A#00001f10
(1725515573.947361) can0 60A#00002110
(1725515574.019015) can0 60A#00002310
(1725515574.092355) can0 60A#00002510
(1725515574.166429) can0 60A#02002710
(1725515574.166472) can0 60B#004fe40680200196
(1725515574.166486) can0 60B#0150840a80200184
(1725515574.166501) can0 60C#009d277c0220e8
(1725515574.166515) can0 60C#019d277c0220e8
(1725515574.166527) can0 60D#007d0fa070800505
(1725515574.166539) can0 60D#017d0fa070800505
(1725515574.232510) can0 60A#02002910
(1725515574.232761) can0 60B#004fe40680200196
(1725515574.233011) can0 60B#0150840a80200184
(1725515574.233276) can0 60C#009d257b8220e8
(1725515574.233540) can0 60C#019d257b8220e8
(1725515574.233797) can0 60D#007d0fa070800505
(1725515574.234033) can0 60D#017d0fa070800505
(1725515574.302514) can0 60A#02002b10
(1725515574.302769) can0 60B#004fe40680200196
(1725515574.302970) can0 60B#0150840a80200184
(1725515574.303203) can0 60C#009d257b0220e8
(1725515574.303435) can0 60C#019d257b0220e8
(1725515574.303689) can0 60D#007d0fa070800505
(1725515574.303942) can0 60D#017d0fa070800505
(1725515574.377552) can0 60A#02002d10
(1725515574.377927) can0 60B#004fe40680200196
(1725515574.378166) can0 60B#0150840a80200184
(1725515574.378228) can0 60C#0095257b0220e8
(1725515574.378470) can0 60C#0195257b0220e8
(1725515574.378747) can0 60D#007d0fa070800505
(1725515574.379092) can0 60D#017d0fa070800505
(1725515574.447735) can0 60A#02002f10
(1725515574.448031) can0 60B#004fe40680200196
(1725515574.448051) can0 60B#0150840a80200184
(1725515574.448338) can0 60C#0095256a8220e8
(1725515574.448757) can0 60C#0195256a8220e8
(1725515574.449123) can0 60D#007d0fa070800505
(1725515574.449143) can0 60D#017d0fa070800505
(1725515574.517495) can0 60A#02003110
(1725515574.517754) can0 60B#004fe40680200196
(1725515574.517985) can0 60B#0150840a80200184
(1725515574.518211) can0 60C#0094e56a8220e8
(1725515574.518584) can0 60C#0195256a8220e8
(1725515574.518790) can0 60D#007d0fa070800505
(1725515574.519054) can0 60D#017d0fa070800505
(1725515574.587523) can0 60A#02003310
(1725515574.587741) can0 60B#004fe40680200196
(1725515574.588001) can0 60B#0150840a80200184
(1725515574.588264) can0 60C#0094e56a8220e8
(1725515574.588496) can0 60C#0194e56a8220e8
(1725515574.589006) can0 60D#007d0fa070800505
(1725515574.589270) can0 60D#017d0fa070800505
(1725515574.662586) can0 60A#02003510
(1725515574.662894) can0 60B#004fe40680200196
(1725515574.663173) can0 60B#0150840a80200184
(1725515574.663563) can0 60C#0094e55a8220e8
(1725515574.664057) can0 60C#0194e55a8220e8
(1725515574.664099) can0 60D#007d0fa070800505
(1725515574.664396) can0 60D#017d0fa070800505
(1725515574.733014) can0 60A#02003710
(1725515574.733052) can0 60B#004fe40680200196
(1725515574.733344) can0 60B#0150840a80200183
(1725515574.733363) can0 60C#0094e55a0220e8
(1725515574.733789) can0 60C#0194e55a0220e8
(1725515574.734130) can0 60D#007d0fa070800505
(1725515574.734146) can0 60D#017d0fa070800505
(1725515574.802835) can0 60A#02003910
(1725515574.803322) can0 60B#004fe40680200196
(1725515574.803360) can0 60B#0150840a80200183
(1725515574.803879) can0 60C#0094e55a0220e8
(1725515574.803922) can0 60C#0194e55a0220e8
(1725515574.804383) can0 60D#007d0fa070800505
(1725515574.804419) can0 60D#017d0fa070800505
(1725515574.877969) can0 60A#02003b10
(1725515574.878434) can0 60B#004fe40680200196
(1725515574.878471) can0 60B#0150840a80200184
(1725515574.878929) can0 60C#0094e55a0220e8
(1725515574.878968) can0 60C#0194e55a0220e8
(1725515574.879414) can0 60D#007d0fa070800505
(1725515574.879450) can0 60D#017d0fa070800505
(1725515574.947909) can0 60A#02003d10
(1725515574.947947) can0 60B#004fe40680200196
(1725515574.948362) can0 60B#0150840a80200184
(1725515574.948835) can0 60C#0094e54a0220e8
(1725515574.948895) can0 60C#0194e55a0220e8
(1725515574.949337) can0 60D#007d0fa070800505
(1725515574.949374) can0 60D#017d0fa070800505
(1725515575.018212) can0 60A#02003f10
(1725515575.018551) can0 60B#004fe40680200196
(1725515575.018598) can0 60B#0150840a80200184
(1725515575.018618) can0 60C#0094e54a0220e8
(1725515575.018960) can0 60C#018ce54a0220e8
(1725515575.019296) can0 60D#007d0fa070800505
(1725515575.019327) can0 60D#017d0fa070800505
(1725515575.087697) can0 60A#02004110
(1725515575.087938) can0 60B#004fe40680200196
(1725515575.088292) can0 60B#0150840a80200184
(1725515575.088699) can0 60C#0094e54a0220e8
(1725515575.088935) can0 60C#018ce54a0220e8
(1725515575.088953) can0 60D#007d0fa070800505
(1725515575.089303) can0 60D#017d0fa070800505
(1725515575.162706) can0 60A#02004310
(1725515575.162933) can0 60B#004fe40680200196
(1725515575.163288) can0 60B#0150840a80200184
(1725515575.163701) can0 60C#0094e54a0220e8
(1725515575.164062) can0 60C#018ce54a0220e8
(1725515575.164101) can0 60D#007d0fa070800505
(1725515575.164474) can0 60D#017d0fa070800505
(1725515575.232697) can0 60A#02004510
(1725515575.232938) can0 60B#004fe40680200196
(1725515575.233649) can0 60B#0150840a80200184
(1725515575.233720) can0 60C#008ce54a0220e8
(1725515575.234058) can0 60C#018ce54a0220e8
(1725515575.234097) can0 60D#007d0fa070800505
(1725515575.234474) can0 60D#017d0fa070800505
(1725515575.303215) can0 60A#02004710
(1725515575.303534) can0 60B#004fe40680200196
(1725515575.303553) can0 60B#0150840a80200184
(1725515575.303569) can0 60C#008ce54a0220e8
(1725515575.303798) can0 60C#018ce54a0220e8
(1725515575.304187) can0 60D#007d0fa070800505
(1725515575.304617) can0 60D#017d0fa070800505
(1725515575.373037) can0 60A#02004910
(1725515575.373436) can0 60B#004fe40680200196
(1725515575.373474) can0 60B#0150840a80200184
(1725515575.373689) can0 60C#008ce54a0220e8
(1725515575.374014) can0 60C#018ce54a0220e8
(1725515575.374218) can0 60D#007d0fa070800505
(1725515575.374403) can0 60D#017d0fa070800505
(1725515575.443255) can0 60A#02004b10
(1725515575.443294) can0 60B#004fe40680200196
(1725515575.443736) can0 60B#0150840a80200184
(1725515575.443781) can0 60C#008ce54a0220e8
(1725515575.444240) can0 60C#018ce54a0220e8
(1725515575.444279) can0 60D#007d0fa070800505
(1725515575.444719) can0 60D#017d0fa070800505
(1725515575.518192) can0 60A#02004d10
(1725515575.518230) can0 60B#004fe40680200196
(1725515575.518576) can0 60B#0150840a80200184
(1725515575.518992) can0 60C#008ce53a0220e8
(1725515575.519016) can0 60C#018ce54a0220e8
(1725515575.519439) can0 60D#007d0fa070800505
(1725515575.519920) can0 60D#017d0fa070800505
(1725515575.588048) can0 60A#02004f10
(1725515575.588521) can0 60B#004fe40680200196
(1725515575.588557) can0 60B#0150840a80200184
(1725515575.588881) can0 60C#008ca53a0220e8
(1725515575.588898) can0 60C#018ce53a0220e8
(1725515575.589180) can0 60D#007d0fa070800505
(1725515575.589612) can0 60D#017d0fa070800505
(1725515575.658019) can0 60A#02005110
(1725515575.658428) can0 60B#004fe40680200196
(1725515575.658873) can0 60B#0150840a80200184
(1725515575.658923) can0 60C#008ca53a0220e8
(1725515575.659358) can0 60C#018ce53a0220e8
(1725515575.659397) can0 60D#007d0fa070800505
(1725515575.659799) can0 60D#017d0fa070800505
(1725515575.732885) can0 60A#02005310
(1725515575.733097) can0 60B#004fe40680200196
(1725515575.733445) can0 60B#0150840a80200184
(1725515575.733632) can0 60C#008ca53a0220e8
(1725515575.733867) can0 60C#018ce53a0220e8
(1725515575.734236) can0 60D#007d0fa070800505
(1725515575.734423) can0 60D#017d0fa070800505
(1725515575.802919) can0 60A#02005510
(1725515575.803220) can0 60B#004fe40680200196
(1725515575.803492) can0 60B#0150840a80200183
(1725515575.803768) can0 60C#008ca53a0220e8
(1725515575.804047) can0 60C#018ce53a0220e8
(1725515575.804515) can0 60D#007d0fa070800505
(1725515575.804545) can0 60D#017d0fa070800505
(1725515575.873239) can0 60A#02005710
(1725515575.873490) can0 60B#004fe40680200196
(1725515575.873505) can0 60B#0150840a80200184
(1725515575.873871) can0 60C#008ca53a0220e8
(1725515575.874154) can0 60C#018ce53a0220e8
(1725515575.874501) can0 60D#007d0fa070800505
(1725515575.874743) can0 60D#017d0fa070800505
(1725515575.948065) can0 60A#02005910
(1725515575.948308) can0 60B#004fe40680200196
(1725515575.948517) can0 60B#0150840a80200184
(1725515575.948726) can0 60C#008ca53a0220e8
(1725515575.948962) can0 60C#018ce53a0220e8
(1725515575.949339) can0 60D#007d0fa070800505
(1725515575.949594) can0 60D#017d0fa070800505
(1725515576.018176) can0 60A#02005b10
(1725515576.018500) can0 60B#004fe40680200196
(1725515576.018527) can0 60B#0150840a80200184
(1725515576.018735) can0 60C#008ca53a0220e8
(1725515576.018988) can0 60C#018ce53a0220e8
(1725515576.019710) can0 60D#007d0fa070800505
(1725515576.020051) can0 60D#017d0fa070800505
(1725515576.088029) can0 60A#02005d10
(1725515576.088300) can0 60B#004fe40680200196
(1725515576.089377) can0 60B#0150840a80200184
(1725515576.092278) can0 60C#008ca53a0220e8
(1725515576.092337) can0 60C#018ce53a0220e8
(1725515576.092353) can0 60D#007d0fa070800505
(1725515576.092365) can0 60D#017d0fa070800505
(1725515576.158109) can0 60A#02005f10
(1725515576.158335) can0 60B#004fe40680200196
(1725515576.158537) can0 60B#0150840a80200184
(1725515576.158742) can0 60C#008ca53a0220e8
(1725515576.159142) can0 60C#018ce53a0220e8
(1725515576.159357) can0 60D#007d0fa070800505
(1725515576.159559) can0 60D#017d0fa070800505
(1725515576.233281) can0 60A#02006110
(1725515576.233528) can0 60B#004fe40680200196
(1725515576.233543) can0 60B#0150840a80200184
(1725515576.233779) can0 60C#008ca53a0220e8
(1725515576.234390) can0 60C#018ca53a0220e8
(1725515576.234428) can0 60D#007d0fa070800505
(1725515576.234695) can0 60D#017d0fa070800505
(1725515576.303158) can0 60A#02006310
(1725515576.303564) can0 60B#004fe40680200196
(1725515576.304020) can0 60B#0150840a80200184
(1725515576.304066) can0 60C#008ca53a0220e8
(1725515576.304469) can0 60C#018ca53a0220e8
(1725515576.304508) can0 60D#007d0fa070800505
(1725515576.304754) can0 60D#017d0fa070800505
(1725515576.373129) can0 60A#02006510
(1725515576.373873) can0 60B#004fe40680200196
(1725515576.376442) can0 60B#0150840a80200184
(1725515576.376489) can0 60C#008ca53a0220e8
(1725515576.376504) can0 60C#018ca53a0220e8
(1725515576.376516) can0 60D#007d0fa070800505
(1725515576.376527) can0 60D#017d0fa070800505
(1725515576.443240) can0 60A#02006710
(1725515576.443657) can0 60B#004fe40680200196
(1725515576.443969) can0 60B#0150840a80200184
(1725515576.443992) can0 60C#008ca53a0220e8
(1725515576.444363) can0 60C#018ca53a0220e8
(1725515576.444780) can0 60D#007d0fa070800505
(1725515576.444821) can0 60D#017d0fa070800505
(1725515576.518233) can0 60A#02006910
(1725515576.518495) can0 60B#004fe40680200196
(1725515576.518730) can0 60B#0150840a80200184
(1725515576.518952) can0 60C#008ca53a0220e8
(1725515576.519155) can0 60C#018ca53a0220e8
(1725515576.519372) can0 60D#007d0fa070800505
(1725515576.519942) can0 60D#017d0fa070800505
(1725515576.588251) can0 60A#02006b10
(1725515576.588839) can0 60B#004fe40680200196
(1725515576.591421) can0 60B#0150840a80200184
(1725515576.591473) can0 60C#008ca53a0220e8
(1725515576.591492) can0 60C#018ca53a0220e8
(1725515576.591505) can0 60D#007d0fa070800505
(1725515576.591516) can0 60D#017d0fa070800505
(1725515576.658179) can0 60A#02006d10
(1725515576.658582) can0 60B#004fe40680200196
(1725515576.658950) can0 60B#0150840a80200184
(1725515576.659252) can0 60C#008ca53a0220e8
(1725515576.659280) can0 60C#018ca53a0220e8
(1725515576.659759) can0 60D#007d0fa070800505
(1725515576.660034) can0 60D#017d0fa070800505
(1725515576.728738) can0 60A#02006f10
(1725515576.728776) can0 60B#004fe40680200196
(1725515576.729023) can0 60B#0150840a80200184
(1725515576.729702) can0 60C#008ca53a0220e8
(1725515576.730015) can0 60C#018ca53a0220e8
(1725515576.730032) can0 60D#007d0fa070800505
(1725515576.730232) can0 60D#017d0fa070800505
(1725515576.803718) can0 60A#02007110
(1725515576.804002) can0 60B#004fe40680200196
(1725515576.804029) can0 60B#0150840a80200184
(1725515576.804048) can0 60C#008ca53a0220e8
(1725515576.804929) can0 60C#018ca53a0220e8
(1725515576.805242) can0 60D#007d0fa070800505
(1725515576.805268) can0 60D#017d0fa070800505
(1725515576.873434) can0 60A#02007310
(1725515576.873780) can0 60B#004fe40680200196
(1725515576.874097) can0 60B#0150840a80200184
(1725515576.874124) can0 60C#008ca53a0220e8
(1725515576.874554) can0 60C#018ca53a0220e8
(1725515576.874923) can0 60D#007d0fa070800505
(1725515576.874948) can0 60D#017d0fa070800505
(1725515576.943799) can0 60A#02007510
(1725515576.943864) can0 60B#004fe40680200196
(1725515576.944129) can0 60B#0150840a80200183
(1725515576.944159) can0 60C#008ca53a0220e8
(1725515576.944407) can0 60C#018ca53a0220e8
(1725515576.944640) can0 60D#007d0fa070800505
(1725515576.944918) can0 60D#017d0fa070800505
(1725515577.013615) can0 60A#02007710
(1725515577.013880) can0 60B#004fe40680200196
(1725515577.013896) can0 60B#0150840a80200184
(1725515577.014083) can0 60C#008ca53a0220e8
(1725515577.014281) can0 60C#018ca53a0220e8
(1725515577.014706) can0 60D#007d0fa070800505
(1725515577.014935) can0 60D#017d0fa070800505
(1725515577.088661) can0 60A#02007910
(1725515577.088700) can0 60B#004fe40680200196
(1725515577.088943) can0 60B#0150840a80200184
(1725515577.089146) can0 60C#008ca53a0220e8
(1725515577.089351) can0 60C#018ca53a0220e8
(1725515577.089545) can0 60D#007d0fa070800505
(1725515577.090285) can0 60D#017d0fa070800505
(1725515577.158550) can0 60A#02007b10
(1725515577.158797) can0 60B#004fe40680200196
(1725515577.159052) can0 60B#0150840a80200184
(1725515577.159334) can0 60C#008ca53a0220e8
(1725515577.159744) can0 60C#018ca53a0220e8
(1725515577.159782) can0 60D#007d0fa070800505
(1725515577.160036) can0 60D#017d0fa070800505
(1725515577.228635) can0 60A#02007d10
(1725515577.229192) can0 60B#004fe40680200196
(1725515577.229228) can0 60B#0150840a80200183
(1725515577.229529) can0 60C#008ca53a0220e8
(1725515577.229559) can0 60C#018ca53a0220e8
(1725515577.229798) can0 60D#007d0fa070800505
(1725515577.230033) can0 60D#017d0fa070800505
(1725515577.298562) can0 60A#03007f10
(1725515577.299071) can0 60B#004fe40680200196
(1725515577.299103) can0 60B#0150840a80200183
(1725515577.299410) can0 60B#024eebeb801f0178
(1725515577.299985) can0 60C#008ca53a0220e8
(1725515577.300264) can0 60C#018ca53a0220e8
(1725515577.300395) can0 60C#029ce77c0220c8
(1725515577.300411) can0 60D#007d0fa070800505
(1725515577.300621) can0 60D#017d0fa070800505
(1725515577.300915) can0 60D#027d4fa070800505
(1725515577.373454) can0 60A#03008110
(1725515577.373761) can0 60B#004fe40680200196
(1725515577.374000) can0 60B#0150840a80200183
(1725515577.374294) can0 60B#024eebeb801fa177
(1725515577.374716) can0 60C#008ca53a0220e8
(1725515577.375068) can0 60C#018ca53a0220e8
(1725515577.375105) can0 60C#029ce77b8220e8
(1725515577.375543) can0 60D#007d0fa070800505
(1725515577.376009) can0 60D#017d0fa070800505
(1725515577.376047) can0 60D#027d4fa070800505
(1725515577.443775) can0 60A#03008310
(1725515577.444263) can0 60B#004fe40680200196
(1725515577.444301) can0 60B#0150840a80200183
(1725515577.444742) can0 60B#024eebec801fe176
(1725515577.444788) can0 60C#008ca53a0220e8
(1725515577.445053) can0 60C#018ca53a0220e8
(1725515577.445071) can0 60C#0294e77b8220c8
(1725515577.445336) can0 60D#007d0fa070800505
(1725515577.445754) can0 60D#017d0fa070800505
(1725515577.446027) can0 60D#027d2fa070800505
(1725515577.513712) can0 60A#03008510
(1725515577.514140) can0 60B#004fe40680200196
(1725515577.514177) can0 60B#0150840a80200183
(1725515577.514620) can0 60B#024eebed80204175
(1725515577.514899) can0 60C#008ca53a0220e8
(1725515577.514916) can0 60C#018ca53a0220e8
(1725515577.515396) can0 60C#0294e76b0220e8
(1725515577.515884) can0 60D#007d0fa070800505
(1725515577.515922) can0 60D#017d0fa070800505
(1725515577.516378) can0 60D#027d2fa070800505
(1725515577.588718) can0 60A#03008710
(1725515577.589141) can0 60B#004fe40680200196
(1725515577.589326) can0 60B#0150840a80200183
(1725515577.589670) can0 60B#024eebed80206175
(1725515577.589710) can0 60C#008ca53a0220e8
(1725515577.590123) can0 60C#018ca53a0220e8
(1725515577.590154) can0 60C#0294e56b0220e8
(1725515577.590583) can0 60D#007d0fa070800505
(1725515577.591045) can0 60D#017d0fa070800505
(1725515577.591082) can0 60D#027d2fa070800505
(1725515577.658657) can0 60A#03008910
(1725515577.658998) can0 60B#004fe40680200196
(1725515577.659013) can0 60B#0150840a80200183
(1725515577.659428) can0 60B#024eebed80202175
(1725515577.659921) can0 60C#008ca53a0220e8
(1725515577.660393) can0 60C#018ca53a0220e8
(1725515577.660432) can0 60C#0294e55a8220e8
(1725515577.660724) can0 60D#007d0fa070800505
(1725515577.660740) can0 60D#017d0fa070800505
(1725515577.661036) can0 60D#027d2fa070800505
(1725515577.728574) can0 60A#03008b10
(1725515577.728932) can0 60B#004fe40680200196
(1725515577.732609) can0 60B#0150840a80200183
(1725515577.732666) can0 60B#024eebed80202175
(1725515577.732690) can0 60C#008ca53a0220e8
(1725515577.732704) can0 60C#018ca53a0220e8
(1725515577.732721) can0 60C#0294e55a8220e8
(1725515577.732733) can0 60D#007d0fa070800505
(1725515577.733649) can0 60D#017d0fa070800505
(1725515577.733701) can0 60D#027d0fa070800505
(1725515577.798738) can0 60A#03008d10
(1725515577.799186) can0 60B#004fe40680200196
(1725515577.799666) can0 60B#0150840a80200184
(1725515577.799704) can0 60B#024eebed80202175
(1725515577.800055) can0 60C#008ca53a0220e8
(1725515577.800076) can0 60C#018ca53a0220e8
(1725515577.800500) can0 60C#0294e55a8220e8
(1725515577.800539) can0 60D#007d0fa070800505
(1725515577.800995) can0 60D#017d0fa070800505
(1725515577.801433) can0 60D#027d0fa070800505
(1725515577.873713) can0 60A#03008f10
(1725515577.874041) can0 60B#004fe40680200196
(1725515577.874475) can0 60B#0150840a80200184
(1725515577.874512) can0 60B#024eebed80202175
(1725515577.874942) can0 60C#008ca53a0220e8
(1725515577.875380) can0 60C#018ca53a0220e8
(1725515577.875419) can0 60C#0294e55a8220e8
(1725515577.875820) can0 60D#007d0fa070800505
(1725515577.875880) can0 60D#017d0fa070800505
(1725515577.876126) can0 60D#027d0fa070800505
(1725515577.943604) can0 60A#03009110
(1725515577.943892) can0 60B#004fe40680200196
(1725515577.944133) can0 60B#0150840a80200184
(1725515577.944375) can0 60B#024eebed80202175
(1725515577.944594) can0 60C#008ca53a0220e8
(1725515577.944885) can0 60C#018ca53a0220e8
(1725515577.945112) can0 60C#0294e55a8220cc
(1725515577.945520) can0 60D#007d0fa070800505
(1725515577.945972) can0 60D#017d0fa070800505
(1725515577.946404) can0 60D#027d0fa070800505
(1725515578.013707) can0 60A#03009310
(1725515578.013948) can0 60B#004fe40680200196
(1725515578.014305) can0 60B#0150840a80200184
(1725515578.014711) can0 60B#024eebed80202175
(1725515578.014951) can0 60C#008ca53a0220e8
(1725515578.014969) can0 60C#018ca53a0220e8
(1725515578.015337) can0 60C#0294e54a8220e8
(1725515578.015767) can0 60D#007d0fa070800505
(1725515578.015999) can0 60D#017d0fa070800505
(1725515578.016014) can0 60D#027d2fa070800505
(1725515578.088985) can0 60A#03009510
(1725515578.089025) can0 60B#004fe40680200196
(1725515578.089248) can0 60B#0150840a80200184
(1725515578.089540) can0 60B#024eebed80202174
(1725515578.089788) can0 60C#008ca53a0220e8
(1725515578.090176) can0 60C#018ca53a0220e8
(1725515578.090628) can0 60C#0294e54a0220e8
(1725515578.090667) can0 60D#007d0fa070800505
(1725515578.090975) can0 60D#017d0fa070800505
(1725515578.090993) can0 60D#027d0fa070800505
(1725515578.158770) can0 60A#03009710
(1725515578.159039) can0 60B#004fe40680200196
(1725515578.159509) can0 60B#0150840a80200184
(1725515578.159937) can0 60B#024ef3ed80202174
(1725515578.159982) can0 60C#008ca53a0220e8
(1725515578.160229) can0 60C#018ca53a0220e8
(1725515578.160249) can0 60C#0294e54a0220e8
(1725515578.160472) can0 60D#007d0fa070800505
(1725515578.160734) can0 60D#017d0fa070800505
(1725515578.160985) can0 60D#027d4fa070800505
(1725515578.228934) can0 60A#03009910
(1725515578.229364) can0 60B#004fe40680200196
(1725515578.229401) can0 60B#0150840a80200184
(1725515578.229638) can0 60B#024ef3ed80202174
(1725515578.229964) can0 60C#008ca53a0220e8
(1725515578.230167) can0 60C#018ca53a0220e8
(1725515578.230186) can0 60C#028ce54a0220e8
(1725515578.230713) can0 60D#007d0fa070800505
(1725515578.230989) can0 60D#017d0fa070800605
(1725515578.231010) can0 60D#027d0fa070800505
(1725515578.298765) can0 60A#03009b10
(1725515578.299010) can0 60B#004fe40680200196
(1725515578.299399) can0 60B#0150840a80200184
(1725515578.299781) can0 60B#024eebed80202174
(1725515578.300145) can0 60C#008ca53a0220e8
(1725515578.300197) can0 60C#018ca53a0220e8
(1725515578.300449) can0 60C#028ce54a0220e8
(1725515578.300816) can0 60D#007d0fa070800505
(1725515578.301159) can0 60D#017d0fa070800605
(1725515578.301188) can0 60D#027ccfa070800505
(1725515578.373916) can0 60A#03009d10
(1725515578.374324) can0 60B#004fe40680200196
(1725515578.374753) can0 60B#0150840a80200184
(1725515578.374790) can0 60B#024eebed80202175
(1725515578.375205) can0 60C#008ca53a0220e8
(1725515578.375243) can0 60C#018ca53a0220e8
(1725515578.375654) can0 60C#028ce54a0220e8
(1725515578.375693) can0 60D#007d0fa070800505
(1725515578.376036) can0 60D#017d0fa070800605
(1725515578.376451) can0 60D#027ccfa070800505
(1725515578.444041) can0 60A#03009f10
(1725515578.444444) can0 60B#004fe40680200196
(1725515578.444481) can0 60B#0150840a80200184
(1725515578.444876) can0 60B#024eebed80202175
(1725515578.445117) can0 60C#008ca53a0220e8
(1725515578.445134) can0 60C#018ca53a0220e8
(1725515578.445491) can0 60C#028ca53a0220e8
(1725515578.445724) can0 60D#007d0fa070800505
(1725515578.445933) can0 60D#017d0fa070800605
(1725515578.446118) can0 60D#027cefa070800505
(1725515578.513796) can0 60A#0300a110
(1725515578.514011) can0 60B#004fe40780200196
(1725515578.514359) can0 60B#0150840a80200184
(1725515578.514543) can0 60B#024eebed80202175
(1725515578.514733) can0 60C#008ca53a0220e8
(1725515578.515274) can0 60C#018ca53a0220e8
(1725515578.515682) can0 60C#028ca53a0220e8
(1725515578.515720) can0 60D#007d0fa070800505
(1725515578.515979) can0 60D#017d0fa070800605
(1725515578.516374) can0 60D#027cefa070800505
(1725515578.583798) can0 60A#0300a310
(1725515578.584134) can0 60B#004fe40780200196
(1725515578.584417) can0 60B#0150840a80200184
(1725515578.584702) can0 60B#024eebed80202175
(1725515578.584947) can0 60C#008ca53a0220e8
(1725515578.585291) can0 60C#018ca53a0220e8
(1725515578.585312) can0 60C#028ce53a8220cc
(1725515578.585539) can0 60D#007d0fa070800505
(1725515578.585976) can0 60D#017d0fa070800605
(1725515578.586212) can0 60D#027cefa070800505
(1725515578.659305) can0 60A#0300a510
(1725515578.659345) can0 60B#004fe40780200196
(1725515578.659697) can0 60B#0150840a80200184
(1725515578.659724) can0 60B#024eebed80202175
(1725515578.660455) can0 60C#008ca53a0220e8
(1725515578.660973) can0 60C#018ca53a0220e8
(1725515578.661011) can0 60C#028ce74a8220cc
(1725515578.661026) can0 60D#007d0fa070800505
(1725515578.661405) can0 60D#017d0fa070800605
(1725515578.661439) can0 60D#027cefa070800505
(1725515578.729021) can0 60A#0300a710
(1725515578.729299) can0 60B#004fe40780200196
(1725515578.729995) can0 60B#0150840a80200184
(1725515578.730035) can0 60B#024eebee80202175
(1725515578.730422) can0 60C#008ca53a0220e8
(1725515578.730874) can0 60C#018ca53a0220e8
(1725515578.731306) can0 60C#0294e74a8220cc
(1725515578.731345) can0 60D#007d0fa070800505
(1725515578.731750) can0 60D#017d0fa070800605
(1725515578.731786) can0 60D#027cefa070800505
(1725515578.798898) can0 60A#0300a910
(1725515578.799107) can0 60B#004fe40680200196
(1725515578.799453) can0 60B#0150840a80200184
(1725515578.799637) can0 60B#024eebee80202175
(1725515578.799865) can0 60C#008ca53a0220e8
(1725515578.800213) can0 60C#018ca53a0220e8
(1725515578.800400) can0 60C#0294e74a8220cc
(1725515578.800584) can0 60D#007d0fa070800505
(1725515578.800936) can0 60D#017d0fa070800605
(1725515578.801291) can0 60D#027cefa070800505
(1725515578.869055) can0 60A#0300ab10
(1725515578.869266) can0 60B#004fe40680200196
(1725515578.869451) can0 60B#0150840a80200184
(1725515578.869640) can0 60B#024eebee80202175
(1725515578.869872) can0 60C#008ca53a0220e8
(1725515578.870225) can0 60C#018ca53a0220e8
(1725515578.870426) can0 60C#0294e73a8220e8
(1725515578.870612) can0 60D#007d0fa070800505
(1725515578.871032) can0 60D#017d0fa070800605
(1725515578.871215) can0 60D#027d0fa070800505
(1725515578.944267) can0 60A#0300ad10
(1725515578.944729) can0 60B#004fe40680200196
(1725515578.944766) can0 60B#0150840a80200184
(1725515578.944995) can0 60B#024eebee80202174
(1725515578.945018) can0 60C#008ca53a0220e8
(1725515578.945246) can0 60C#018ca53a0220e8
(1725515578.945516) can0 60C#028ce53a0220e8
(1725515578.945781) can0 60D#007d0fa070800505
(1725515578.946108) can0 60D#017d0fa070800605
(1725515578.946698) can0 60D#027d0fa070800505
(1725515579.014251) can0 60A#0300af10
(1725515579.014294) can0 60B#004fe40680200196
(1725515579.014540) can0 60B#0150840a80200184
(1725515579.014777) can0 60B#024eebee80202174
(1725515579.015032) can0 60C#008ca53a0220e8
(1725515579.015292) can0 60C#018ca53a0220e8
(1725515579.015534) can0 60C#028ce53a0220e8
(1725515579.015773) can0 60D#007d0fa070800505
(1725515579.016016) can0 60D#017d0fa070800605
(1725515579.017018) can0 60D#027d2fa070800505
(1725515579.084139) can0 60A#0300b110
(1725515579.084445) can0 60B#004fe40680200196
(1725515579.084702) can0 60B#0150840a80200183
(1725515579.084728) can0 60B#024eebee80202173
(1725515579.084997) can0 60C#008ca53a0220e8
(1725515579.085403) can0 60C#018ca53a0220e8
(1725515579.085837) can0 60C#028ce53a0220e8
(1725515579.086291) can0 60D#007d0fa070800505
(1725515579.086328) can0 60D#017d0fa070800705
(1725515579.086729) can0 60D#027d2fa070800505
(1725515579.159288) can0 60A#0300b310
(1725515579.159604) can0 60B#004fe40680200196
(1725515579.159620) can0 60B#0150840a80200183
(1725515579.159981) can0 60B#024eebee80202173
(1725515579.160405) can0 60C#008ca53a0220e8
(1725515579.160898) can0 60C#018ca53a0220e8
(1725515579.160937) can0 60C#028ca53a0220e8
(1725515579.161229) can0 60D#007d0fa070800505
(1725515579.161244) can0 60D#017d0fa070800705
(1725515579.161505) can0 60D#027d2fa070800505
(1725515579.229198) can0 60A#0400b510
(1725515579.229469) can0 60B#004fe40680200196
(1725515579.229676) can0 60B#0150840a80200183
(1725515579.229943) can0 60B#024eebee80202173
(1725515579.230179) can0 60B#0350fc0b8020017b
(1725515579.230427) can0 60C#008ca53a0220e8
(1725515579.230645) can0 60C#018ca53a0220e8
(1725515579.230984) can0 60C#028ca53a0220e8
(1725515579.231543) can0 60C#039ce77c0220e8
(1725515579.231953) can0 60D#007d0fa070800505
(1725515579.231982) can0 60D#017d0fa070800705
(1725515579.231994) can0 60D#027d2fa070800505
(1725515579.232380) can0 60D#037cefa070800505
(1725515579.299121) can0 60A#0400b710
(1725515579.299353) can0 60B#004fe40680200196
(1725515579.299547) can0 60B#0150840a80200183
(1725515579.303217) can0 60B#024eebee80200173
(1725515579.303254) can0 60B#0350fc0b8020017b
(1725515579.303275) can0 60C#008ca53a0220e8
(1725515579.303295) can0 60C#018ca53a0220e8
(1725515579.303308) can0 60C#028ca53a0220e8
(1725515579.303322) can0 60C#039d277c0220e8
(1725515579.303334) can0 60D#007d0fa070800505
(1725515579.303345) can0 60D#017d0fa070800705
(1725515579.303356) can0 60D#027d2fa070800505
(1725515579.303367) can0 60D#037cefa070800505
(1725515579.374237) can0 60A#0400b910
(1725515579.374488) can0 60B#004fe40680200196
(1725515579.374746) can0 60B#0150840a80200183
(1725515579.375005) can0 60B#024eebee80200173
(1725515579.375311) can0 60B#0350fc0b8020017b
(1725515579.375624) can0 60C#008ca53a0220e8
(1725515579.375953) can0 60C#018ca53a0220e8
(1725515579.375970) can0 60C#028ca53a0220e8
(1725515579.376308) can0 60C#039d297b8220c8
(1725515579.376634) can0 60D#007d0fa070800505
(1725515579.377012) can0 60D#017d0fa070800705
(1725515579.377030) can0 60D#027d2fa070800505
(1725515579.377336) can0 60D#037d0fa070800505
(1725515579.444335) can0 60A#0400bb10
(1725515579.444782) can0 60B#004fe40680200196
(1725515579.444830) can0 60B#0150840a80200184
(1725515579.445347) can0 60B#024eebee80200173
(1725515579.445403) can0 60B#0350fc0b8020017b
(1725515579.445978) can0 60C#008ca53a0220e8
(1725515579.446054) can0 60C#018ca53a0220e8
(1725515579.446594) can0 60C#028ca53a0220e8
(1725515579.446663) can0 60C#039d297b8220c8
(1725515579.446955) can0 60D#007d0fa070800505
(1725515579.446971) can0 60D#017d0fa070800705
(1725515579.446983) can0 60D#027d2fa070800505
(1725515579.447169) can0 60D#037d0fa070800505
(1725515579.514103) can0 60A#0400bd10
(1725515579.514354) can0 60B#004fe40680200196
(1725515579.514584) can0 60B#0150840a80200183
(1725515579.515135) can0 60B#024eebee80200173
(1725515579.515401) can0 60B#0350fc0b8020017b
(1725515579.515424) can0 60C#008ca53a0220e8
(1725515579.515692) can0 60C#018ca53a0220e8
(1725515579.516028) can0 60C#028ca53a0220e8
(1725515579.516379) can0 60C#039d296b0220c8
(1725515579.516685) can0 60D#007d0fa070800505
(1725515579.516973) can0 60D#017d0fa070800705
(1725515579.516992) can0 60D#027d2fa070800505
(1725515579.517288) can0 60D#037d0fa070800505
(1725515579.589450) can0 60A#0400bf10
(1725515579.589489) can0 60B#004fe40680200196
(1725515579.589702) can0 60B#0150840a80200183
(1725515579.589952) can0 60B#024eebee80200173
(1725515579.590296) can0 60B#0350fc0b8020017b
(1725515579.590518) can0 60C#008ca53a0220e8
(1725515579.590721) can0 60C#018ca53a0220e8
(1725515579.590949) can0 60C#028ca53a0220e8
(1725515579.591163) can0 60C#039d276a8220e8
(1725515579.591389) can0 60D#007d0fa070800505
(1725515579.591902) can0 60D#017d0fa070800705
(1725515579.593881) can0 60D#027d2fa070800505
(1725515579.594834) can0 60D#037d0fa070800505
(1725515579.659321) can0 60A#0400c110
(1725515579.659543) can0 60B#004fe40680200196
(1725515579.659739) can0 60B#0150840a80200183
(1725515579.659952) can0 60B#024eebee80200173
(1725515579.660347) can0 60B#0350fc0b8020017b
(1725515579.660581) can0 60C#008ca53a0220e8
(1725515579.660807) can0 60C#018ca53a0220e8
(1725515579.661038) can0 60C#028ca53a0220e8
(1725515579.661251) can0 60C#0395256a8220e8
(1725515579.661458) can0 60D#007d0fa070800505
(1725515579.661920) can0 60D#017d0fa070800705
(1725515579.662150) can0 60D#027d2fa070800505
(1725515579.662354) can0 60D#037d0fa070800505
(1725515579.729312) can0 60A#0400c310
(1725515579.729605) can0 60B#004fe40680200196
(1725515579.730022) can0 60B#0150840a80200184
(1725515579.730642) can0 60B#024eebee80200173
(1725515579.730659) can0 60B#0350fc0b8020017b
(1725515579.730983) can0 60C#008ca53a0220e8
(1725515579.731250) can0 60C#018ca53a0220e8
(1725515579.731553) can0 60C#028ca53a8220cc
(1725515579.731790) can0 60C#0394e55a8220e8
(1725515579.732097) can0 60D#007d0fa070800505
(1725515579.732401) can0 60D#017d0fa070800705
(1725515579.732673) can0 60D#027d2fa070800505
(1725515579.732692) can0 60D#037d0fa070800505
(1725515579.804407) can0 60A#0400c510
(1725515579.804733) can0 60B#004fe40680200196
(1725515579.805007) can0 60B#0150840a80200184
(1725515579.805027) can0 60B#024eebee80200173
(1725515579.805329) can0 60B#0350fc0b8020017b
(1725515579.805607) can0 60C#008ca53a0220e8
(1725515579.806002) can0 60C#018ca53a0220e8
(1725515579.806341) can0 60C#028ca53a8220e8
(1725515579.806369) can0 60C#0394e55a8220e8
(1725515579.806685) can0 60D#007d0fa070800505
(1725515579.807027) can0 60D#017d0fa070800705
(1725515579.807359) can0 60D#027d2fa070800505
(1725515579.807381) can0 60D#037d0fa070800605
(1725515579.874373) can0 60A#0400c710
(1725515579.874606) can0 60B#004fe40680200196
(1725515579.874873) can0 60B#0150840a80200184
(1725515579.875224) can0 60B#024eebee80200172
(1725515579.875622) can0 60B#0350fc0b8020017b
(1725515579.875667) can0 60C#008ca53a0220e8
(1725515579.876114) can0 60C#018ca53a0220e8
(1725515579.876152) can0 60C#028ca53a8220e8
(1725515579.876536) can0 60C#0394e55a8220e8
(1725515579.876958) can0 60D#007d0fa070800505
(1725515579.876999) can0 60D#017d0fa070800705
(1725515579.877389) can0 60D#027d2fa070800505
(1725515579.877801) can0 60D#037d0fa070800605
(1725515579.944773) can0 60A#0400c910
(1725515579.944812) can0 60B#004fe40680200196
(1725515579.945122) can0 60B#0150840a80200184
(1725515579.945137) can0 60B#024eebed801fe176
(1725515579.945399) can0 60B#0350fc0b8020017b
(1725515579.945806) can0 60C#008ca53a0220e8
(1725515579.946150) can0 60C#018ca53a0220e8
(1725515579.946167) can0 60C#028ca53a0220e8
(1725515579.946637) can0 60C#0394e55a8220e8
(1725515579.946676) can0 60D#007d0fa070800505
(1725515579.947062) can0 60D#017d0fa070800705
(1725515579.947476) can0 60D#027d2fa070800505
(1725515579.947513) can0 60D#037d0fa070800605
(1725515580.014497) can0 60A#0400cb10
(1725515580.014829) can0 60B#004fe40680200196
(1725515580.014883) can0 60B#0150840a80200184
(1725515580.015206) can0 60B#024eebec801fe179
(1725515580.015580) can0 60B#0350fc0b8020017b
(1725515580.016071) can0 60C#008ca53a0220e8
(1725515580.016109) can0 60C#018ca53a0220e8
(1725515580.016577) can0 60C#028ca33a0220e8
(1725515580.016616) can0 60C#0394e54a8220e8
(1725515580.017035) can0 60D#007d0fa070800505
(1725515580.017071) can0 60D#017d0fa070800605
(1725515580.017535) can0 60D#027d4fa070800505
(1725515580.017572) can0 60D#037d0fa070800605
(1725515580.092580) can0 60A#0400cd10
(1725515580.092639) can0 60B#004fe40680200196
(1725515580.092652) can0 60B#0150840a80200184
(1725515580.092663) can0 60B#024eebeb801fc17b
(1725515580.092674) can0 60B#0350fc0b8020017b
(1725515580.092690) can0 60C#008ca53a0220e8
(1725515580.092706) can0 60C#018ca53a0220e8
(1725515580.092719) can0 60C#028ca33a0220e8
(1725515580.092733) can0 60C#0394e54a0220e8
(1725515580.095320) can0 60D#007d0fa070800505
(1725515580.095361) can0 60D#017d0fa070800605
(1725515580.095373) can0 60D#027d6fa070800505
(1725515580.095384) can0 60D#037d0fa070800605
(1725515580.159494) can0 60A#0400cf10
(1725515580.159985) can0 60B#004fe40680200196
(1725515580.160452) can0 60B#0150840a80200184
(1725515580.160489) can0 60B#024eebeb801fc179
(1725515580.160959) can0 60B#0350fc0b8020017b
(1725515580.161005) can0 60C#008ca53a0220e8
(1725515580.161454) can0 60C#018ca53a0220e8
(1725515580.161492) can0 60C#028ca53a0220e8
(1725515580.161872) can0 60C#0394e54a0220e8
(1725515580.161906) can0 60D#007d0fa070800505
(1725515580.162233) can0 60D#017d0fa070800605
(1725515580.162265) can0 60D#027d6fa070800505
(1725515580.162571) can0 60D#037d0fa070800605
(1725515580.229564) can0 60A#0500d110
(1725515580.229956) can0 60B#004fe40680200196
(1725515580.229971) can0 60B#0150840a80200184
(1725515580.230384) can0 60B#024eebeb801fc17b
(1725515580.230871) can0 60B#0350fc0b8020017b
(1725515580.230910) can0 60B#044f5bec80200173
(1725515580.231332) can0 60C#008ca53a0220e8
(1725515580.231370) can0 60C#018ca53a0220e8
(1725515580.231818) can0 60C#028ca33a0220e8
(1725515580.231884) can0 60C#0394e54a0220e8
(1725515580.232338) can0 60C#049ce77c0220e8
(1725515580.232377) can0 60D#007d0fa070800505
(1725515580.232820) can0 60D#017d0fa070800605
(1725515580.233163) can0 60D#027d6fa070800505
(1725515580.233179) can0 60D#037d0fa070800605
(1725515580.233439) can0 60D#047ccfa070800505
(1725515580.299587) can0 60A#0500d310
(1725515580.299991) can0 60B#004fe40680200196
(1725515580.300019) can0 60B#0150840a80200184
(1725515580.300318) can0 60B#024eebeb801fc179
(1725515580.300709) can0 60B#0350fc0b8020017b
(1725515580.301012) can0 60B#044f5bec80200173
(1725515580.301050) can0 60C#008ca53a0220e8
(1725515580.301545) can0 60C#018ca53a0220e8
(1725515580.301875) can0 60C#028ca53a0220e8
(1725515580.301902) can0 60C#0394e54a8220e8
(1725515580.302220) can0 60C#049ce77b8220e8
(1725515580.302810) can0 60D#007d0fa070800505
(1725515580.302862) can0 60D#017d0fa070800605
(1725515580.303187) can0 60D#027d6fa070800505
(1725515580.303212) can0 60D#037d0fa070800605
(1725515580.304022) can0 60D#047d0fa070800505
(1725515580.374434) can0 60A#0500d510
(1725515580.374651) can0 60B#004fe40680200196
(1725515580.374896) can0 60B#0150840a80200184
(1725515580.375099) can0 60B#024eebea801fc17b
(1725515580.375460) can0 60B#0350fc0b8020017b
(1725515580.375659) can0 60B#044f5bec80200173
(1725515580.376060) can0 60C#008ca53a0220e8
(1725515580.376260) can0 60C#018ca53a0220e8
(1725515580.376454) can0 60C#028ca53a0220e8
(1725515580.376651) can0 60C#0394e54a8220e8
(1725515580.376884) can0 60C#0494e77b0220e8
(1725515580.377250) can0 60D#007d0fa070800505
(1725515580.377445) can0 60D#017d0fa070800605
(1725515580.377888) can0 60D#027d6fa070800505
(1725515580.378089) can0 60D#037d0fa070800505
(1725515580.378366) can0 60D#047d0fa070800505
(1725515580.444778) can0 60A#0500d710
(1725515580.444817) can0 60B#004fe40680200196
(1725515580.445219) can0 60B#0150840a80200184
(1725515580.445452) can0 60B#024eebea801fc179
(1725515580.445468) can0 60B#0350fc0b8020017b
(1725515580.445650) can0 60B#044f5bec80200173
(1725515580.446216) can0 60C#008ca53a0220e8
(1725515580.446450) can0 60C#018ca53a0220e8
(1725515580.446467) can0 60C#028ca53a0220e8
(1725515580.446651) can0 60C#0394e54a0220e8
(1725515580.447049) can0 60C#0494e56b0220e8
(1725515580.447236) can0 60D#007d0fa070800505
(1725515580.447420) can0 60D#017d0fa070800605
(1725515580.447765) can0 60D#027d4fa070800505
(1725515580.447949) can0 60D#037d0fa070800605
(1725515580.448642) can0 60D#047d0fa070800505
(1725515580.514524) can0 60A#0500d910
(1725515580.514768) can0 60B#004fe40680200196
(1725515580.515005) can0 60B#0150840a80200184
(1725515580.515224) can0 60B#024eebea801fc178
(1725515580.515437) can0 60B#0350fc0b8020017b
(1725515580.515896) can0 60B#044f5bec80200173
(1725515580.516159) can0 60C#008ca53a0220e8
(1725515580.516383) can0 60C#018ca53a0220e8
(1725515580.516600) can0 60C#028ca53a0220c8
(1725515580.516896) can0 60C#0394e54a0220e8
(1725515580.517730) can0 60C#0494e56a8220e8
(1725515580.520739) can0 60D#007d0fa070800505
(1725515580.520776) can0 60D#017d0fa070800605
(1725515580.520788) can0 60D#027d4fa070800505
(1725515580.520799) can0 60D#037d0fa070800605
(1725515580.520810) can0 60D#047d0fa070800505
(1725515580.584689) can0 60A#0500db10
(1725515580.585013) can0 60B#004fe40680200196
(1725515580.585040) can0 60B#0150840a80200184
(1725515580.585430) can0 60B#024eebea801fc17a
(1725515580.585922) can0 60B#0350fc0b8020017b
(1725515580.585960) can0 60B#044f5bec80200174
(1725515580.586397) can0 60C#008ca53a0220e8
(1725515580.586437) can0 60C#018ca53a0220e8
(1725515580.586878) can0 60C#028ca53a0220e8
(1725515580.587312) can0 60C#0394e54a0220e8
(1725515580.587351) can0 60C#0494e56a8220e8
(1725515580.587759) can0 60D#007d0fa070800505
(1725515580.587795) can0 60D#017d0fa070800605
(1725515580.588200) can0 60D#027d2fa070800505
(1725515580.588237) can0 60D#037d0fa070800605
(1725515580.588642) can0 60D#047d0fa070800505
(1725515580.659545) can0 60A#0500dd10
(1725515580.659755) can0 60B#004fe40680200196
(1725515580.659940) can0 60B#0150840a80200184
(1725515580.660632) can0 60B#024eebea801fc17c
(1725515580.660669) can0 60B#0350fc0b8020017b
(1725515580.660986) can0 60B#044f5bec80200174
(1725515580.661365) can0 60C#008ca53a0220e8
(1725515580.661770) can0 60C#018ca53a0220e8
(1725515580.661813) can0 60C#028ca33a0220e8
(1725515580.662045) can0 60C#0394e54a0220e8
(1725515580.662063) can0 60C#0494e55a8220e8
(1725515580.662254) can0 60D#007d0fa070800505
(1725515580.662604) can0 60D#017d0fa070800605
(1725515580.663039) can0 60D#027d2fa070800505
(1725515580.663443) can0 60D#037d0fa070800605
(1725515580.663677) can0 60D#047d0fa070800505
(1725515580.729707) can0 60A#0500df10
(1725515580.730032) can0 60B#004fe40680200196
(1725515580.730279) can0 60B#0150840a80200184
(1725515580.730699) can0 60B#024eebe9801fc17e
(1725515580.730963) can0 60B#0350fc0b8020017b
(1725515580.731354) can0 60B#044f5bec80200174
(1725515580.731814) can0 60C#008ca53a0220e8
(1725515580.731875) can0 60C#018ca53a0220e8
(1725515580.732312) can0 60C#028ca33a0220e8
(1725515580.732350) can0 60C#0394e53a8220e8
(1725515580.732762) can0 60C#0494e55a8220e8
(1725515580.733209) can0 60D#007d0fa070800505
(1725515580.733246) can0 60D#017d0fa070800605
(1725515580.733647) can0 60D#027d2fa070800505
(1725515580.733684) can0 60D#037d0fa070800505
(1725515580.733980) can0 60D#047d0fa070800505
(1725515580.799902) can0 60A#0500e110
(1725515580.799941) can0 60B#004fe40680200196
(1725515580.800149) can0 60B#0150840a80200184
(1725515580.800335) can0 60B#024eebea801fc17c
(1725515580.800518) can0 60B#0350fc0b8020017b
(1725515580.800933) can0 60B#044f5bec80200174
(1725515580.801296) can0 60C#008ca53a0220e8
(1725515580.801702) can0 60C#018ca53a0220e8
(1725515580.801740) can0 60C#028ca33a0220e8
(1725515580.802135) can0 60C#0394e53a0220e8
(1725515580.802601) can0 60C#0494e55a8220e8
(1725515580.802628) can0 60D#007d0fa070800505
(1725515580.803039) can0 60D#017d0fa070800605
(1725515580.803076) can0 60D#027d2fa070800505
(1725515580.803478) can0 60D#037d0fa070800605
(1725515580.803920) can0 60D#047d0fa070800505
(1725515580.874822) can0 60A#0500e310
(1725515580.875275) can0 60B#004fe40680200196
(1725515580.875313) can0 60B#0150840a80200184
(1725515580.875721) can0 60B#024eebe9801fc17e
(1725515580.875759) can0 60B#0350fc0b8020017b
(1725515580.875999) can0 60B#044f5bec80200174
(1725515580.876220) can0 60C#008ca53a0220e8
(1725515580.876436) can0 60C#018ca53a0220e8
(1725515580.876651) can0 60C#028ca53a0220e8
(1725515580.876894) can0 60C#0394e53a0220e8
(1725515580.877285) can0 60C#0494e55a8220e8
(1725515580.877716) can0 60D#007d0fa070800505
(1725515580.878069) can0 60D#017d0fa070800605
(1725515580.878105) can0 60D#027d2fa070800505
(1725515580.878516) can0 60D#037d0fa070800605
(1725515580.878826) can0 60D#047d0fa070800505
(1725515580.945573) can0 60A#0500e510
(1725515580.948212) can0 60B#004fe40680200196
(1725515580.948268) can0 60B#0150840a80200184
(1725515580.948281) can0 60B#024eebe9801fc180
(1725515580.948292) can0 60B#0350fc0b8020017b
(1725515580.948303) can0 60B#044f5bec80200174
(1725515580.948324) can0 60C#008ca53a0220e8
(1725515580.948338) can0 60C#018ca53a0220e8
(1725515580.948351) can0 60C#028ca53a0220e8
(1725515580.948364) can0 60C#0394e53a0220e8
(1725515580.948378) can0 60C#0494e54a0220e8
(1725515580.951326) can0 60D#007d0fa070800505
(1725515580.951392) can0 60D#017d0fa070800605
(1725515580.951404) can0 60D#027d2fa070800505
(1725515580.951415) can0 60D#037d0fa070800605
(1725515580.951426) can0 60D#047d0fa070800505
(1725515581.014621) can0 60A#0500e710
(1725515581.014880) can0 60B#004fe40680200196
(1725515581.015076) can0 60B#0150840a80200184
(1725515581.015440) can0 60B#024eebe9801fc181
(1725515581.015635) can0 60B#0350fc0b8020017b
(1725515581.016045) can0 60B#044f5bec80200174
(1725515581.017033) can0 60C#008ca53a0220e8
(1725515581.019709) can0 60C#018ca53a0220e8
(1725515581.019762) can0 60C#028ca53a0220e8
(1725515581.019776) can0 60C#0394e53a0220e8
(1725515581.019790) can0 60C#0494e54a0220e8
(1725515581.019805) can0 60D#007d0fa070800505
(1725515581.019818) can0 60D#017d0fa070800705
(1725515581.019829) can0 60D#027d2fa070800505
(1725515581.019864) can0 60D#037d0fa070800505
(1725515581.019877) can0 60D#047d0fa070800505
(1725515581.089891) can0 60A#0500e910
(1725515581.090297) can0 60B#004fe40680200196
(1725515581.090334) can0 60B#0150840a80200184
(1725515581.090709) can0 60B#024eebe9801fe17e
(1725515581.090945) can0 60B#0350fc0b8020017b
(1725515581.090960) can0 60B#044f5bec80200174
(1725515581.091321) can0 60C#008ca53a0220e8
(1725515581.091555) can0 60C#018ca53a0220e8
(1725515581.091743) can0 60C#028ca53a0220e8
(1725515581.091937) can0 60C#0394e53a0220e8
(1725515581.092306) can0 60C#048ce54a0220e8
(1725515581.092590) can0 60D#007d0fa070800505
(1725515581.093006) can0 60D#017d0fa070800705
(1725515581.093409) can0 60D#027d2fa070800505
(1725515581.093446) can0 60D#037d0fa070800605
(1725515581.093821) can0 60D#047d0fa070800505
(1725515581.159962) can0 60A#0500eb10
(1725515581.160198) can0 60B#004fe40680200196
(1725515581.160213) can0 60B#0150840a80200184
(1725515581.160400) can0 60B#024eebea801fe17c
(1725515581.160747) can0 60B#0350fc0b8020017b
(1725515581.160962) can0 60B#044f5bec80200174
(1725515581.161199) can0 60C#008ca53a0220e8
(1725515581.161495) can0 60C#018ca53a0220e8
(1725515581.161925) can0 60C#028ca33a0220e8
(1725515581.162362) can0 60C#038ce53a0220e8
(1725515581.162400) can0 60C#048ce54a0220e8
(1725515581.162804) can0 60D#007d0fa070800505
(1725515581.163260) can0 60D#017d0fa070800705
(1725515581.163298) can0 60D#027d2fa070800505
(1725515581.163703) can0 60D#037d0fa070800605
(1725515581.163740) can0 60D#047d0fa070800505
(1725515581.234717) can0 60A#0500ed10
(1725515581.234957) can0 60B#004fe40680200196
(1725515581.235267) can0 60B#0150840a80200184
(1725515581.235661) can0 60B#024eebea801fe17b
(1725515581.235919) can0 60B#0350fc0b8020017b
(1725515581.236249) can0 60B#044f5bec80200174
(1725515581.236554) can0 60C#008ca53a0220e8
(1725515581.236571) can0 60C#018ca53a0220e8
(1725515581.236896) can0 60C#028ca53a0220e8
(1725515581.237240) can0 60C#038ce53a0220e8
(1725515581.237609) can0 60C#048ce54a0220e8
(1725515581.237629) can0 60D#007d0fa070800505
(1725515581.237898) can0 60D#017d0fa070800705
(1725515581.238141) can0 60D#027d4fa070800505
(1725515581.238377) can0 60D#037d0fa070800605
(1725515581.238651) can0 60D#047d0fa070800505
(1725515581.304713) can0 60A#0500ef10
(1725515581.305016) can0 60B#004fe40680200196
(1725515581.305271) can0 60B#0150840a80200184
(1725515581.305523) can0 60B#024eebea80200179
(1725515581.305762) can0 60B#0350fc0b8020017b
(1725515581.305970) can0 60B#044f5bec80200174
(1725515581.306211) can0 60C#008ca53a0220e8
(1725515581.306491) can0 60C#018ca53a0220e8
(1725515581.306803) can0 60C#028ca53a0220e8
(1725515581.307149) can0 60C#038ce53a0220e8
(1725515581.307398) can0 60C#048ce54a0220e8
(1725515581.307621) can0 60D#007d0fa070800505
(1725515581.307945) can0 60D#017d0fa070800705
(1725515581.308209) can0 60D#027d0fa070800505
(1725515581.308457) can0 60D#037d0fa070800605
(1725515581.308735) can0 60D#047d0fa070800505
(1725515581.374891) can0 60A#0500f110
(1725515581.375454) can0 60B#004fe40680200196
(1725515581.375503) can0 60B#0150840a80200184
(1725515581.375860) can0 60B#024eebea80200179
(1725515581.375882) can0 60B#0350fc0b8020017b
(1725515581.376116) can0 60B#044f5bec80200174
(1725515581.376343) can0 60C#008ca53a0220e8
(1725515581.376566) can0 60C#018ca53a0220e8
(1725515581.376762) can0 60C#028ca53a0220e8
(1725515581.377008) can0 60C#038ca53a0220e8
(1725515581.377407) can0 60C#048ca54a0220e8
(1725515581.377645) can0 60D#007d0fa070800505
(1725515581.377874) can0 60D#017d0fa070800705
(1725515581.378087) can0 60D#027cefa070800505
(1725515581.378466) can0 60D#037d0fa070800605
(1725515581.378727) can0 60D#047d0fa070800505
(1725515581.450113) can0 60A#0500f310
(1725515581.450183) can0 60B#004fe40680200196
(1725515581.450444) can0 60B#0150840a80200184
(1725515581.450687) can0 60B#024eebea80200178
(1725515581.451026) can0 60B#0350fc0b8020017c
(1725515581.451593) can0 60B#044f5bec80200174
(1725515581.451652) can0 60C#008ca53a0220e8
(1725515581.452019) can0 60C#018ca53a0220e8
(1725515581.452055) can0 60C#028ca53a0220e8
(1725515581.452300) can0 60C#038ca53a0220e8
(1725515581.452326) can0 60C#048ca53a0220e8
(1725515581.452568) can0 60D#007d0fa070800505
(1725515581.452898) can0 60D#017d0fa070800705
(1725515581.453627) can0 60D#027cefa070800505
(1725515581.453911) can0 60D#037d0fa070800605
(1725515581.453932) can0 60D#047d0fa070800505
(1725515581.520042) can0 60A#0500f510
(1725515581.520444) can0 60B#004fe40680200196
(1725515581.520481) can0 60B#0150840a80200184
(1725515581.520878) can0 60B#024eebeb80200178
(1725515581.521285) can0 60B#0350fc0b8020017c
(1725515581.521322) can0 60B#044f5bec80200174
(1725515581.521539) can0 60C#008ca53a0220e8
(1725515581.521556) can0 60C#018ca53a0220e8
(1725515581.521742) can0 60C#028ca53a0220e8
(1725515581.522804) can0 60C#038ca53a0220e8
(1725515581.522861) can0 60C#048ca53a0220e8
(1725515581.525528) can0 60D#007d0fa070800505
(1725515581.525566) can0 60D#017d0fa070800705
(1725515581.525578) can0 60D#027ccfa070800505
(1725515581.525589) can0 60D#037d0fa070800605
(1725515581.525600) can0 60D#047d0fa070800505
(1725515581.589932) can0 60A#0500f710
(1725515581.590260) can0 60B#004fe40680200196
(1725515581.590571) can0 60B#0150840a80200184
(1725515581.590887) can0 60B#024eebeb80202177
(1725515581.590905) can0 60B#0350fc0b8020017c
(1725515581.591171) can0 60B#044f5bec80200174
(1725515581.591483) can0 60C#008ca53a0220e8
(1725515581.591796) can0 60C#018ca53a0220e8
(1725515581.592033) can0 60C#028ca53a0220e8
(1725515581.592232) can0 60C#038ca53a0220e8
(1725515581.592497) can0 60C#048ca53a0220e8
(1725515581.592798) can0 60D#007d0fa070800505
(1725515581.593071) can0 60D#017d0fa070800605
(1725515581.593376) can0 60D#027cafa070800505
(1725515581.593684) can0 60D#037d0fa070800605
(1725515581.594012) can0 60D#047d0fa070800505
(1725515581.665222) can0 60A#0500f910
(1725515581.665531) can0 60B#004fe40680200196
(1725515581.665551) can0 60B#0150840a80200184
(1725515581.665816) can0 60B#024eebeb80202177
(1725515581.666107) can0 60B#0350fc0b8020017c
(1725515581.666126) can0 60B#044f5bec80200174
(1725515581.666355) can0 60C#008ca53a0220e8
(1725515581.666576) can0 60C#018ca53a0220e8
(1725515581.667004) can0 60C#028ca53a8220cc
(1725515581.667251) can0 60C#038ca53a0220e8
(1725515581.667506) can0 60C#048ca53a0220e8
(1725515581.667767) can0 60D#007d0fa070800505
(1725515581.668054) can0 60D#017d0fa070800605
(1725515581.668308) can0 60D#027cafa070800505
(1725515581.668576) can0 60D#037d0fa070800605
(1725515581.669711) can0 60D#047d0fa070800505
(1725515581.734986) can0 60A#0500fb10
(1725515581.735296) can0 60B#004fe40680200196
(1725515581.735571) can0 60B#0150840a80200184
(1725515581.735594) can0 60B#024eebeb80202177
(1725515581.736049) can0 60B#0350fc0b8020017c
(1725515581.736383) can0 60B#044f5bec80200174
(1725515581.736941) can0 60C#008ca53a0220e8
(1725515581.737000) can0 60C#018ca53a0220e8
(1725515581.737635) can0 60C#028ca53a8220cc
(1725515581.737693) can0 60C#038ca53a0220e8
(1725515581.738008) can0 60C#048ca53a0220e8
(1725515581.738039) can0 60D#007d0fa070800505
(1725515581.738053) can0 60D#017d0fa070800605
(1725515581.738326) can0 60D#027cafa070800505
(1725515581.738604) can0 60D#037d0fa070800605
(1725515581.738987) can0 60D#047d0fa070800505
(1725515581.805036) can0 60A#0500fd10
(1725515581.805296) can0 60B#004fe40680200196
(1725515581.805535) can0 60B#0150840a80200184
(1725515581.805747) can0 60B#024eebeb80202177
(1725515581.806003) can0 60B#0350fc0b8020017b
(1725515581.806243) can0 60B#044f5bec80200174
(1725515581.806466) can0 60C#008ca53a0220e8
(1725515581.806681) can0 60C#018ca53a0220e8
(1725515581.807040) can0 60C#028ca73a8220cc
(1725515581.807333) can0 60C#038ca53a0220e8
(1725515581.807563) can0 60C#048ca53a0220e8
(1725515581.807757) can0 60D#007d0fa070800505
(1725515581.807991) can0 60D#017d0fa070800605
(1725515581.808231) can0 60D#027cafa070800505
(1725515581.809008) can0 60D#037d0fa070800605
(1725515581.809288) can0 60D#047d0fa070800505
(1725515581.880032) can0 60A#0500ff10
(1725515581.880309) can0 60B#004fe40680200196
(1725515581.880533) can0 60B#0150840a80200184
(1725515581.880746) can0 60B#024eebec80202177
(1725515581.881009) can0 60B#0350fc0b8020017b
(1725515581.881286) can0 60B#044f5bec80200174
(1725515581.881566) can0 60C#008ca53a0220e8
(1725515581.881869) can0 60C#018ca53a0220e8
(1725515581.882155) can0 60C#028ca53a0220e8
(1725515581.882437) can0 60C#038ca53a0220e8
(1725515581.882466) can0 60C#048ca53a0220e8
(1725515581.882694) can0 60D#007d0fa070800505
(1725515581.882977) can0 60D#017d0fa070800605
(1725515581.883197) can0 60D#027cafa070800505
(1725515581.883581) can0 60D#037d0fa070800605
(1725515581.883839) can0 60D#047d0fa070800505
(1725515581.949996) can0 60A#05010110
(1725515581.950224) can0 60B#004fe40680200196
(1725515581.950516) can0 60B#0150840a80200184
(1725515581.950772) can0 60B#024eebec80202177
(1725515581.951136) can0 60B#0350fc0b8020017b
(1725515581.951403) can0 60B#044f5bec80200174
(1725515581.951941) can0 60C#008ca53a0220e8
(1725515581.952243) can0 60C#018ca53a0220e8
(1725515581.952267) can0 60C#028ca53a0220e8
(1725515581.952281) can0 60C#038ca53a0220e8
(1725515581.952492) can0 60C#048ca53a0220e8
(1725515581.952694) can0 60D#007d0fa070800505
(1725515581.952994) can0 60D#017d0fa070800605
(1725515581.953258) can0 60D#027cafa070800505
(1725515581.953504) can0 60D#037d0fa070800605
(1725515581.954125) can0 60D#047d0fa070800505
(1725515582.020275) can0 60A#05010310
(1725515582.020340) can0 60B#004fe40680200196
(1725515582.020946) can0 60B#0150840a80200184
(1725515582.021756) can0 60B#024eebec80202176
(1725515582.021817) can0 60B#0350fc0b8020017b
(1725515582.021829) can0 60B#044f5bec80200174
(1725515582.025100) can0 60C#008ca53a0220e8
(1725515582.025142) can0 60C#018ca53a0220e8
(1725515582.025156) can0 60C#028ca53a0220e8
(1725515582.025170) can0 60C#038ca53a0220e8
(1725515582.025183) can0 60C#048ca53a0220e8
(1725515582.025197) can0 60D#007d0fa070800505
(1725515582.025212) can0 60D#017d0fa070800705
(1725515582.025224) can0 60D#027cafa070800505
(1725515582.025235) can0 60D#037d0fa070800605
(1725515582.025246) can0 60D#047d0fa070800505
(1725515582.090137) can0 60A#05010510
(1725515582.090989) can0 60B#004fe40680200196
(1725515582.093547) can0 60B#0150840a80200184
(1725515582.093585) can0 60B#024eebec80202175
(1725515582.093597) can0 60B#0350fc0b8020017b
(1725515582.093609) can0 60B#044f5bec80200174
(1725515582.093628) can0 60C#008ca53a0220e8
(1725515582.093643) can0 60C#018ca53a0220e8
(1725515582.093656) can0 60C#028ca53a0220e8
(1725515582.093669) can0 60C#038ca53a0220e8
(1725515582.093682) can0 60C#048ca53a0220e8
(1725515582.096204) can0 60D#007d0fa070800505
(1725515582.096248) can0 60D#017d0fa070800705
(1725515582.096260) can0 60D#027cafa070800505
(1725515582.096272) can0 60D#037d0fa070800605
(1725515582.096283) can0 60D#047d0fa070800505
(1725515582.165109) can0 60A#05010710
(1725515582.165365) can0 60B#004fe40680200196
(1725515582.165587) can0 60B#0150840a80200184
(1725515582.166701) can0 60B#024eebed80202175
(1725515582.169222) can0 60B#0350fc0b8020017b
(1725515582.169261) can0 60B#044f5bec80200174
(1725515582.169282) can0 60C#008ca53a0220e8
(1725515582.169297) can0 60C#018ca53a0220e8
(1725515582.169310) can0 60C#028ca53a0220e8
(1725515582.169323) can0 60C#038ca53a0220e8
(1725515582.169336) can0 60C#048ca53a0220e8
(1725515582.169348) can0 60D#007d0fa070800505
(1725515582.169360) can0 60D#017d0fa070800705
(1725515582.169371) can0 60D#027ccfa070800505
(1725515582.169632) can0 60D#037d0fa070800605
(1725515582.169661) can0 60D#047d0fa070800505
(1725515582.238581) can0 60A#05010910
(1725515582.238655) can0 60B#004fe40680200196
(1725515582.238667) can0 60B#0150840a80200184
(1725515582.238679) can0 60B#024eebed80202175
(1725515582.238690) can0 60B#0350fc0b8020017b
(1725515582.238701) can0 60B#044f5bec80200174
(1725515582.238719) can0 60C#008ca53a0220e8
(1725515582.238732) can0 60C#018ca53a0220e8
(1725515582.238746) can0 60C#028ca53a8220cc
(1725515582.238759) can0 60C#038ca53a0220e8
(1725515582.238772) can0 60C#048ca53a0220e8
(1725515582.241562) can0 60D#007d0fa070800505
(1725515582.241601) can0 60D#017d0fa070800605
(1725515582.241613) can0 60D#027ccfa070800505
(1725515582.241625) can0 60D#037d0fa070800605
(1725515582.241636) can0 60D#047d0fa070800505
(1725515582.310213) can0 60A#05010b10
(1725515582.310531) can0 60B#004fe40680200196
(1725515582.310552) can0 60B#0150840a80200184
(1725515582.310754) can0 60B#024eebed80202175
(1725515582.311123) can0 60B#0350fc0b8020017b
(1725515582.311334) can0 60B#044f5bec80200174
(1725515582.311554) can0 60C#008ca53a0220e8
(1725515582.311783) can0 60C#018ca53a0220e8
(1725515582.312490) can0 60C#028ca73a8220cc
(1725515582.315181) can0 60C#038ca53a0220e8
(1725515582.315221) can0 60C#048ca53a0220e8
(1725515582.315235) can0 60D#007d0fa070800505
(1725515582.315247) can0 60D#017d0fa070800605
(1725515582.315258) can0 60D#027ccfa070800505
(1725515582.315269) can0 60D#037d0fa070800605
(1725515582.315281) can0 60D#047d0fa070800505
(1725515582.380105) can0 60A#05010d10
(1725515582.380338) can0 60B#004fe40680200196
(1725515582.380546) can0 60B#0150840a80200184
(1725515582.380962) can0 60B#024eebed80202174
(1725515582.381194) can0 60B#0350fc0b8020017b
(1725515582.381401) can0 60B#044f5bec80200174
(1725515582.381622) can0 60C#008ca53a0220e8
(1725515582.381905) can0 60C#018ca53a0220e8
(1725515582.382129) can0 60C#028ce73a8220c8
(1725515582.382338) can0 60C#038ca53a0220e8
(1725515582.382737) can0 60C#048ca53a0220e8
(1725515582.382974) can0 60D#007d0fa070800505
(1725515582.383192) can0 60D#017d0fa070800605
(1725515582.383398) can0 60D#027cefa070800505
(1725515582.383904) can0 60D#037d0fa070800605
(1725515582.384177) can0 60D#047d0fa070800505
(1725515582.450263) can0 60A#05010f10
(1725515582.450498) can0 60B#004fe40680200196
(1725515582.450707) can0 60B#0150840a80200184
(1725515582.450957) can0 60B#024eebed80202175
(1725515582.451175) can0 60B#0350fc0b8020017b
(1725515582.451377) can0 60B#044f5bec80200174
(1725515582.451770) can0 60C#008ca53a0220e8
(1725515582.452024) can0 60C#018ca53a0220e8
(1725515582.452274) can0 60C#028ca53a0220e8
(1725515582.452511) can0 60C#038ca53a0220e8
(1725515582.452730) can0 60C#048ca53a0220e8
(1725515582.452986) can0 60D#007d0fa070800505
(1725515582.453222) can0 60D#017d0fa070800605
(1725515582.453417) can0 60D#027ccfa070800505
(1725515582.453607) can0 60D#037d0fa070800605
(1725515582.454082) can0 60D#047d0fa070800505
(1725515582.520136) can0 60A#05011110
(1725515582.520370) can0 60B#004fe40680200196
(1725515582.520628) can0 60B#0150840a80200184
(1725515582.520891) can0 60B#024eebed80202175
(1725515582.521091) can0 60B#0350fc0b8020017b
(1725515582.521521) can0 60B#044f5bec80200174
(1725515582.522993) can0 60C#008ca53a0220e8
(1725515582.525910) can0 60C#018ca53a0220e8
(1725515582.525950) can0 60C#028ca53a0220e8
(1725515582.525964) can0 60C#038ca53a0220e8
(1725515582.525978) can0 60C#048ca53a0220e8
(1725515582.525992) can0 60D#007d0fa070800505
(1725515582.526003) can0 60D#017d0fa070800605
(1725515582.526015) can0 60D#027ccfa070800505
(1725515582.526027) can0 60D#037d0fa070800605
(1725515582.526039) can0 60D#047d0fa070800505
(1725515582.595225) can0 60A#05011310
(1725515582.595457) can0 60B#004fe40680200196
(1725515582.595667) can0 60B#0150840a80200184
(1725515582.595962) can0 60B#024eebed80202175
(1725515582.596179) can0 60B#0350fc0b8020017b
(1725515582.596388) can0 60B#044f5bec80200174
(1725515582.596605) can0 60C#008ca53a0220e8
(1725515582.597089) can0 60C#018ca53a0220e8
(1725515582.597310) can0 60C#028ca53a8220cc
(1725515582.597523) can0 60C#038ca53a0220e8
(1725515582.597736) can0 60C#048ca53a0220e8
(1725515582.597983) can0 60D#007d0fa070800505
(1725515582.598250) can0 60D#017d0fa070800605
(1725515582.598449) can0 60D#027ccfa070800505
(1725515582.598898) can0 60D#037d0fa070800605
(1725515582.599181) can0 60D#047d0fa070800505
(1725515582.665348) can0 60A#05011510
(1725515582.665601) can0 60B#004fe40680200196
(1725515582.665619) can0 60B#0150840a80200184
(1725515582.666061) can0 60B#024eebed80202175
(1725515582.666322) can0 60B#0350fc0b8020017b
(1725515582.666531) can0 60B#044f5bec80200174
(1725515582.666757) can0 60C#008ca53a0220e8
(1725515582.666972) can0 60C#018ca53a0220e8
(1725515582.667179) can0 60C#028ca53a0220e8
(1725515582.667393) can0 60C#038ca53a0220e8
(1725515582.667604) can0 60C#048ca53a0220e8
(1725515582.668075) can0 60D#007d0fa070800505
(1725515582.668290) can0 60D#017d0fa070800605
(1725515582.668492) can0 60D#027cefa070800505
(1725515582.668692) can0 60D#037d0fa070800605
(1725515582.668954) can0 60D#047d0fa070800505
(1725515582.735285) can0 60A#05011710
(1725515582.735513) can0 60B#004fe40680200196
(1725515582.735698) can0 60B#0150840a80200184
(1725515582.735988) can0 60B#024eebed80202174
(1725515582.736524) can0 60B#0350fc0b8020017b
(1725515582.736773) can0 60B#044f5bec80200174
(1725515582.736803) can0 60C#008ca53a0220e8
(1725515582.737034) can0 60C#018ca53a0220e8
(1725515582.737269) can0 60C#028ca53a8220c8
(1725515582.737498) can0 60C#038ca53a0220e8
(1725515582.737727) can0 60C#048ca53a0220e8
(1725515582.737977) can0 60D#007d0fa070800505
(1725515582.738170) can0 60D#017d0fa070800605
(1725515582.738518) can0 60D#027cefa070800505
(1725515582.738702) can0 60D#037d0fa070800605
(1725515582.739151) can0 60D#047d0fa070800505
(1725515582.810199) can0 60A#05011910
(1725515582.810590) can0 60B#004fe40680200196
(1725515582.810953) can0 60B#0150840a80200184
(1725515582.811347) can0 60B#024eebed80202174
(1725515582.811385) can0 60B#0350fc0b8020017b
(1725515582.811776) can0 60B#044f5bec80200174
(1725515582.812203) can0 60C#008ca53a0220e8
(1725515582.812242) can0 60C#018ca53a0220e8
(1725515582.812642) can0 60C#028ce73a8220cc
(1725515582.812681) can0 60C#038ca53a0220e8
(1725515582.812981) can0 60C#048ca53a0220e8
(1725515582.813001) can0 60D#007d0fa070800505
(1725515582.813549) can0 60D#017d0fa070800705
(1725515582.814034) can0 60D#027cefa070800505
(1725515582.814072) can0 60D#037d0fa070800605
(1725515582.814373) can0 60D#047d2fa070800505
(1725515582.880269) can0 60A#05011b10
(1725515582.880587) can0 60B#004fe40680200196
(1725515582.880926) can0 60B#0150840a80200184
(1725515582.881191) can0 60B#024eebed80202174
(1725515582.881448) can0 60B#0350fc0b8020017b
(1725515582.881711) can0 60B#044f5bec80200174
(1725515582.882016) can0 60C#008ca53a0220e8
(1725515582.882036) can0 60C#018ca53a0220e8
(1725515582.882293) can0 60C#028ce73a8220cc
(1725515582.882557) can0 60C#038ca53a0220e8
(1725515582.882783) can0 60C#048ca53a0220e8
(1725515582.883153) can0 60D#007d0fa070800505
(1725515582.883552) can0 60D#017d0fa070800605
(1725515582.884021) can0 60D#027cefa070800505
(1725515582.884069) can0 60D#037d0fa070800605
(1725515582.884479) can0 60D#047d0fa070800505
(1725515582.950441) can0 60A#05011d10
(1725515582.950695) can0 60B#004fe40680200196
(1725515582.950714) can0 60B#0150840a80200184
(1725515582.950967) can0 60B#024eebed80202174
(1725515582.951489) can0 60B#0350fc0b8020017b
(1725515582.951818) can0 60B#044f5bec80200174
(1725515582.951880) can0 60C#008ca53a0220e8
(1725515582.952189) can0 60C#018ca53a0220e8
(1725515582.952478) can0 60C#028ce53a8220e8
(1725515582.952690) can0 60C#038ca53a0220e8
(1725515582.953011) can0 60C#048ca53a0220e8
(1725515582.953322) can0 60D#007d0fa070800505
(1725515582.953351) can0 60D#017d0fa070800605
(1725515582.953923) can0 60D#027cefa070800505
(1725515582.954467) can0 60D#037d0fa070800605
(1725515582.954504) can0 60D#047d0fa070800505
(1725515583.025401) can0 60A#05011f10
(1725515583.025682) can0 60B#004fe40680200196
(1725515583.026009) can0 60B#0150840a80200184
(1725515583.026368) can0 60B#024eebed80202174
(1725515583.026406) can0 60B#0350fc0b8020017b
(1725515583.026801) can0 60B#044f5bec80200174
(1725515583.027269) can0 60C#008ca53a0220e8
(1725515583.027308) can0 60C#018ca53a0220e8
(1725515583.027554) can0 60C#028ce73a8220cc
(1725515583.027571) can0 60C#038ca53a0220e8
(1725515583.027788) can0 60C#048ca53a0220e8
(1725515583.028009) can0 60D#007d0fa070800505
(1725515583.028455) can0 60D#017d0fa070800605
(1725515583.028748) can0 60D#027cefa070800505
(1725515583.029130) can0 60D#037d0fa070800605
(1725515583.029546) can0 60D#047d0fa070800505
(1725515583.095322) can0 60A#05012110
(1725515583.095543) can0 60B#004fe40680200196
(1725515583.095965) can0 60B#0150840a80200184
(1725515583.096278) can0 60B#024eebed80202175
(1725515583.096966) can0 60B#0350fc0b8020017b
(1725515583.097232) can0 60B#044f5bec80200174
(1725515583.097258) can0 60C#008ca53a0220e8
(1725515583.097273) can0 60C#018ca53a0220e8
(1725515583.097497) can0 60C#028ce53a8220e8
(1725515583.097728) can0 60C#038ca53a0220e8
(1725515583.097940) can0 60C#048ca53a0220e8
(1725515583.098167) can0 60D#007d0fa070800505
(1725515583.098361) can0 60D#017d0fa070800605
(1725515583.098658) can0 60D#027cefa070800505
(1725515583.098872) can0 60D#037d0fa070800605
(1725515583.099058) can0 60D#047d2fa070800505
(1725515583.165665) can0 60A#05012310
(1725515583.165739) can0 60B#004fe40680200196
(1725515583.166017) can0 60B#0150840a80200184
(1725515583.166545) can0 60B#024eebed80202176
(1725515583.166911) can0 60B#0350fc0b8020017b
(1725515583.166934) can0 60B#044f5bec80200174
(1725515583.166955) can0 60C#008ca53a0220e8
(1725515583.167198) can0 60C#018ca53a0220e8
(1725515583.167659) can0 60C#028ce53a0220e8
(1725515583.168017) can0 60C#038ca53a0220e8
(1725515583.168055) can0 60C#048ca53a0220e8
(1725515583.168319) can0 60D#007d0fa070800505
(1725515583.169209) can0 60D#017d0fa070800605
(1725515583.169670) can0 60D#027d0fa070800505
(1725515583.169709) can0 60D#037d0fa070800605
(1725515583.169721) can0 60D#047d2fa070800505
(1725515583.240472) can0 60A#05012510
(1725515583.240723) can0 60B#004fe40680200196
(1725515583.241010) can0 60B#0150840a80200184
(1725515583.241296) can0 60B#024ef3ed80202175
(1725515583.241584) can0 60B#0350fc0b8020017b
(1725515583.241874) can0 60B#044f5bec80200174
(1725515583.242181) can0 60C#008ca53a0220e8
(1725515583.242211) can0 60C#018ca53a0220e8
(1725515583.242524) can0 60C#028ca53a0220e8
(1725515583.242886) can0 60C#038ca53a0220e8
(1725515583.243153) can0 60C#048ca53a0220e8
(1725515583.243173) can0 60D#007d0fa070800505
(1725515583.243531) can0 60D#017d0fa070800605
(1725515583.243760) can0 60D#027cefa070800505
(1725515583.243982) can0 60D#037d0fa070800605
(1725515583.244201) can0 60D#047d2fa070800505
(1725515583.310386) can0 60A#05012710
(1725515583.310599) can0 60B#004fe40680200196
(1725515583.310879) can0 60B#0150840a80200184
(1725515583.311075) can0 60B#024ef3ed80200175
(1725515583.311424) can0 60B#0350fc0b8020017b
(1725515583.311613) can0 60B#044f5bec80200174
(1725515583.312138) can0 60C#008ca53a0220e8
(1725515583.312168) can0 60C#018ca53a0220e8
(1725515583.312511) can0 60C#028ca53a0220e8
(1725515583.312750) can0 60C#038ca53a0220e8
(1725515583.312979) can0 60C#048ca53a0220e8
(1725515583.313199) can0 60D#007d0fa070800505
(1725515583.313428) can0 60D#017d0fa070800605
(1725515583.313668) can0 60D#027c6fa070800505
(1725515583.314063) can0 60D#037d0fa070800605
(1725515583.314295) can0 60D#047d2fa070800505
(1725515583.380387) can0 60A#05012910
(1725515583.380630) can0 60B#004fe40680200196
(1725515583.380899) can0 60B#0150840a80200184
(1725515583.381144) can0 60B#024ef3ed80200174
(1725515583.381407) can0 60B#0350fc0b8020017b
(1725515583.381676) can0 60B#044f5bec80200174
(1725515583.381972) can0 60C#008ca53a0220e8
(1725515583.382213) can0 60C#018ca53a0220e8
(1725515583.382441) can0 60C#028ca53a0220e8
(1725515583.382660) can0 60C#038ca53a0220e8
(1725515583.382896) can0 60C#048ca53a0220e8
(1725515583.383170) can0 60D#007d0fa070800505
(1725515583.383418) can0 60D#017d0fa070800605
(1725515583.383924) can0 60D#027befa070800505
(1725515583.384181) can0 60D#037d0fa070800605
(1725515583.384400) can0 60D#047d2fa070800505
(1725515583.457101) can0 60A#05012b10
(1725515583.459909) can0 60B#004fe40680200196
(1725515583.459983) can0 60B#0150840a80200184
(1725515583.459995) can0 60B#024ef3ed80200173
(1725515583.460010) can0 60B#0350fc0b8020017b
(1725515583.460021) can0 60B#044f5bec80200174
(1725515583.460045) can0 60C#008ca53a0220e8
(1725515583.460059) can0 60C#018ca53a0220e8
(1725515583.460073) can0 60C#028ca53a8220c8
(1725515583.460086) can0 60C#038ca53a0220e8
(1725515583.460099) can0 60C#048ca53a0220e8
(1725515583.460112) can0 60D#007d0fa070800505
(1725515583.460123) can0 60D#017d0fa070800605
(1725515583.460134) can0 60D#027bafa070800505
(1725515583.460394) can0 60D#037d0fa070800605
(1725515583.460411) can0 60D#047d2fa070800505
(1725515583.525512) can0 60A#05012d10
(1725515583.525733) can0 60B#004fe40680200196
(1725515583.525935) can0 60B#0150840a80200184
(1725515583.526289) can0 60B#024ef3ec80200173
(1725515583.526686) can0 60B#0350fc0b8020017b
(1725515583.526991) can0 60B#044f5bec80200174
(1725515583.527019) can0 60C#008ca53a0220e8
(1725515583.527386) can0 60C#018ca53a0220e8
(1725515583.527791) can0 60C#028ca53a0220e8
(1725515583.527828) can0 60C#038ca53a0220e8
(1725515583.528063) can0 60C#048ca53a0220e8
(1725515583.528251) can0 60D#007d0fa070800505
(1725515583.528440) can0 60D#017d0fa070800605
(1725515583.529102) can0 60D#027b4fa070800505
(1725515583.529138) can0 60D#037d0fa070800605
(1725515583.529522) can0 60D#047d2fa070800505
(1725515583.595615) can0 60A#05012f10
(1725515583.595894) can0 60B#004fe40680200196
(1725515583.596158) can0 60B#0150840a80200184
(1725515583.596420) can0 60B#024efbec80200173
(1725515583.597503) can0 60B#0350fc0b8020017b
(1725515583.600089) can0 60B#044f5bec80200173
(1725515583.600181) can0 60C#008ca53a0220e8
(1725515583.600197) can0 60C#018ca53a0220e8
(1725515583.600214) can0 60C#028ca53a0220e8
(1725515583.600229) can0 60C#038ca53a0220e8
(1725515583.600241) can0 60C#048ca53a0220e8
(1725515583.600254) can0 60D#007d0fa070800505
(1725515583.600265) can0 60D#017d0fa070800605
(1725515583.600276) can0 60D#027acfa070800505
(1725515583.600286) can0 60D#037d0fa070800605
(1725515583.600685) can0 60D#047d0fa070800505
(1725515583.670547) can0 60A#05013110
(1725515583.670757) can0 60B#004fe40680200196
(1725515583.670943) can0 60B#0150840a80200184
(1725515583.671633) can0 60B#024efbec80200173
(1725515583.671670) can0 60B#0350fc0b8020017b
(1725515583.672094) can0 60B#044f5bec80200174
(1725515583.672139) can0 60C#008ca53a0220e8
(1725515583.672521) can0 60C#018ca53a0220e8
(1725515583.672954) can0 60C#028ca53a0220e8
(1725515583.672992) can0 60C#038ca53a0220e8
(1725515583.673204) can0 60C#048ca53a0220e8
(1725515583.673389) can0 60D#007d0fa070800505
(1725515583.673573) can0 60D#017d0fa070800705
(1725515583.673960) can0 60D#027a8fa070800505
(1725515583.674361) can0 60D#037d0fa070800605
(1725515583.674593) can0 60D#047d2fa070800505
(1725515583.740748) can0 60A#05013310
(1725515583.740788) can0 60B#004fe40680200196
(1725515583.741779) can0 60B#0150840a80200184
(1725515583.744240) can0 60B#024efbec80200173
(1725515583.744278) can0 60B#0350fc0b8020017b
(1725515583.744291) can0 60B#044f5bed80202174
(1725515583.744309) can0 60C#008ca53a0220e8
(1725515583.744323) can0 60C#018ca53a0220e8
(1725515583.744340) can0 60C#028ca53a0220e8
(1725515583.744354) can0 60C#038ca53a0220e8
(1725515583.744367) can0 60C#048ca53a0220e8
(1725515583.744379) can0 60D#007d0fa070800505
(1725515583.747370) can0 60D#017d0fa070800705
(1725515583.747410) can0 60D#027a2fa070800505
(1725515583.747422) can0 60D#037d0fa070800605
(1725515583.747434) can0 60D#047d2fa070800505
(1725515583.813926) can0 60A#05013510
(1725515583.813969) can0 60B#004fe40680200196
(1725515583.813981) can0 60B#0150840a80200184
(1725515583.813993) can0 60B#024efbec80200173
(1725515583.814003) can0 60B#0350fc0b8020017b
(1725515583.814014) can0 60B#044f5bed80202174
(1725515583.814029) can0 60C#008ca53a0220e8
(1725515583.814042) can0 60C#018ca53a0220e8
(1725515583.814055) can0 60C#028ca53a0220e8
(1725515583.814068) can0 60C#038ca53a0220e8
(1725515583.814081) can0 60C#048ca53a0220e8
(1725515583.816571) can0 60D#007d0fa070800505
(1725515583.816614) can0 60D#017d0fa070800705
(1725515583.816626) can0 60D#027a0fa070800505
(1725515583.816637) can0 60D#037d0fa070800605
(1725515583.816648) can0 60D#047d2fa070800505
(1725515583.885517) can0 60A#05013710
(1725515583.885739) can0 60B#004fe40680200196
(1725515583.886186) can0 60B#0150840a80200184
(1725515583.886430) can0 60B#024efbec80200173
(1725515583.886630) can0 60B#0350fc0b8020017b
(1725515583.886884) can0 60B#044f5bed80202174
(1725515583.887130) can0 60C#008ca53a0220e8
(1725515583.887341) can0 60C#018ca53a0220e8
(1725515583.887540) can0 60C#028ca53a8220cc
(1725515583.888091) can0 60C#038ca53a0220e8
(1725515583.888124) can0 60C#048ca53a0220e8
(1725515583.888444) can0 60D#007d2fa070800505
(1725515583.888678) can0 60D#017d0fa070800705
(1725515583.889085) can0 60D#027a0fa070800505
(1725515583.889464) can0 60D#037d0fa070800605
(1725515583.889742) can0 60D#047d2fa070800505
(1725515583.955665) can0 60A#05013910
(1725515583.955982) can0 60B#004fe40680200196
(1725515583.956216) can0 60B#0150840a80200184
(1725515583.956449) can0 60B#024efbec80200173
(1725515583.956681) can0 60B#0350fc0b8020017b
(1725515583.956941) can0 60B#044f5bed80202174
(1725515583.957137) can0 60C#008ca53a0220e8
(1725515583.957329) can0 60C#018ca53a0220e8
(1725515583.957741) can0 60C#028ca53a8220c8
(1725515583.957982) can0 60C#038ca53a0220e8
(1725515583.958222) can0 60C#048ca53a0220e8
(1725515583.958458) can0 60D#007d4fa070800505
(1725515583.958690) can0 60D#017d0fa070800705
(1725515583.958943) can0 60D#027a2fa070800505
(1725515583.959133) can0 60D#037d0fa070800605
(1725515583.959490) can0 60D#047d2fa070800505
(1725515584.025601) can0 60A#05013b10
(1725515584.025877) can0 60B#004fe40680200196
(1725515584.026083) can0 60B#0150840a80200184
(1725515584.026369) can0 60B#024efbec80200174
(1725515584.026621) can0 60B#0350fc0b8020017b
(1725515584.026914) can0 60B#044f5bed80202174
(1725515584.027153) can0 60C#008ca53a0220e8
(1725515584.027406) can0 60C#018ca53a0220e8
(1725515584.027673) can0 60C#028ca53a0220e8
(1725515584.027981) can0 60C#038ca53a0220e8
(1725515584.028198) can0 60C#048ca53a0220e8
(1725515584.028497) can0 60D#007d4fa070800505
(1725515584.028751) can0 60D#017d0fa070800605
(1725515584.028968) can0 60D#027a6fa070800505
(1725515584.029316) can0 60D#037d0fa070800605
(1725515584.029666) can0 60D#047d2fa070800505
(1725515584.100601) can0 60A#05013d10
(1725515584.100913) can0 60B#004fe40680200196
(1725515584.102546) can0 60B#0150840a80200184
(1725515584.102586) can0 60B#024efbec80200174
(1725515584.105152) can0 60B#0350fc0b8020017b
(1725515584.105191) can0 60B#044f5bed80200174
(1725515584.105211) can0 60C#008ca53a0220e8
(1725515584.105225) can0 60C#018ca53a0220e8
(1725515584.105239) can0 60C#028ca53a0220e8
(1725515584.105252) can0 60C#038ca53a0220e8
(1725515584.105266) can0 60C#048ca53a0220e8
(1725515584.105278) can0 60D#007d4fa070800505
(1725515584.105290) can0 60D#017d0fa070800605
(1725515584.105301) can0 60D#027acfa070800505
(1725515584.105313) can0 60D#037d0fa070800605
(1725515584.105561) can0 60D#047d2fa070800505
(1725515584.170678) can0 60A#05013f10
(1725515584.170988) can0 60B#004fe40680200196
(1725515584.171220) can0 60B#0150840a80200184
(1725515584.171612) can0 60B#024efbec80200174
(1725515584.171875) can0 60B#0350fc0b8020017b
(1725515584.171890) can0 60B#044f5bed80200174
(1725515584.172644) can0 60C#008ca53a0220e8
(1725515584.172682) can0 60C#018ca53a0220e8
(1725515584.172982) can0 60C#028ca53a8220cc
(1725515584.173002) can0 60C#038ca53a0220e8
(1725515584.173397) can0 60C#048ca53a0220e8
(1725515584.173885) can0 60D#007d4fa070800505
(1725515584.173924) can0 60D#017d0fa070800605
(1725515584.174335) can0 60D#027acfa070800505
(1725515584.174597) can0 60D#037d0fa070800605
(1725515584.174612) can0 60D#047d2fa070800505
(1725515584.240783) can0 60A#05014110
(1725515584.241081) can0 60B#004fe40680200196
(1725515584.241300) can0 60B#0150840a80200184
(1725515584.241515) can0 60B#024efbec80200175
(1725515584.241732) can0 60B#0350fc0b8020017b
(1725515584.242017) can0 60B#044f5bed80200174
(1725515584.242456) can0 60C#008ca53a0220e8
(1725515584.242777) can0 60C#018ca53a0220e8
(1725515584.242805) can0 60C#028ca53a0220e8
(1725515584.243179) can0 60C#038ca53a0220e8
(1725515584.243591) can0 60C#048ca53a0220e8
(1725515584.243629) can0 60D#007d4fa070800505
(1725515584.243922) can0 60D#017d0fa070800605
(1725515584.244139) can0 60D#027bcfa070800505
(1725515584.244355) can0 60D#037d0fa070800605
(1725515584.244630) can0 60D#047d2fa070800505
(1725515584.316024) can0 60A#05014310
(1725515584.316818) can0 60B#004fe40680200196
(1725515584.316914) can0 60B#0150840a80200184
(1725515584.318954) can0 60B#024efbec80200175
(1725515584.318992) can0 60B#0350fc0b8020017b
(1725515584.319004) can0 60B#044f5bed80200174
(1725515584.319026) can0 60C#008ca53a0220e8
(1725515584.319040) can0 60C#018ca53a0220e8
(1725515584.319054) can0 60C#028ca53a8220cc
(1725515584.319067) can0 60C#038ca53a0220e8
(1725515584.319080) can0 60C#048ca53a0220e8
(1725515584.319093) can0 60D#007d4fa070800505
(1725515584.321629) can0 60D#017d0fa070800605
(1725515584.321665) can0 60D#027bcfa070800505
(1725515584.321677) can0 60D#037d0fa070800605
(1725515584.321688) can0 60D#047d2fa070800505
(1725515584.385817) can0 60A#05014510
(1725515584.386184) can0 60B#004fe40680200196
(1725515584.386448) can0 60B#0150840a80200184
(1725515584.386468) can0 60B#024ef3eb801fe177
(1725515584.386772) can0 60B#0350fc0b8020017b
(1725515584.387223) can0 60B#044f5bec80200174
(1725515584.387505) can0 60C#008ca53a0220e8
(1725515584.387529) can0 60C#018ca53a0220e8
(1725515584.388392) can0 60C#028ca53a0220e8
(1725515584.391295) can0 60C#038ca53a0220e8
(1725515584.391335) can0 60C#048ca53a0220e8
(1725515584.391349) can0 60D#007d2fa070800505
(1725515584.391361) can0 60D#017d0fa070800605
(1725515584.391372) can0 60D#027d0fa070800505
(1725515584.391387) can0 60D#037d0fa070800605
(1725515584.391398) can0 60D#047d2fa070800505
(1725515584.461288) can0 60A#05014710
(1725515584.461346) can0 60B#004fe40680200196
(1725515584.464011) can0 60B#0150840a80200184
(1725515584.464051) can0 60B#024ef3eb801fe17a
(1725515584.464062) can0 60B#0350fc0b8020017b
(1725515584.464073) can0 60B#044f5bec80200174
(1725515584.464092) can0 60C#008ca53a0220e8
(1725515584.464106) can0 60C#018ca53a0220e8
(1725515584.464119) can0 60C#028ca53a0220e8
(1725515584.464132) can0 60C#038ca53a0220e8
(1725515584.466739) can0 60C#048ca53a0220e8
(1725515584.466778) can0 60D#007d2fa070800505
(1725515584.466790) can0 60D#017d0fa070800605
(1725515584.466801) can0 60D#027d4fa070800505
(1725515584.466816) can0 60D#037d0fa070800605
(1725515584.466827) can0 60D#047d2fa070800505
(1725515584.530932) can0 60A#05014910
(1725515584.531191) can0 60B#004fe40680200196
(1725515584.531401) can0 60B#0150840a80200184
(1725515584.531608) can0 60B#024ef3eb801fe179
(1725515584.531914) can0 60B#0350fc0b8020017b
(1725515584.532154) can0 60B#044f5bec80200174
(1725515584.532388) can0 60C#008ca53a0220e8
(1725515584.532609) can0 60C#018ca53a0220e8
(1725515584.532911) can0 60C#028ca53a0220e8
(1725515584.533147) can0 60C#038ca53a0220e8
(1725515584.533360) can0 60C#048ca53a0220e8
(1725515584.533580) can0 60D#007d2fa070800505
(1725515584.533788) can0 60D#017d0fa070800605
(1725515584.534167) can0 60D#027dafa070800505
(1725515584.534376) can0 60D#037d0fa070800605
(1725515584.534569) can0 60D#047d2fa070800505
(1725515584.600838) can0 60A#05014b10
(1725515584.601074) can0 60B#004fe40680200196
(1725515584.601261) can0 60B#0150840a80200184
(1725515584.601648) can0 60B#024ef3eb801fe177
(1725515584.601867) can0 60B#0350fc0b8020017b
(1725515584.602054) can0 60B#044f5bec80200174
(1725515584.602241) can0 60C#008ca53a0220e8
(1725515584.602625) can0 60C#018ca53a0220e8
(1725515584.602945) can0 60C#028ca53a0220e8
(1725515584.603220) can0 60C#038ca53a0220e8
(1725515584.603477) can0 60C#048ca53a0220e8
(1725515584.603728) can0 60D#007d0fa070800505
(1725515584.603955) can0 60D#017d0fa070800605
(1725515584.604249) can0 60D#027defa070800505
(1725515584.604630) can0 60D#037d0fa070800605
(1725515584.604930) can0 60D#047d2fa070800505
(1725515584.675787) can0 60A#05014d10
(1725515584.676022) can0 60B#004fe40680200196
(1725515584.676261) can0 60B#0150840a80200184
(1725515584.676649) can0 60B#024ef3eb80200176
(1725515584.676915) can0 60B#0350fc0b8020017b
(1725515584.677143) can0 60B#044f5bec80200174
(1725515584.677371) can0 60C#008ca53a0220e8
(1725515584.677579) can0 60C#018ca53a0220e8
(1725515584.677777) can0 60C#028ca53a0220e8
(1725515584.678154) can0 60C#038ca53a0220e8
(1725515584.678357) can0 60C#048ca53a0220e8
(1725515584.678557) can0 60D#007d0fa070800505
(1725515584.678953) can0 60D#017d0fa070800605
(1725515584.679158) can0 60D#027e2fa070800505
(1725515584.679353) can0 60D#037d0fa070800605
(1725515584.679718) can0 60D#047d2fa070800505
(1725515584.745975) can0 60A#05014f10
(1725515584.746542) can0 60B#004fe40680200196
(1725515584.746576) can0 60B#0150840a80200184
(1725515584.747004) can0 60B#024ef3ec80200176
(1725515584.747031) can0 60B#0350fc0b8020017b
(1725515584.747258) can0 60B#044f5bec80200175
(1725515584.747823) can0 60C#008ca53a0220e8
(1725515584.748106) can0 60C#018ca53a0220e8
(1725515584.748127) can0 60C#028ca53a0220e8
(1725515584.748141) can0 60C#038ca53a0220e8
(1725515584.748346) can0 60C#048ca53a0220e8
(1725515584.748595) can0 60D#007d0fa070800505
(1725515584.748918) can0 60D#017d0fa070800605
(1725515584.749158) can0 60D#027e2fa070800505
(1725515584.749390) can0 60D#037d0fa070800705
(1725515584.749759) can0 60D#047d0fa070800505
(1725515584.815928) can0 60A#05015110
(1725515584.816182) can0 60B#004fe40680200196
(1725515584.816399) can0 60B#0150840a80200184
(1725515584.816617) can0 60B#024ef3ec80200175
(1725515584.816941) can0 60B#0350fc0b8020017b
(1725515584.817218) can0 60B#044f5bec80200175
(1725515584.817455) can0 60C#008ca53a0220e8
(1725515584.817678) can0 60C#018ca53a0220e8
(1725515584.818162) can0 60C#028ca53a0220e8
(1725515584.818412) can0 60C#038ca53a0220e8
(1725515584.818433) can0 60C#048ca53a0220e8
(1725515584.818644) can0 60D#007d0fa070800505
(1725515584.818916) can0 60D#017d0fa070800605
(1725515584.819158) can0 60D#027e4fa070800505
(1725515584.819390) can0 60D#037d0fa070800705
(1725515584.819942) can0 60D#047d0fa070800505
(1725515584.890995) can0 60A#05015310
(1725515584.891254) can0 60B#004fe40680200196
(1725515584.891485) can0 60B#0150840a80200184
(1725515584.891713) can0 60B#024ef3ec80200175
(1725515584.891969) can0 60B#0350fc0b8020017b
(1725515584.892211) can0 60B#044f5bec80200175
(1725515584.892451) can0 60C#008ca53a0220e8
(1725515584.892696) can0 60C#018ca53a0220e8
(1725515584.893131) can0 60C#028ca53a0220e8
(1725515584.893167) can0 60C#038ca53a0220e8
(1725515584.893398) can0 60C#048ca53a0220e8
(1725515584.893658) can0 60D#007d0fa070800505
(1725515584.893970) can0 60D#017d0fa070800605
(1725515584.894206) can0 60D#027e4fa070800505
(1725515584.894432) can0 60D#037d0fa070800705
(1725515584.894924) can0 60D#047d0fa070800505
(1725515584.961146) can0 60A#05015510
(1725515584.961187) can0 60B#004fe40680200196
(1725515584.961435) can0 60B#0150840a80200184
(1725515584.961687) can0 60B#024ef3ec80200175
(1725515584.961979) can0 60B#0350fc0b8020017b
(1725515584.962208) can0 60B#044f5bec80200175
(1725515584.962425) can0 60C#008ca53a0220e8
(1725515584.962621) can0 60C#018ca53a0220e8
(1725515584.963082) can0 60C#028ca53a0220cc
(1725515584.963291) can0 60C#038ca53a0220e8
(1725515584.963487) can0 60C#048ca53a0220e8
(1725515584.963679) can0 60D#007d0fa070800505
(1725515584.963949) can0 60D#017d0fa070800605
(1725515584.964311) can0 60D#027e4fa070800505
(1725515584.964498) can0 60D#037d0fa070800705
(1725515584.964686) can0 60D#047d0fa070800505
(1725515585.031151) can0 60A#05015710
(1725515585.031513) can0 60B#004fe40680200196
(1725515585.032054) can0 60B#0150840a80200184
(1725515585.032100) can0 60B#024ef3ec80200175
(1725515585.032404) can0 60B#0350fc0b8020017b
(1725515585.032445) can0 60B#044f5bec80200175
(1725515585.032758) can0 60C#008ca53a0220e8
(1725515585.033073) can0 60C#018ca53a0220e8
(1725515585.033352) can0 60C#028ca53a8220cc
(1725515585.033378) can0 60C#038ca53a0220e8
(1725515585.033604) can0 60C#048ca53a0220e8
(1725515585.035978) can0 60D#007cefa070800505
(1725515585.038572) can0 60D#017d0fa070800605
(1725515585.038613) can0 60D#027e4fa070800505
(1725515585.038625) can0 60D#037d0fa070800705
(1725515585.038636) can0 60D#047d0fa070800505
(1725515585.105993) can0 60A#05015910
(1725515585.106261) can0 60B#004fe40680200196
(1725515585.106516) can0 60B#0150840a80200184
(1725515585.106755) can0 60B#024ef3ec80200175
(1725515585.106984) can0 60B#0350fc0b8020017b
(1725515585.107233) can0 60B#044f5bec80200175
(1725515585.107488) can0 60C#008ca53a0220e8
(1725515585.107739) can0 60C#018ca53a0220e8
(1725515585.107992) can0 60C#028ca53a8220e8
(1725515585.108236) can0 60C#038ca53a0220e8
(1725515585.108475) can0 60C#048ca53a0220e8
(1725515585.108720) can0 60D#007cefa070800505
(1725515585.108982) can0 60D#017d0fa070800605
(1725515585.109235) can0 60D#027e4fa070800505
(1725515585.109708) can0 60D#037d0fa070800705
(1725515585.109974) can0 60D#047d0fa070800505
(1725515585.175980) can0 60A#05015b10
(1725515585.176220) can0 60B#004fe40680200196
(1725515585.176435) can0 60B#0150840a80200184
(1725515585.176914) can0 60B#024ef3ec80200175
(1725515585.177150) can0 60B#0350fc0b8020017b
(1725515585.177371) can0 60B#044f5bec80200175
(1725515585.177603) can0 60C#008ca53a0220e8
(1725515585.178092) can0 60C#018ca53a0220e8
(1725515585.178386) can0 60C#028ca53a8220cc
(1725515585.178413) can0 60C#038ca53a0220e8
(1725515585.178659) can0 60C#048ca53a0220e8
(1725515585.180138) can0 60D#007cefa070800505
(1725515585.182743) can0 60D#017d0fa070800605
(1725515585.182781) can0 60D#027e4fa070800505
(1725515585.182793) can0 60D#037d0fa070800705
(1725515585.182805) can0 60D#047d0fa070800505
(1725515585.246076) can0 60A#05015d10
(1725515585.246366) can0 60B#004fe40680200196
(1725515585.246567) can0 60B#0150840a80200184
(1725515585.246760) can0 60B#024ef3ec80200175
(1725515585.247052) can0 60B#0350fc0b8020017b
(1725515585.247280) can0 60B#044f5bec80200175
(1725515585.247494) can0 60C#008ca53a0220e8
(1725515585.247715) can0 60C#018ca53a0220e8
(1725515585.249002) can0 60C#028ca53a8220e8
(1725515585.251537) can0 60C#038ca53a0220e8
(1725515585.251577) can0 60C#048ca53a0220e8
(1725515585.251592) can0 60D#007cefa070800505
(1725515585.251604) can0 60D#017d0fa070800605
(1725515585.251616) can0 60D#027dcfa070800505
(1725515585.251627) can0 60D#037d0fa070800705
(1725515585.251638) can0 60D#047d0fa070800505
(1725515585.316146) can0 60A#05015f10
(1725515585.316387) can0 60B#004fe40680200196
(1725515585.316612) can0 60B#0150840a80200184
(1725515585.316937) can0 60B#024ef3ec80202175
(1725515585.317193) can0 60B#0350fc0b8020017b
(1725515585.317490) can0 60B#044f5bec80200175
(1725515585.317518) can0 60C#008ca53a0220e8
(1725515585.318022) can0 60C#018ca53a0220e8
(1725515585.318357) can0 60C#028ca53a0220e8
(1725515585.318387) can0 60C#038ca53a0220e8
(1725515585.318638) can0 60C#048ca53a0220e8
(1725515585.318931) can0 60D#007cefa070800505
(1725515585.319166) can0 60D#017d0fa070800605
(1725515585.319366) can0 60D#027d6fa070800505
(1725515585.319559) can0 60D#037d0fa070800705
(1725515585.319976) can0 60D#047d0fa070800505
(1725515585.391441) can0 60A#05016110
(1725515585.391726) can0 60B#004fe40680200196
(1725515585.391754) can0 60B#0150840a80200184
(1725515585.391983) can0 60B#024ef3ec80200174
(1725515585.392231) can0 60B#0350fc0b8020017b
(1725515585.392493) can0 60B#044f5bec80200175
(1725515585.392751) can0 60C#008ca53a0220e8
(1725515585.393194) can0 60C#018ca53a0220e8
(1725515585.393493) can0 60C#028ca53a0220e8
(1725515585.393517) can0 60C#038ca53a0220e8
(1725515585.393767) can0 60C#048ca53a0220e8
(1725515585.394170) can0 60D#007cefa070800505
(1725515585.394516) can0 60D#017d0fa070800605
(1725515585.394546) can0 60D#027d6fa070800505
(1725515585.394967) can0 60D#037d0fa070800705
(1725515585.395236) can0 60D#047d0fa070800505
(1725515585.461196) can0 60A#05016310
(1725515585.461466) can0 60B#004fe40680200196
(1725515585.461837) can0 60B#0150840a80200184
(1725515585.462140) can0 60B#024ef3ec80200174
(1725515585.462159) can0 60B#0350fc0b8020017b
(1725515585.462501) can0 60B#044f5bec80200175
(1725515585.462929) can0 60C#008ca53a0220e8
(1725515585.463325) can0 60C#018ca53a0220e8
(1725515585.463368) can0 60C#028ca53a0220e8
(1725515585.463592) can0 60C#038ca53a0220e8
(1725515585.463608) can0 60C#048ca53a0220e8
(1725515585.463940) can0 60D#007cefa070800505
(1725515585.464294) can0 60D#017d0fa070800605
(1725515585.464607) can0 60D#027d2fa070800505
(1725515585.465002) can0 60D#037d0fa070800705
(1725515585.465306) can0 60D#047d0fa070800505
(1725515585.536296) can0 60A#05016510
(1725515585.536540) can0 60B#004fe40680200196
(1725515585.536556) can0 60B#0150840a80200183
(1725515585.537026) can0 60B#024ef3ec80200174
(1725515585.537222) can0 60B#0350fc0b8020017b
(1725515585.537412) can0 60B#044f5bec80200175
(1725515585.537604) can0 60C#008ca53a0220e8
(1725515585.538246) can0 60C#018ca53a0220e8
(1725515585.538285) can0 60C#028ca53a0220e8
(1725515585.538605) can0 60C#038ca53a0220e8
(1725515585.539175) can0 60C#048ca53a0220e8
(1725515585.539210) can0 60D#007cefa070800505
(1725515585.539227) can0 60D#017d0fa070800605
(1725515585.539448) can0 60D#027cefa070800505
(1725515585.539654) can0 60D#037d0fa070800705
(1725515585.540101) can0 60D#047d0fa070800505
(1725515585.606255) can0 60A#05016710
(1725515585.606587) can0 60B#004fe40680200196
(1725515585.607000) can0 60B#0150840a80200183
(1725515585.607049) can0 60B#024ef3ec80200175
(1725515585.607344) can0 60B#0350fc0b8020017b
(1725515585.607618) can0 60B#044f5bec80200174
(1725515585.607656) can0 60C#008ca53a0220e8
(1725515585.607978) can0 60C#018ca53a0220e8
(1725515585.608271) can0 60C#028ca53a0220e8
(1725515585.608543) can0 60C#038ca53a0220e8
(1725515585.608834) can0 60C#048ca53a0220e8
(1725515585.609112) can0 60D#007d0fa070800505
(1725515585.609365) can0 60D#017d0fa070800605
(1725515585.609628) can0 60D#027cefa070800505
(1725515585.609942) can0 60D#037d0fa070800705
(1725515585.610195) can0 60D#047d0fa070800505
(1725515585.676187) can0 60A#05016910
(1725515585.676448) can0 60B#004fe40680200196
(1725515585.677026) can0 60B#0150840a80200183
(1725515585.677334) can0 60B#024ef3ed80200175
(1725515585.677363) can0 60B#0350fc0b8020017b
(1725515585.677608) can0 60B#044f5bec80200175
(1725515585.677941) can0 60C#008ca53a0220e8
(1725515585.678201) can0 60C#018ca53a0220e8
(1725515585.678225) can0 60C#028ca53a0220e8
(1725515585.678454) can0 60C#038ca53a0220e8
(1725515585.678783) can0 60C#048ca53a0220e8
(1725515585.680749) can0 60D#007d0fa070800505
(1725515585.682480) can0 60D#017d0fa070800605
(1725515585.682519) can0 60D#027cefa070800505
(1725515585.682725) can0 60D#037d0fa070800705
(1725515585.682741) can0 60D#047d0fa070800505
(1725515585.754098) can0 60A#05016b10
(1725515585.754138) can0 60B#004fe40680200196
(1725515585.754151) can0 60B#0150840a80200184
(1725515585.754162) can0 60B#024ef3ed80202174
(1725515585.754173) can0 60B#0350fc0b8020017b
(1725515585.754184) can0 60B#044f5bec80200175
(1725515585.754199) can0 60C#008ca53a0220e8
(1725515585.754213) can0 60C#018ca53a0220e8
(1725515585.756909) can0 60C#028ca53a0220e8
(1725515585.756958) can0 60C#038ca53a0220e8
(1725515585.756972) can0 60C#048ca53a0220e8
(1725515585.756985) can0 60D#007cefa070800505
(1725515585.756997) can0 60D#017d0fa070800605
(1725515585.757008) can0 60D#027d0fa070800505
(1725515585.757020) can0 60D#037d0fa070800705
(1725515585.757031) can0 60D#047d0fa070800505
(1725515585.821335) can0 60A#05016d10
(1725515585.821615) can0 60B#004fe40680200196
(1725515585.822123) can0 60B#0150840a80200184
(1725515585.822457) can0 60B#024ef3ed80202175
(1725515585.822484) can0 60B#0350fc0b8020017b
(1725515585.822495) can0 60B#044f5bec80200175
(1725515585.822744) can0 60C#008ca53a0220e8
(1725515585.822961) can0 60C#018ca53a0220e8
(1725515585.823166) can0 60C#028ca53a0220e8
(1725515585.823541) can0 60C#038ca53a0220e8
(1725515585.823859) can0 60C#048ca53a0220e8
(1725515585.824170) can0 60D#007d0fa070800505
(1725515585.824513) can0 60D#017d0fa070800605
(1725515585.824933) can0 60D#027d0fa070800505
(1725515585.824984) can0 60D#037d0fa070800705
(1725515585.825203) can0 60D#047d0fa070800505
(1725515585.891240) can0 60A#05016f10
(1725515585.891455) can0 60B#004fe40680200196
(1725515585.891647) can0 60B#0150840a80200184
(1725515585.892040) can0 60B#024ef3ed80202175
(1725515585.892229) can0 60B#0350fc0b8020017b
(1725515585.892415) can0 60B#044f5bec80200175
(1725515585.892780) can0 60C#008ca53a0220e8
(1725515585.892972) can0 60C#018ca53a0220e8
(1725515585.893165) can0 60C#028ca53a0220e8
(1725515585.893513) can0 60C#038ca53a0220e8
(1725515585.893698) can0 60C#048ca53a0220e8
(1725515585.893945) can0 60D#007d0fa070800505
(1725515585.894953) can0 60D#017d0fa070800605
(1725515585.897381) can0 60D#027d2fa070800505
(1725515585.897405) can0 60D#037d0fa070800705
(1725515585.897418) can0 60D#047d0fa070800505
(1725515585.964558) can0 60A#05017110
(1725515585.964600) can0 60B#004fe40680200196
(1725515585.964615) can0 60B#0150840a80200184
(1725515585.964626) can0 60B#024ef3ed80202175
(1725515585.964637) can0 60B#0350fc0b8020017b
(1725515585.964648) can0 60B#044f5bec80200175
(1725515585.964663) can0 60C#008ca53a0220e8
(1725515585.964676) can0 60C#018ca53a0220e8
(1725515585.964689) can0 60C#028ca53a0220e8
(1725515585.964702) can0 60C#038ca53a0220e8
(1725515585.967698) can0 60C#048ca53a0220e8
(1725515585.967773) can0 60D#007d0fa070800505
(1725515585.967787) can0 60D#017d0fa070800605
(1725515585.967798) can0 60D#027d2fa070800505
(1725515585.967817) can0 60D#037d0fa070800705
(1725515585.967829) can0 60D#047d0fa070800505
(1725515586.036363) can0 60A#05017310
(1725515586.036602) can0 60B#004fe40680200196
(1725515586.036881) can0 60B#0150840a80200184
(1725515586.037296) can0 60B#024ef3ed80202175
(1725515586.037586) can0 60B#0350fc0b8020017b
(1725515586.037601) can0 60B#044f5bec80200174
(1725515586.038169) can0 60C#008ca53a0220e8
(1725515586.040808) can0 60C#018ca53a0220e8
(1725515586.040920) can0 60C#028ca53a0220e8
(1725515586.040936) can0 60C#038ca53a0220e8
(1725515586.040954) can0 60C#048ca53a0220e8
(1725515586.040970) can0 60D#007d0fa070800505
(1725515586.040981) can0 60D#017d0fa070800605
(1725515586.040992) can0 60D#027d4fa070800505
(1725515586.041003) can0 60D#037d0fa070800605
(1725515586.042005) can0 60D#047d0fa070800505
(1725515586.106366) can0 60A#05017510
(1725515586.106636) can0 60B#004fe40680200196
(1725515586.106918) can0 60B#0150840a80200184
(1725515586.107167) can0 60B#024ef3ed80200176
(1725515586.107396) can0 60B#0350fc0b8020017b
(1725515586.107603) can0 60B#044f5bec80200174
(1725515586.107948) can0 60C#008ca53a0220e8
(1725515586.108190) can0 60C#018ca53a0220e8
(1725515586.108410) can0 60C#028ca53a0220e8
(1725515586.108627) can0 60C#038ca53a0220e8
(1725515586.108925) can0 60C#048ca53a0220e8
(1725515586.109184) can0 60D#007d0fa070800505
(1725515586.109679) can0 60D#017d0fa070800605
(1725515586.109997) can0 60D#027d6fa070800505
(1725515586.110027) can0 60D#037d0fa070800605
(1725515586.110270) can0 60D#047d0fa070800505
(1725515586.181487) can0 60A#05017710
(1725515586.181773) can0 60B#004fe40680200196
(1725515586.181792) can0 60B#0150840a80200184
(1725515586.182047) can0 60B#024ef3ed80200176
(1725515586.182256) can0 60B#0350fc0b8020017b
(1725515586.182720) can0 60B#044f5bec80200174
(1725515586.183282) can0 60C#008ca53a0220e8
(1725515586.183892) can0 60C#018ca53a0220e8
(1725515586.183933) can0 60C#028ca53a0220e8
(1725515586.183947) can0 60C#038ca53a0220e8
(1725515586.184229) can0 60C#048ca53a0220e8
(1725515586.184262) can0 60D#007d0fa070800505
(1725515586.184498) can0 60D#017d0fa070800605
(1725515586.184780) can0 60D#027d8fa070800505
(1725515586.185055) can0 60D#037d0fa070800705
(1725515586.186358) can0 60D#047d0fa070800505
(1725515586.251339) can0 60A#05017910
(1725515586.251593) can0 60B#004fe40680200196
(1725515586.251932) can0 60B#0150840a80200184
(1725515586.252183) can0 60B#024ef3ed80200176
(1725515586.252410) can0 60B#0350fc0b8020017b
(1725515586.252633) can0 60B#044f5bec80200174
(1725515586.252942) can0 60C#008ca53a0220e8
(1725515586.253169) can0 60C#018ca53a0220e8
(1725515586.253363) can0 60C#028ca53a0220e8
(1725515586.253566) can0 60C#038ca53a0220e8
(1725515586.253803) can0 60C#048ca53a0220e8
(1725515586.254191) can0 60D#007d0fa070800505
(1725515586.254397) can0 60D#017d0fa070800605
(1725515586.254595) can0 60D#027d8fa070800505
(1725515586.255091) can0 60D#037d0fa070800705
(1725515586.255292) can0 60D#047d0fa070800505
(1725515586.321402) can0 60A#05017b10
(1725515586.321656) can0 60B#004fe40680200196
(1725515586.321894) can0 60B#0150840a80200184
(1725515586.322100) can0 60B#024ef3ed80200176
(1725515586.322330) can0 60B#0350fc0b8020017b
(1725515586.322738) can0 60B#044f5bec80200174
(1725515586.323021) can0 60C#008ca53a0220e8
(1725515586.323276) can0 60C#018ca53a0220e8
(1725515586.323685) can0 60C#028ca53a0220e8
(1725515586.324114) can0 60C#038ca53a0220e8
(1725515586.324138) can0 60C#048ca53a0220e8
(1725515586.324604) can0 60D#007d0fa070800505
(1725515586.325050) can0 60D#017d0fa070800605
(1725515586.325089) can0 60D#027d8fa070800505
(1725515586.325381) can0 60D#037d0fa070800805
(1725515586.325408) can0 60D#047d0fa070800505
(1725515586.391427) can0 60A#05017d10
(1725515586.391728) can0 60B#004fe40680200196
(1725515586.392014) can0 60B#0150840a80200184
(1725515586.392269) can0 60B#024ef3ed80200176
(1725515586.392510) can0 60B#0350fc0b8020017b
(1725515586.392808) can0 60B#044f5bec80200174
(1725515586.393155) can0 60C#008ca53a0220e8
(1725515586.393420) can0 60C#018ca53a0220e8
(1725515586.393440) can0 60C#028ca53a0220e8
(1725515586.393719) can0 60C#038ca53a0220e8
(1725515586.394015) can0 60C#048ca53a0220e8
(1725515586.394272) can0 60D#007d0fa070800505
(1725515586.394493) can0 60D#017d0fa070800605
(1725515586.394694) can0 60D#027d8fa070800505
(1725515586.394979) can0 60D#037d0fa070800805
(1725515586.395263) can0 60D#047d0fa070800505
(1725515586.466437) can0 60A#05017f10
(1725515586.466667) can0 60B#004fe40680200196
(1725515586.466881) can0 60B#0150840a80200184
(1725515586.467085) can0 60B#024ef3ed80200175
(1725515586.467762) can0 60B#0350fc0b8020017b
(1725515586.467799) can0 60B#044f5bec80200174
(1725515586.468007) can0 60C#008ca53a0220e8
(1725515586.468210) can0 60C#018ca53a0220e8
(1725515586.468409) can0 60C#028ca33a0220e8
(1725515586.468609) can0 60C#038ca53a0220e8
(1725515586.469117) can0 60C#048ca53a0220e8
(1725515586.469334) can0 60D#007d0fa070800505
(1725515586.470346) can0 60D#017d0fa070800605
(1725515586.473065) can0 60D#027dafa070800505
(1725515586.473116) can0 60D#037d0fa070800805
(1725515586.473128) can0 60D#047d0fa070800505
(1725515586.536491) can0 60A#05018110
(1725515586.536721) can0 60B#004fe40680200196
(1725515586.537102) can0 60B#0150840a80200184
(1725515586.537319) can0 60B#024ef3ed80200175
(1725515586.538156) can0 60B#0350fc0b8020017b
(1725515586.538192) can0 60B#044f5bec80200174
(1725515586.540735) can0 60C#008ca53a0220e8
(1725515586.540785) can0 60C#018ca53a0220e8
(1725515586.540799) can0 60C#028ca33a0220e8
(1725515586.540813) can0 60C#038ca53a0220e8
(1725515586.540837) can0 60C#048ca53a0220e8
(1725515586.540876) can0 60D#007d0fa070800505
(1725515586.540890) can0 60D#017d0fa070800605
(1725515586.540902) can0 60D#027dafa070800505
(1725515586.541209) can0 60D#037d0fa070800705
(1725515586.541228) can0 60D#047d0fa070800505
(1725515586.611467) can0 60A#05018310
(1725515586.611678) can0 60B#004fe40680200196
(1725515586.612065) can0 60B#0150840a80200184
(1725515586.612334) can0 60B#024ef3ec80200175
(1725515586.612777) can0 60B#0350fc0b8020017b
(1725515586.613150) can0 60B#044f5bec80200174
(1725515586.613191) can0 60C#008ca53a0220e8
(1725515586.614013) can0 60C#018ca53a0220e8
(1725515586.614051) can0 60C#028ca33a0220e8
(1725515586.618194) can0 60C#038ca53a0220e8
(1725515586.618261) can0 60C#048ca53a0220e8
(1725515586.618277) can0 60D#007d0fa070800505
(1725515586.618290) can0 60D#017d0fa070800605
(1725515586.618302) can0 60D#027dafa070800505
(1725515586.618313) can0 60D#037d0fa070800705
(1725515586.618324) can0 60D#047d0fa070800505
(1725515586.681530) can0 60A#05018510
(1725515586.681795) can0 60B#004fe40680200196
(1725515586.682037) can0 60B#0150840a80200184
(1725515586.682311) can0 60B#024ef3ec80200174
(1725515586.682569) can0 60B#0350fc0b8020017b
(1725515586.682785) can0 60B#044f5bec80200173
(1725515586.683250) can0 60C#008ca53a0220e8
(1725515586.683706) can0 60C#018ca53a0220e8
(1725515586.683741) can0 60C#028ca53a0220c8
(1725515586.683997) can0 60C#038ca53a0220e8
(1725515586.684021) can0 60C#048ca53a0220e8
(1725515586.684230) can0 60D#007d0fa070800505
(1725515586.684634) can0 60D#017d0fa070800605
(1725515586.685151) can0 60D#027dafa070800505
(1725515586.685412) can0 60D#037d0fa070800705
