(1725509531.224747) can0 60A#00000000
(1725509531.26248) can0 60A#09008110
(1725509531.2625194) can0 60B#004ecbfd8020019f
(1725509531.26297) can0 60B#014fdbfa80200190
(1725509531.2630193) can0 60B#024f3bfb80200176
(1725509531.263433) can0 60B#03504c1d8020018a
(1725509531.263469) can0 60B#045033f9802001a6
(1725509531.263946) can0 60B#055123f480200178
(1725509531.264556) can0 60B#064ef40980200194
(1725509531.264601) can0 60B#084ecbe2802001a1
(1725509531.2646127) can0 60B#0950a4778020218c
(1725509531.2648973) can0 60C#008ca33a0220e8
(1725509531.2649193) can0 60C#018ca53a0220e8
(1725509531.2651892) can0 60C#0294e53a8220c8
(1725509531.2654634) can0 60C#038ca53a0220e8
(1725509531.2657986) can0 60C#048ca53a0220e8
(1725509531.266293) can0 60C#058ca53a8220c8
(1725509531.2663507) can0 60C#068ca53a0220e8
(1725509531.2666268) can0 60C#0895295b0220cc
(1725509531.2666435) can0 60C#099d275a8220e8
(1725509531.267091) can0 60D#007d0fa070800505
(1725509531.2674654) can0 60D#017d0fa070800505
(1725509531.267498) can0 60D#027d8fa070800505
(1725509531.267838) can0 60D#037d0fa070800505
(1725509531.268221) can0 60D#047d0fa070800505
(1725509531.2682543) can0 60D#057d6fa070800505
(1725509531.268561) can0 60D#067d0fa070800505
(1725509531.269687) can0 60D#087d2fa070800505
(1725509531.2702005) can0 60D#097ccfa070800505
(1725509531.3321378) can0 60A#09008310
(1725509531.3323686) can0 60B#004ecbfd8020019e
(1725509531.3325527) can0 60B#014fe3fa80200190
(1725509531.3327339) can0 60B#024f3bfb80200176
(1725509531.3329191) can0 60B#03504c1d8020018a
(1725509531.3336172) can0 60B#045033f9802001a6
(1725509531.3336535) can0 60B#055123f480200178
(1725509531.3338807) can0 60B#064efc0980200194
(1725509531.3342292) can0 60B#084ecbe2802001a1
(1725509531.3346198) can0 60B#0950a4778020218c
(1725509531.3348768) can0 60C#008ca33a0220e8
(1725509531.3348932) can0 60C#018ca53a0220e8
(1725509531.3352478) can0 60C#0294e53a0220e8
(1725509531.3356707) can0 60C#038ca53a0220e8
(1725509531.335708) can0 60C#048ca53a0220e8
(1725509531.3359172) can0 60C#058ca53a8220e8
(1725509531.3362744) can0 60C#068ca53a0220e8
(1725509531.3366768) can0 60C#0895295b0220cc
(1725509531.3367147) can0 60C#099d275a8220cc
(1725509531.3369226) can0 60D#007d0fa070800505
(1725509531.3372986) can0 60D#017d0fa070800505
(1725509531.3376944) can0 60D#027dafa070800505
(1725509531.337923) can0 60D#037d0fa070800505
(1725509531.3379378) can0 60D#047d0fa070800505
(1725509531.338288) can0 60D#057d6fa070800505
(1725509531.3386827) can0 60D#067d0fa070800505
(1725509531.3389125) can0 60D#087d2fa070800505
(1725509531.3389275) can0 60D#097ccfa070800505
(1725509531.4073002) can0 60A#09008510
(1725509531.4076931) can0 60B#004ecbfd8020019e
(1725509531.4077294) can0 60B#014fe3fa80200190
(1725509531.4079614) can0 60B#024f3bfb80200175
(1725509531.4079762) can0 60B#03504c1d8020018a
(1725509531.4083235) can0 60B#045033f9802001a6
(1725509531.4086723) can0 60B#055123f480200179
(1725509531.408901) can0 60B#064efc0980200194
(1725509531.4092607) can0 60B#084ecbe2802001a1
(1725509531.409652) can0 60B#0950a4768020018c
(1725509531.409697) can0 60C#0084a33a0220e8
(1725509531.4099147) can0 60C#018ca53a0220e8
(1725509531.410101) can0 60C#0294e53a0220e8
(1725509531.4103265) can0 60C#038ca53a0220e8
(1725509531.4105098) can0 60C#048ca53a0220e8
(1725509531.410874) can0 60C#058ca53a0220e8
(1725509531.4110584) can0 60C#068ca53a0220e8
(1725509531.4112506) can0 60C#089d295b0220cc
(1725509531.4115949) can0 60C#099d275a8220e8
(1725509531.411776) can0 60D#007d0fa070800505
(1725509531.4121351) can0 60D#017cefa070800505
(1725509531.4123259) can0 60D#027dcfa070800505
(1725509531.4126647) can0 60D#037d0fa070800505
(1725509531.412853) can0 60D#047d2fa070800505
(1725509531.413248) can0 60D#057d0fa070800505
(1725509531.4134266) can0 60D#067d0fa070800505
(1725509531.4136066) can0 60D#087d2fa070800505
(1725509531.4139507) can0 60D#097d4fa070800505
(1725509531.4820962) can0 60A#09008710
(1725509531.482327) can0 60B#004ecbfd8020019e
(1725509531.4825099) can0 60B#014fe3fa80200190
(1725509531.48269) can0 60B#024f3bfb80200175
(1725509531.4830382) can0 60B#03504c1d8020018b
(1725509531.4832492) can0 60B#045033f9802001a6
(1725509531.4836192) can0 60B#055123f480200179
(1725509531.4838016) can0 60B#064efc0980200194
(1725509531.4841483) can0 60B#084ecbe2802001a1
(1725509531.48433) can0 60B#0950a4768020018b
(1725509531.484673) can0 60C#0084a33a0220e8
(1725509531.4848688) can0 60C#018ca53a0220e8
(1725509531.4850736) can0 60C#0294a33a0220e8
(1725509531.4853842) can0 60C#038ca53a0220e8
(1725509531.4856305) can0 60C#048ca53a0220e8
(1725509531.485925) can0 60C#058ca53a0220e8
(1725509531.4861782) can0 60C#068ca53a0220e8
(1725509531.4864206) can0 60C#089d2b5b0220ac
(1725509531.4868128) can0 60C#0994e75a8220e8
(1725509531.4872692) can0 60D#007d0fa070800505
(1725509531.4873064) can0 60D#017ccfa070800505
(1725509531.4875395) can0 60D#027defa070800505
(1725509531.48775) can0 60D#037d0fa070800505
(1725509531.4880004) can0 60D#047d4fa070800505
(1725509531.4884474) can0 60D#057d0fa070800505
(1725509531.4888904) can0 60D#067d0fa070800505
(1725509531.4889271) can0 60D#087d2fa070800505
(1725509531.4893262) can0 60D#097d0fa070800505
(1725509531.5571413) can0 60A#09008910
(1725509531.557412) can0 60B#004ecbfd8020019e
(1725509531.5576966) can0 60B#014fe3fa80200191
(1725509531.5579476) can0 60B#024f3bfb80200174
(1725509531.5584137) can0 60B#03504c1d8020018b
(1725509531.5589387) can0 60B#04502bf9802001a6
(1725509531.5589964) can0 60B#05511bf480200179
(1725509531.559509) can0 60B#064efc0980200193
(1725509531.5595675) can0 60B#084ecbe2802001a1
(1725509531.560045) can0 60B#0950a4768020018b
(1725509531.560117) can0 60C#0084a33a0220e8
(1725509531.5601478) can0 60C#018ca53a0220e8
(1725509531.560616) can0 60C#028ca33a0220e8
(1725509531.5606782) can0 60C#038ca53a0220e8
(1725509531.5610304) can0 60C#048ca53a0220e8
(1725509531.5610726) can0 60C#058ca53a0220e8
(1725509531.561597) can0 60C#068ca53a0220e8
(1725509531.561659) can0 60C#089d6b5b0220ac
(1725509531.5620399) can0 60C#0994e74a8220e8
(1725509531.5620809) can0 60D#007d2fa070800505
(1725509531.562605) can0 60D#017cafa070800505
(1725509531.5626624) can0 60D#027e0fa070800505
(1725509531.5630438) can0 60D#037d0fa070800505
(1725509531.5630825) can0 60D#047d8fa070800505
(1725509531.5635874) can0 60D#057d2fa070800505
(1725509531.563951) can0 60D#067d0fa070800505
(1725509531.5639842) can0 60D#087d2fa070800505
(1725509531.5643475) can0 60D#097d0fa070800505
(1725509531.627421) can0 60A#09008b10
(1725509531.627954) can0 60B#004ecbfd8020019e
(1725509531.6280127) can0 60B#014fe3f980200191
(1725509531.6285207) can0 60B#024f33fb80200174
(1725509531.6285791) can0 60B#03504c1d8020018b
(1725509531.6290634) can0 60B#04502bf9802001a6
(1725509531.6291225) can0 60B#05511bf48020017a
(1725509531.629148) can0 60B#064efc0980200193
(1725509531.6296067) can0 60B#084ecbe2802001a1
(1725509531.6296656) can0 60B#0950a4768020018b
(1725509531.6300428) can0 60C#0084a33a0220e8
(1725509531.6300855) can0 60C#018ca53a0220e8
(1725509531.6306016) can0 60C#028ca33a0220e8
(1725509531.6306632) can0 60C#038ca53a0220e8
(1725509531.6310415) can0 60C#048ca53a0220e8
(1725509531.631084) can0 60C#058ca33a0220e8
(1725509531.6315992) can0 60C#068ca53a0220e8
(1725509531.6316626) can0 60C#089d6b5b0220ac
(1725509531.6319828) can0 60C#0994e74a8220e8
(1725509531.632019) can0 60D#007d2fa070800505
(1725509531.632512) can0 60D#017c8fa070800505
(1725509531.633039) can0 60D#027e0fa070800505
(1725509531.6330972) can0 60D#037d0fa070800505
(1725509531.6335633) can0 60D#047dafa070800505
(1725509531.6336212) can0 60D#057d4fa070800505
(1725509531.6339312) can0 60D#067d0fa070800505
(1725509531.633964) can0 60D#087d2fa070800505
(1725509531.6344283) can0 60D#097d2fa070800505
(1725509531.7023396) can0 60A#09008d10
(1725509531.7028313) can0 60B#004ecbfd8020019e
(1725509531.7029274) can0 60B#014fe3f980200191
(1725509531.703406) can0 60B#024f33fb80200174
(1725509531.7034693) can0 60B#03504c1d8020018b
(1725509531.7039757) can0 60B#04502bf9802001a6
(1725509531.7040348) can0 60B#05511bf48020017a
(1725509531.7045984) can0 60B#064efc0980200194
(1725509531.7046583) can0 60B#084ecbe2802001a1
(1725509531.704965) can0 60B#0950ac768020018b
(1725509531.7050097) can0 60C#0084a33a0220e8
(1725509531.7052724) can0 60C#018ca53a0220e8
(1725509531.7058735) can0 60C#028ca33a0220e8
(1725509531.7059379) can0 60C#038ca53a0220e8
(1725509531.70868) can0 60C#048ca53a0220e8
(1725509531.7087421) can0 60C#058ca33a0220e8
(1725509531.7087734) can0 60C#068ca53a0220e8
(1725509531.7088022) can0 60C#08a56b5b0220ac
(1725509531.7088313) can0 60C#0994e54a8220e8
(1725509531.7088926) can0 60D#007d2fa070800505
(1725509531.7089212) can0 60D#017c4fa070800505
(1725509531.7089462) can0 60D#027defa070800505
(1725509531.7089708) can0 60D#037d0fa070800505
(1725509531.711988) can0 60D#047defa070800505
(1725509531.7120454) can0 60D#057d4fa070800505
(1725509531.7120717) can0 60D#067d0fa070800505
(1725509531.712096) can0 60D#087d2fa070800505
(1725509531.7121208) can0 60D#097ccfa070800505
(1725509531.777216) can0 60A#09008f10
(1725509531.7774894) can0 60B#004ecbfd8020019d
(1725509531.7777336) can0 60B#014fe3f980200191
(1725509531.7779772) can0 60B#024f3bfb80200173
(1725509531.7783413) can0 60B#03504c1d8020018b
(1725509531.7786245) can0 60B#04502bf9802001a6
(1725509531.7786574) can0 60B#05511bf480200179
(1725509531.7789207) can0 60B#064efc0980200194
(1725509531.7791636) can0 60B#084ecbe2802001a1
(1725509531.7794921) can0 60B#0950ac768020018b
(1725509531.7798395) can0 60C#0084a33a0220e8
(1725509531.7802591) can0 60C#018ca53a0220e8
(1725509531.7803035) can0 60C#028ca33a0220e8
(1725509531.7805588) can0 60C#038ca53a0220e8
(1725509531.7808049) can0 60C#048ca53a0220e8
(1725509531.781086) can0 60C#058ca33a0220e8
(1725509531.781365) can0 60C#068ca53a0220e8
(1725509531.7816095) can0 60C#08a56b5b0220ac
(1725509531.7818873) can0 60C#0994e54a8220e8
(1725509531.782136) can0 60D#007d2fa070800505
(1725509531.7823737) can0 60D#017c2fa070800505
(1725509531.7826102) can0 60D#027dafa070800505
(1725509531.7828805) can0 60D#037d0fa070800505
(1725509531.7831247) can0 60D#047e0fa070800605
(1725509531.783368) can0 60D#057d6fa070800505
(1725509531.783617) can0 60D#067d0fa070800505
(1725509531.7839036) can0 60D#087d2fa070800505
(1725509531.784155) can0 60D#097ccfa070800505
(1725509531.8523486) can0 60A#0a009110
(1725509531.8528254) can0 60B#004ecbfd8020019d
(1725509531.8529336) can0 60B#014fe3f980200191
(1725509531.8534107) can0 60B#024f3bfb80200173
(1725509531.853469) can0 60B#03504c1d8020018b
(1725509531.8537793) can0 60B#04502bf9802001a6
(1725509531.8538122) can0 60B#05511bf480200179
(1725509531.8541327) can0 60B#064efc0980200194
(1725509531.854417) can0 60B#074e44038020016c
(1725509531.8546946) can0 60B#084ecbe2802001a1
(1725509531.8549743) can0 60B#0950ac768020018b
(1725509531.855019) can0 60C#0084a33a0220e8
(1725509531.855532) can0 60C#018ca53a0220e8
(1725509531.8560553) can0 60C#028ca33a0220e8
(1725509531.8561177) can0 60C#038ca53a0220e8
(1725509531.8566003) can0 60C#048ca53a0220e8
(1725509531.8566625) can0 60C#058ca33a0220e8
(1725509531.856974) can0 60C#068ca53a0220e8
(1725509531.8570116) can0 60C#07a5278d822064
(1725509531.8570504) can0 60C#08a56d5b02208c
(1725509531.8575408) can0 60C#0994e54a8220e8
(1725509531.8580587) can0 60D#007d2fa070800505
(1725509531.858117) can0 60D#017c0fa070800505
(1725509531.8585932) can0 60D#027d6fa070800505
(1725509531.858651) can0 60D#037d0fa070800505
(1725509531.858956) can0 60D#047e2fa070800605
(1725509531.8589885) can0 60D#057d8fa070800505
(1725509531.8595119) can0 60D#067d0fa070800505
(1725509531.8600054) can0 60D#077d0fa070800505
(1725509531.8600638) can0 60D#087d2fa070800505
(1725509531.8605893) can0 60D#097cefa070800505
(1725509531.9225216) can0 60A#0a009310
(1725509531.9230523) can0 60B#004ecbfd8020019d
(1725509531.923112) can0 60B#014fe3f980200191
(1725509531.9235852) can0 60B#024f3bfb80200172
(1725509531.9236434) can0 60B#03504c1d8020018b
(1725509531.9239495) can0 60B#04502bf9802001a6
(1725509531.9239824) can0 60B#05511bf480200179
(1725509531.9245162) can0 60B#064efc0980200194
(1725509531.9245753) can0 60B#074e44038020016c
(1725509531.9250302) can0 60B#084ecbe2802001a1
(1725509531.9250894) can0 60B#0950ac768020018b
(1725509531.9256146) can0 60C#0084a33a0220e8
(1725509531.9256766) can0 60C#018ca53a0220e8
(1725509531.9259882) can0 60C#028ca33a0220e8
(1725509531.926025) can0 60C#038ca53a0220e8
(1725509531.926521) can0 60C#048ca53a0220e8
(1725509531.9265873) can0 60C#058ca33a0220e8
(1725509531.9269307) can0 60C#068ca53a0220e8
(1725509531.926968) can0 60C#07a52d8d82206c
(1725509531.927452) can0 60C#08a56d5b02208c
(1725509531.9275155) can0 60C#0994e54a8220e8
(1725509531.9280276) can0 60D#007d2fa070800505
(1725509531.9280875) can0 60D#017c0fa070800505
(1725509531.9285886) can0 60D#027d4fa070800505
(1725509531.9286463) can0 60D#037d0fa070800505
(1725509531.928951) can0 60D#047e4fa070800605
(1725509531.928984) can0 60D#057d8fa070800505
(1725509531.9295118) can0 60D#067d0fa070800505
(1725509531.9300423) can0 60D#077d0fa070800505
(1725509531.9301012) can0 60D#087d2fa070800505
(1725509531.9304056) can0 60D#097ccfa070800505
(1725509531.9977467) can0 60A#0a009510
(1725509531.9978137) can0 60B#004ecbfd8020019d
(1725509531.9981668) can0 60B#014fe3f980200191
(1725509531.9981995) can0 60B#024f3bfb80200172
(1725509531.9984741) can0 60B#03504c1d8020018b
(1725509531.9985065) can0 60B#04502bf9802001a6
(1725509531.998779) can0 60B#05511bf48020017a
(1725509531.9990618) can0 60B#064efc0980200194
(1725509531.9993975) can0 60B#074e440380200169
(1725509531.999676) can0 60B#084ecbe2802001a1
(1725509531.9999542) can0 60B#0950ac778020018a
(1725509532.0004492) can0 60C#0084a33a0220e8
(1725509532.0009925) can0 60C#018ca53a0220e8
(1725509532.0010555) can0 60C#028ca33a0220e8
(1725509532.0010855) can0 60C#038ca53a0220e8
(1725509532.0016153) can0 60C#048ca53a0220e8
(1725509532.0016778) can0 60C#058ca33a0220e8
(1725509532.004351) can0 60C#068ca53a0220e8
(1725509532.0044138) can0 60C#07a56f8d822048
(1725509532.0044448) can0 60C#08adad5b02206c
(1725509532.0044737) can0 60C#0994e54a8220e8
(1725509532.004508) can0 60D#007d2fa070800505
(1725509532.0045333) can0 60D#017befa070800505
(1725509532.0045571) can0 60D#027d2fa070800505
(1725509532.0045805) can0 60D#037d2fa070800505
(1725509532.0073566) can0 60D#047e6fa070800605
(1725509532.007415) can0 60D#057d8fa070800505
(1725509532.0074406) can0 60D#067d0fa070800505
(1725509532.007464) can0 60D#077cefa070800505
(1725509532.007487) can0 60D#087d2fa070800505
(1725509532.00751) can0 60D#097cefa070800505
(1725509532.0673218) can0 60A#0a009710
(1725509532.0675983) can0 60B#004ecbfd8020019d
(1725509532.0678399) can0 60B#014febf980200191
(1725509532.0681129) can0 60B#024f3bfb80200172
(1725509532.068362) can0 60B#03504c1d8020018b
(1725509532.0686026) can0 60B#04502bf9802001a6
(1725509532.068863) can0 60B#05511bf48020017a
(1725509532.0691092) can0 60B#064efc0980200194
(1725509532.0693586) can0 60B#074e440380200169
(1725509532.0695975) can0 60B#084ecbe2802001a1
(1725509532.0698397) can0 60B#0950ac768020018a
(1725509532.0701118) can0 60C#0084a33a0220e8
(1725509532.070365) can0 60C#018ca53a0220e8
(1725509532.0706112) can0 60C#028ca33a0220e8
(1725509532.0708792) can0 60C#038ca53a0220e8
(1725509532.0711248) can0 60C#048ca53a0220e8
(1725509532.071368) can0 60C#058ca33a0220e8
(1725509532.0716162) can0 60C#068ca53a0220e8
(1725509532.0718884) can0 60C#07a5718d82204c
(1725509532.0721357) can0 60C#08adad5b02206c
(1725509532.0723784) can0 60C#0994e54a8220e8
(1725509532.072621) can0 60D#007d2fa070800505
(1725509532.072883) can0 60D#017befa070800505
(1725509532.0731206) can0 60D#027d2fa070800505
(1725509532.0733614) can0 60D#037d0fa070800505
(1725509532.0736003) can0 60D#047e6fa070800605
(1725509532.0738363) can0 60D#057d8fa070800505
(1725509532.0740976) can0 60D#067d0fa070800505
(1725509532.0743616) can0 60D#077cefa070800505
(1725509532.0747893) can0 60D#087d2fa070800505
(1725509532.075028) can0 60D#097cafa070800505
(1725509532.1423945) can0 60A#0a009910
(1725509532.1427553) can0 60B#004ecbfd8020019d
(1725509532.1430974) can0 60B#014febf980200191
(1725509532.1431425) can0 60B#024f3bfb80200172
(1725509532.1435628) can0 60B#03504c1d8020018b
(1725509532.1439345) can0 60B#04502bf9802001a6
(1725509532.1439676) can0 60B#05511bf480200179
(1725509532.144445) can0 60B#064efc0980200194
(1725509532.1449604) can0 60B#074e440380200169
(1725509532.145208) can0 60B#084ecbe28020019f
(1725509532.1456556) can0 60B#0950ac778020018a
(1725509532.1457262) can0 60C#0084a33a0220e8
(1725509532.1457582) can0 60C#018ca53a0220e8
(1725509532.1461127) can0 60C#028ca53a0220e8
(1725509532.1461577) can0 60C#038ca53a0220e8
(1725509532.146617) can0 60C#048ca53a0220e8
(1725509532.1466844) can0 60C#058ca33a0220e8
(1725509532.1470404) can0 60C#068ca53a0220e8
(1725509532.147084) can0 60C#07ad718d82202c
(1725509532.1475987) can0 60C#08adad5b022048
(1725509532.1476612) can0 60C#0994e54a8220e8
(1725509532.1479716) can0 60D#007d2fa070800505
(1725509532.148006) can0 60D#017befa070800505
(1725509532.1483498) can0 60D#027d0fa070800505
(1725509532.1486726) can0 60D#037d2fa070800505
(1725509532.1487122) can0 60D#047e6fa070800605
(1725509532.1490083) can0 60D#057d8fa070800505
(1725509532.1493628) can0 60D#067d0fa070800505
(1725509532.1498113) can0 60D#077cefa070800505
(1725509532.1503441) can0 60D#087d2fa070800505
(1725509532.1504025) can0 60D#097c8fa070800505
(1725509532.2173572) can0 60A#09009b10
(1725509532.2176638) can0 60B#004ecbfd8020019d
(1725509532.2179468) can0 60B#014febf980200191
(1725509532.2184176) can0 60B#024f3bfb80200172
(1725509532.2189293) can0 60B#03504c1d8020018b
(1725509532.2189877) can0 60B#04502bf9802001a6
(1725509532.2195203) can0 60B#05511bf48020017a
(1725509532.2195787) can0 60B#064efc0980200194
(1725509532.2200582) can0 60B#084ecbe28020019f
(1725509532.2201161) can0 60B#0950ac768020018a
(1725509532.2201571) can0 60C#0084a33a0220e8
(1725509532.2206156) can0 60C#018ca53a0220e8
(1725509532.220677) can0 60C#028ca53a0220e8
(1725509532.2209883) can0 60C#038ca53a0220e8
(1725509532.221025) can0 60C#048ca53a0220e8
(1725509532.2215254) can0 60C#058ca33a0220e8
(1725509532.2215867) can0 60C#068ca53a0220e8
(1725509532.2220714) can0 60C#08adad5b02204c
(1725509532.222137) can0 60C#0994e53a8220e8
(1725509532.2226036) can0 60D#007d2fa070800505
(1725509532.2226615) can0 60D#017bcfa070800505
(1725509532.2229643) can0 60D#027d0fa070800505
(1725509532.2229967) can0 60D#037d2fa070800505
(1725509532.223517) can0 60D#047e8fa070800605
(1725509532.2240267) can0 60D#057d8fa070800505
(1725509532.2240841) can0 60D#067d0fa070800505
(1725509532.224593) can0 60D#087d2fa070800505
(1725509532.2246501) can0 60D#097c8fa070800505
(1725509532.2929962) can0 60A#09009d10
(1725509532.2930577) can0 60B#004ecbfd8020019d
(1725509532.2958355) can0 60B#014febf980200191
(1725509532.295916) can0 60B#024f3bfb80200172
(1725509532.2959425) can0 60B#03504c1d8020018b
(1725509532.2959664) can0 60B#045023f9802001a6
(1725509532.2959895) can0 60B#05511bf48020017a
(1725509532.2960129) can0 60B#064efc0980200194
(1725509532.2960367) can0 60B#084ec3e47fe041a1
(1725509532.2960603) can0 60B#0950ac778020018a
(1725509532.2990582) can0 60C#0084a33a0220e8
(1725509532.299121) can0 60C#018ca53a0220e8
(1725509532.299151) can0 60C#028ca33a0220e8
(1725509532.2991788) can0 60C#038ca53a0220e8
(1725509532.2992158) can0 60C#048ca53a0220e8
(1725509532.2992454) can0 60C#058ca33a0220e8
(1725509532.2992735) can0 60C#068ca53a0220e8
(1725509532.299302) can0 60C#08a56b4a822068
(1725509532.2993307) can0 60C#0994e53a8220e8
(1725509532.2993596) can0 60D#007d2fa070800505
(1725509532.2993836) can0 60D#017befa070800505
(1725509532.2994072) can0 60D#027cefa070800505
(1725509532.3022249) can0 60D#037d2fa070800505
(1725509532.3022828) can0 60D#047e6fa070800605
(1725509532.3023088) can0 60D#057d8fa070800505
(1725509532.3023322) can0 60D#067d0fa070800505
(1725509532.3023605) can0 60D#087d2fa070800505
(1725509532.3023849) can0 60D#097c6fa070800505
(1725509532.3628058) can0 60A#09009f10
(1725509532.3629193) can0 60B#004ecbfd8020019d
(1725509532.3633995) can0 60B#014febf980200191
(1725509532.3634572) can0 60B#024f3bfb80200172
(1725509532.3639667) can0 60B#03504c1d8020018b
(1725509532.3640249) can0 60B#045023f9802001a6
(1725509532.364584) can0 60B#05511bf48020017a
(1725509532.3646414) can0 60B#064efc0980200194
(1725509532.3646677) can0 60B#084ec3e47fe041a1
(1725509532.364973) can0 60B#0950ac778020018a
(1725509532.3650181) can0 60C#0084a33a0220e8
(1725509532.3655195) can0 60C#018ca53a0220e8
(1725509532.366022) can0 60C#028ca33a0220e8
(1725509532.3660846) can0 60C#038ca53a0220e8
(1725509532.3665733) can0 60C#048ca53a0220e8
(1725509532.3666346) can0 60C#058ca33a0220e8
(1725509532.366665) can0 60C#068ca53a0220e8
(1725509532.366973) can0 60C#08a56b4a82204c
(1725509532.367009) can0 60C#0994e53a8220e8
(1725509532.3675113) can0 60D#007d2fa070800505
(1725509532.3680296) can0 60D#017befa070800505
(1725509532.3680882) can0 60D#027ccfa070800505
(1725509532.3685653) can0 60D#037d2fa070800505
(1725509532.3686233) can0 60D#047e6fa070800605
(1725509532.368937) can0 60D#057d8fa070800505
(1725509532.3689694) can0 60D#067d0fa070800505
(1725509532.369435) can0 60D#087d2fa070800505
(1725509532.3699687) can0 60D#097c6fa070800505
(1725509532.4373174) can0 60A#0900a110
(1725509532.437591) can0 60B#004ecbfd8020019d
(1725509532.4378366) can0 60B#014febf980200191
(1725509532.438103) can0 60B#024f3bfb80200172
(1725509532.4383585) can0 60B#03504c1d8020018b
(1725509532.4386256) can0 60B#045023f9802001a6
(1725509532.4388843) can0 60B#05511bf48020017a
(1725509532.4391246) can0 60B#064efc0980200194
(1725509532.4393625) can0 60B#084ec3e57fe041a1
(1725509532.4396021) can0 60B#0950ac768020018a
(1725509532.4398713) can0 60C#0084a33a0220e8
(1725509532.4401178) can0 60C#018ca53a0220e8
(1725509532.4403641) can0 60C#028ca33a0220e8
(1725509532.44061) can0 60C#038ca53a0220e8
(1725509532.4408786) can0 60C#048ca53a0220e8
(1725509532.4411235) can0 60C#058ca33a0220e8
(1725509532.4413664) can0 60C#068ca53a0220e8
(1725509532.4416153) can0 60C#08a56b4a82204c
(1725509532.4418848) can0 60C#0994e53a8220e8
(1725509532.4421277) can0 60D#007d2fa070800505
(1725509532.4423645) can0 60D#017befa070800505
(1725509532.4427927) can0 60D#027ccfa070800505
(1725509532.443034) can0 60D#037d2fa070800505
(1725509532.4432845) can0 60D#047e6fa070800605
(1725509532.4435203) can0 60D#057d6fa070800505
(1725509532.4437582) can0 60D#067d0fa070800505
(1725509532.443997) can0 60D#087d2fa070800505
(1725509532.4442852) can0 60D#097c8fa070800505
(1725509532.5126715) can0 60A#0900a310
(1725509532.5129807) can0 60B#004ecbfd8020019d
(1725509532.5130146) can0 60B#014febf980200191
(1725509532.5134873) can0 60B#024f3bfb80200171
(1725509532.5139973) can0 60B#03504c1d8020018b
(1725509532.514056) can0 60B#045023f9802001a6
(1725509532.5145497) can0 60B#05511bf48020017a
(1725509532.5146098) can0 60B#064efc0980200194
(1725509532.514635) can0 60B#084ec3e57fe041a1
(1725509532.5149355) can0 60B#0950ac768020018a
(1725509532.5149806) can0 60C#0084a33a0220e8
(1725509532.5152965) can0 60C#018ca53a0220e8
(1725509532.5157402) can0 60C#028ca33a0220e8
(1725509532.5161138) can0 60C#038ca53a0220e8
(1725509532.5161674) can0 60C#048ca53a0220e8
(1725509532.5165944) can0 60C#058ca33a0220e8
(1725509532.5166569) can0 60C#068ca53a0220e8
(1725509532.5169435) can0 60C#08ad6b4a82202c
(1725509532.51698) can0 60C#0994e53a8220e8
(1725509532.517482) can0 60D#007d2fa070800505
(1725509532.5179513) can0 60D#017befa070800505
(1725509532.518009) can0 60D#027cefa070800505
(1725509532.5184815) can0 60D#037d0fa070800505
(1725509532.5185392) can0 60D#047e6fa070800605
(1725509532.5189865) can0 60D#057d6fa070800505
(1725509532.5190454) can0 60D#067d0fa070800505
(1725509532.5193706) can0 60D#087d2fa070800505
(1725509532.5194025) can0 60D#097cafa070800505
(1725509532.587516) can0 60A#0800a510
(1725509532.5880485) can0 60B#004ecbfd8020019d
(1725509532.5885918) can0 60B#014febf980200191
(1725509532.588651) can0 60B#024f3bfb80200172
(1725509532.5886767) can0 60B#03504c1d8020018b
(1725509532.5889852) can0 60B#045023f9802001a6
(1725509532.5890176) can0 60B#05511bf48020017a
(1725509532.5895166) can0 60B#064efc0980200194
(1725509532.5900202) can0 60B#0950ac768020018a
(1725509532.59009) can0 60C#0084a33a0220e8
(1725509532.5905616) can0 60C#018ca53a0220e8
(1725509532.5906243) can0 60C#028ca33a0220e8
(1725509532.5909297) can0 60C#038ca53a0220e8
(1725509532.590966) can0 60C#048ca53a0220e8
(1725509532.5909958) can0 60C#058ca33a0220e8
(1725509532.5915284) can0 60C#068ca53a0220e8
(1725509532.5920584) can0 60C#0994e53a8220e8
(1725509532.5920968) can0 60D#007d2fa070800505
(1725509532.5921242) can0 60D#017befa070800505
(1725509532.592608) can0 60D#027cefa070800505
(1725509532.5929523) can0 60D#037d0fa070800505
(1725509532.5929866) can0 60D#047e4fa070800605
(1725509532.5935123) can0 60D#057d6fa070800505
(1725509532.5935702) can0 60D#067d0fa070800505
(1725509532.5940435) can0 60D#097c8fa070800505
(1725509532.6627927) can0 60A#0800a710
(1725509532.6628954) can0 60B#004ecbfd8020019d
(1725509532.6631768) can0 60B#014febf980200191
(1725509532.663209) can0 60B#024f3bfb80200172
(1725509532.6634836) can0 60B#03504c1d8020018b
(1725509532.663765) can0 60B#045023f9802001a6
(1725509532.6640446) can0 60B#05511bf48020017a
(1725509532.6643982) can0 60B#064efc0980200194
(1725509532.6646748) can0 60B#0950ac778020018a
(1725509532.6649642) can0 60C#0084a33a0220e8
(1725509532.6650004) can0 60C#018ca53a0220e8
(1725509532.6655235) can0 60C#028ca33a0220e8
(1725509532.6660657) can0 60C#038ca53a0220e8
(1725509532.6661277) can0 60C#048ca53a0220e8
(1725509532.666595) can0 60C#058ca33a0220e8
(1725509532.6666572) can0 60C#068ca53a0220e8
(1725509532.6669755) can0 60C#0994e53a8220e8
(1725509532.6670117) can0 60D#007d2fa070800505
(1725509532.6675138) can0 60D#017c0fa070800505
(1725509532.667572) can0 60D#027ccfa070800505
(1725509532.6680768) can0 60D#037d0fa070800505
(1725509532.6681354) can0 60D#047e4fa070800605
(1725509532.6686006) can0 60D#057d4fa070800505
(1725509532.6686614) can0 60D#067d0fa070800505
(1725509532.6689663) can0 60D#097ccfa070800505
(1725509532.732751) can0 60A#0800a910
(1725509532.7331696) can0 60B#004ecbfd8020019d
(1725509532.733221) can0 60B#014febf980200191
(1725509532.7337272) can0 60B#024f3bfb80200172
(1725509532.7337854) can0 60B#03504c1d8020018b
(1725509532.7341816) can0 60B#045023f9802001a6
(1725509532.7342377) can0 60B#05511bf58020017a
(1725509532.7346985) can0 60B#064efc0980200194
(1725509532.734756) can0 60B#0950ac778020018a
(1725509532.735086) can0 60C#0084a33a0220e8
(1725509532.7351232) can0 60C#018ca53a0220e8
(1725509532.735405) can0 60C#028ca33a0220e8
(1725509532.735687) can0 60C#038ca53a0220e8
(1725509532.7359934) can0 60C#048ca53a0220e8
(1725509532.7360299) can0 60C#058ca33a0220e8
(1725509532.7365305) can0 60C#068ca53a0220e8
(1725509532.7370677) can0 60C#0994e53a8220e8
(1725509532.7371287) can0 60D#007d2fa070800505
(1725509532.737595) can0 60D#017c0fa070800505
(1725509532.7376528) can0 60D#027ccfa070800505
(1725509532.7379572) can0 60D#037d0fa070800505
(1725509532.7379897) can0 60D#047e2fa070800605
(1725509532.7385185) can0 60D#057d4fa070800505
(1725509532.7390382) can0 60D#067d0fa070800505
(1725509532.7390964) can0 60D#097ccfa070800505
(1725509532.8076727) can0 60A#0800ab10
(1725509532.8079662) can0 60B#004ecbfd8020019d
(1725509532.808) can0 60B#014febf980200191
(1725509532.8085105) can0 60B#024f3bfb80200172
(1725509532.8090422) can0 60B#03504c1c8020018b
(1725509532.809108) can0 60B#045023f9802001a6
(1725509532.8095727) can0 60B#05511bf58020017a
(1725509532.8096316) can0 60B#064efc0980200194
(1725509532.8099375) can0 60B#0950ac778020018a
(1725509532.809983) can0 60C#0084a33a0220e8
(1725509532.8105211) can0 60C#018ca53a0220e8
(1725509532.8105834) can0 60C#028ca33a0220e8
(1725509532.810923) can0 60C#038ca53a0220e8
(1725509532.8109593) can0 60C#048ca53a0220e8
(1725509532.8114452) can0 60C#058ca33a0220e8
(1725509532.8115065) can0 60C#068ca53a0220e8
(1725509532.8120203) can0 60C#0994e53a8220e8
(1725509532.812087) can0 60D#007d2fa070800505
(1725509532.8125913) can0 60D#017c0fa070800505
(1725509532.8126493) can0 60D#027cefa070800505
(1725509532.8129566) can0 60D#037d0fa070800505
(1725509532.8129897) can0 60D#047e2fa070800605
(1725509532.8135283) can0 60D#057d4fa070800505
(1725509532.8140614) can0 60D#067d0fa070800505
(1725509532.8141205) can0 60D#097cefa070800505
(1725509532.882511) can0 60A#0800ad10
(1725509532.8827834) can0 60B#004ecbfd8020019d
(1725509532.8830268) can0 60B#014febf980200191
(1725509532.883283) can0 60B#024f3bfb80200171
(1725509532.8835223) can0 60B#03504c1c8020018c
(1725509532.8837612) can0 60B#045023f9802001a6
(1725509532.8841987) can0 60B#05511bf58020017a
(1725509532.8844395) can0 60B#064efc0980200194
(1725509532.8846848) can0 60B#0950ac768020018a
(1725509532.8849373) can0 60C#0084a33a0220e8
(1725509532.8854005) can0 60C#018ca53a0220e8
(1725509532.8858814) can0 60C#028ca53a0220e8
(1725509532.8859458) can0 60C#038ca53a0220e8
(1725509532.8863745) can0 60C#048ca53a0220e8
(1725509532.8864374) can0 60C#058ca33a0220e8
(1725509532.8868878) can0 60C#068ca53a0220e8
(1725509532.8869517) can0 60C#0994e53a8220e8
(1725509532.8874838) can0 60D#007d2fa070800505
(1725509532.8875422) can0 60D#017c2fa070800505
(1725509532.88799) can0 60D#027cefa070800505
(1725509532.888048) can0 60D#037d0fa070800505
(1725509532.888561) can0 60D#047e2fa070800605
(1725509532.8886187) can0 60D#057d4fa070800505
(1725509532.8889232) can0 60D#067d0fa070800505
(1725509532.888961) can0 60D#097cefa070800505
(1725509532.9575086) can0 60A#0800af10
(1725509532.9577827) can0 60B#004ecbfd8020019d
(1725509532.958026) can0 60B#014febf980200191
(1725509532.9582825) can0 60B#024f3bfb80200172
(1725509532.9585207) can0 60B#03504c1c8020018c
(1725509532.9587586) can0 60B#045023f9802001a6
(1725509532.958997) can0 60B#05511bf58020017a
(1725509532.9592817) can0 60B#064efc0980200194
(1725509532.9595199) can0 60B#0950ac768020018a
(1725509532.9597676) can0 60C#0084a33a0220e8
(1725509532.9601514) can0 60C#018ca53a0220e8
(1725509532.960596) can0 60C#028ca53a0220e8
(1725509532.9609375) can0 60C#038ca53a0220e8
(1725509532.960976) can0 60C#048ca53a0220e8
(1725509532.9614935) can0 60C#058ca33a0220e8
(1725509532.9619894) can0 60C#068ca53a0220e8
(1725509532.9620523) can0 60C#0994e53a8220e8
(1725509532.9620826) can0 60D#007d2fa070800505
(1725509532.9625518) can0 60D#017c2fa070800505
(1725509532.9626157) can0 60D#027cefa070800505
(1725509532.962928) can0 60D#037d0fa070800505
(1725509532.962961) can0 60D#047e0fa070800605
(1725509532.963197) can0 60D#057d2fa070800505
(1725509532.9634345) can0 60D#067d0fa070800505
(1725509532.9636707) can0 60D#097cefa070800505
(1725509533.0278213) can0 60A#0800b110
(1725509533.0283582) can0 60B#004ecbfd8020019d
(1725509533.0284164) can0 60B#014febf980200191
(1725509533.0289218) can0 60B#024f3bfb80200173
(1725509533.0289805) can0 60B#03504c1c8020018c
(1725509533.0295079) can0 60B#045023f9802001a6
(1725509533.0295663) can0 60B#05511bf58020017a
(1725509533.0300882) can0 60B#064efc0980200194
(1725509533.0301476) can0 60B#0950ac768020018a
(1725509533.030186) can0 60C#0084a33a0220e8
(1725509533.030497) can0 60C#018ca53a0220e8
(1725509533.0305328) can0 60C#028ca53a0220e8
(1725509533.030816) can0 60C#038ca53a0220e8
(1725509533.030881) can0 60C#048ca53a0220e8
(1725509533.0311706) can0 60C#058ca33a0220e8
(1725509533.0314531) can0 60C#068ca53a0220e8
(1725509533.0319903) can0 60C#0994a53a8220e8
(1725509533.0323293) can0 60D#007d2fa070800505
(1725509533.0323622) can0 60D#017c2fa070800505
(1725509533.032637) can0 60D#027cefa070800505
(1725509533.032668) can0 60D#037d0fa070800505
(1725509533.0329483) can0 60D#047e0fa070800605
(1725509533.0334167) can0 60D#057d2fa070800505
(1725509533.0339494) can0 60D#067d0fa070800505
(1725509533.0340087) can0 60D#097d2fa070800505
(1725509533.102527) can0 60A#0800b310
(1725509533.1028004) can0 60B#004ecbfd8020019d
(1725509533.1059763) can0 60B#014febf980200191
(1725509533.1060119) can0 60B#024f3bfb80200173
(1725509533.1060376) can0 60B#03504c1c8020018c
(1725509533.1060615) can0 60B#045023f9802001a6
(1725509533.106085) can0 60B#05511bf58020017a
(1725509533.1061087) can0 60B#064efc0980200194
(1725509533.1061325) can0 60B#0950ac768020018a
(1725509533.1061647) can0 60C#0084a33a0220e8
(1725509533.1061952) can0 60C#018ca53a0220e8
(1725509533.1091163) can0 60C#028ca33a0220e8
(1725509533.109179) can0 60C#038ca53a0220e8
(1725509533.1092155) can0 60C#048ca53a0220e8
(1725509533.1092443) can0 60C#058ca33a0220e8
(1725509533.1092727) can0 60C#068ca53a0220e8
(1725509533.1093013) can0 60C#0994a53a8220e8
(1725509533.109331) can0 60D#007d2fa070800505
(1725509533.109355) can0 60D#017c4fa070800505
(1725509533.109565) can0 60D#027d0fa070800505
(1725509533.1095965) can0 60D#037d0fa070800505
(1725509533.109623) can0 60D#047e0fa070800605
(1725509533.112268) can0 60D#057d2fa070800505
(1725509533.1123261) can0 60D#067d0fa070800505
(1725509533.112352) can0 60D#097d4fa070800505
(1725509533.1779923) can0 60A#0800b510
(1725509533.1785846) can0 60B#004ecbfd8020019d
(1725509533.178645) can0 60B#014febf980200191
(1725509533.1786716) can0 60B#024f3bfb80200173
(1725509533.1790323) can0 60B#03504c1c8020018c
(1725509533.1790707) can0 60B#045023f9802001a6
(1725509533.179587) can0 60B#05511bf58020017a
(1725509533.1796448) can0 60B#064efc0980200194
(1725509533.1800213) can0 60B#0950ac768020018a
(1725509533.1800723) can0 60C#0084a33a0220e8
(1725509533.1805959) can0 60C#018ca53a0220e8
(1725509533.1806567) can0 60C#028ca33a0220e8
(1725509533.1810281) can0 60C#038ca53a0220e8
(1725509533.18107) can0 60C#048ca53a0220e8
(1725509533.1815999) can0 60C#058ca33a0220e8
(1725509533.1816607) can0 60C#068ca53a0220e8
(1725509533.1820304) can0 60C#0994a53a8220e8
(1725509533.1820712) can0 60D#007d2fa070800505
(1725509533.1825902) can0 60D#017c4fa070800505
(1725509533.1826475) can0 60D#027d2fa070800505
(1725509533.1829512) can0 60D#037d0fa070800505
(1725509533.1829839) can0 60D#047defa070800605
(1725509533.1835198) can0 60D#057d2fa070800505
(1725509533.1840353) can0 60D#067d0fa070800505
(1725509533.1840935) can0 60D#097d2fa070800505
(1725509533.2527) can0 60A#0800b710
(1725509533.2529755) can0 60B#004ecbfd8020019d
(1725509533.2534792) can0 60B#014ff3f980200191
(1725509533.253977) can0 60B#024f3bfb80200173
(1725509533.254035) can0 60B#03504c1c8020018c
(1725509533.254555) can0 60B#045023f9802001a6
(1725509533.2546124) can0 60B#05511bf580200179
(1725509533.2546387) can0 60B#064efc0980200194
(1725509533.2549326) can0 60B#0950ac768020018a
(1725509533.2549796) can0 60C#0084a33a0220e8
(1725509533.2554898) can0 60C#018ca53a0220e8
(1725509533.2559729) can0 60C#028ca33a0220e8
(1725509533.2560346) can0 60C#038ca53a0220e8
(1725509533.256565) can0 60C#048ca53a0220e8
(1725509533.256626) can0 60C#058ca33a0220e8
(1725509533.2566557) can0 60C#068ca53a0220e8
(1725509533.2569666) can0 60C#0994a53a8220e8
(1725509533.2570038) can0 60D#007d2fa070800505
(1725509533.2574754) can0 60D#017c4fa070800505
(1725509533.2579281) can0 60D#027d2fa070800505
(1725509533.2579865) can0 60D#037d0fa070800505
(1725509533.258475) can0 60D#047defa070800605
(1725509533.2585325) can0 60D#057d2fa070800505
(1725509533.2589533) can0 60D#067d0fa070800505
(1725509533.259011) can0 60D#097d2fa070800505
(1725509533.3276699) can0 60A#0800b910
(1725509533.3279822) can0 60B#004ecbfd8020019d
(1725509533.3285077) can0 60B#014ff3f980200191
(1725509533.3290365) can0 60B#024f3bfb80200173
(1725509533.3290958) can0 60B#03504c1c8020018b
(1725509533.3295603) can0 60B#045023f9802001a6
(1725509533.3296187) can0 60B#05511bf580200179
(1725509533.3296444) can0 60B#064efc0980200194
(1725509533.329957) can0 60B#0950ac768020018a
(1725509533.3300016) can0 60C#0084a33a0220e8
(1725509533.3305192) can0 60C#018ca53a0220e8
(1725509533.3310556) can0 60C#028ca33a0220e8
(1725509533.3311176) can0 60C#038ca53a0220e8
(1725509533.3315868) can0 60C#048ca53a0220e8
(1725509533.331649) can0 60C#058ca33a0220e8
(1725509533.3316798) can0 60C#068ca53a0220e8
(1725509533.33199) can0 60C#0994a53a8220e8
(1725509533.3320253) can0 60D#007d2fa070800505
(1725509533.332512) can0 60D#017c4fa070800505
(1725509533.3330405) can0 60D#027d4fa070800505
(1725509533.3331041) can0 60D#037d0fa070800505
(1725509533.333568) can0 60D#047defa070800605
(1725509533.333626) can0 60D#057d2fa070800505
(1725509533.3339396) can0 60D#067d0fa070800505
(1725509533.333972) can0 60D#097d2fa070800505
(1725509533.4029825) can0 60A#0800bb10
(1725509533.4035296) can0 60B#004ecbfd8020019d
(1725509533.403588) can0 60B#014ff3f980200191
(1725509533.4039176) can0 60B#024f3bfb80200173
(1725509533.4039495) can0 60B#03504c1c8020018b
(1725509533.4039748) can0 60B#04501bf9802001a6
(1725509533.4043245) can0 60B#05511bf58020017a
(1725509533.4047894) can0 60B#064efc0980200194
(1725509533.4053204) can0 60B#0950ac768020018b
(1725509533.4053917) can0 60C#0084a33a0220e8
(1725509533.405923) can0 60C#018ca53a0220e8
(1725509533.4059906) can0 60C#028ca33a0220e8
(1725509533.4060223) can0 60C#038ca53a0220e8
(1725509533.4063373) can0 60C#048ca53a0220e8
(1725509533.4063733) can0 60C#058ca33a0220e8
(1725509533.4066527) can0 60C#068ca53a0220e8
(1725509533.406963) can0 60C#0994a53a8220e8
(1725509533.4069986) can0 60D#007d2fa070800505
(1725509533.4075148) can0 60D#017c6fa070800505
(1725509533.4080324) can0 60D#027d4fa070800505
(1725509533.4080908) can0 60D#037d0fa070800505
(1725509533.4086041) can0 60D#047dcfa070800605
(1725509533.4086626) can0 60D#057d4fa070800505
(1725509533.4089656) can0 60D#067d0fa070800505
(1725509533.4089983) can0 60D#097d2fa070800505
(1725509533.4729292) can0 60A#0800bd10
(1725509533.4735165) can0 60B#004ecbfd8020019d
(1725509533.4739032) can0 60B#014ff3f980200191
(1725509533.4739418) can0 60B#024f3bfb80200173
(1725509533.4742188) can0 60B#03504c1c8020018c
(1725509533.4745035) can0 60B#04501bf9802001a6
(1725509533.4750113) can0 60B#05511bf58020017a
(1725509533.4754047) can0 60B#064efc0980200193
(1725509533.4754374) can0 60B#0950ac778020018b
(1725509533.4754753) can0 60C#0084a33a0220e8
(1725509533.4757574) can0 60C#018ca53a0220e8
(1725509533.4760416) can0 60C#028ca33a0220e8
(1725509533.4763248) can0 60C#038ca53a0220e8
(1725509533.47636) can0 60C#048ca53a0220e8
(1725509533.4766393) can0 60C#058ca33a0220e8
(1725509533.4769258) can0 60C#068ca53a0220e8
(1725509533.4774098) can0 60C#0994a53a8220e8
(1725509533.477952) can0 60D#007d2fa070800505
(1725509533.4780107) can0 60D#017c6fa070800505
(1725509533.4785173) can0 60D#027d4fa070800505
(1725509533.4785745) can0 60D#037d0fa070800505
(1725509533.4790592) can0 60D#047dcfa070800605
(1725509533.4791234) can0 60D#057d4fa070800505
(1725509533.479581) can0 60D#067d0fa070800505
(1725509533.4796388) can0 60D#097d2fa070800505
(1725509533.5478868) can0 60A#0800bf10
(1725509533.548198) can0 60B#004ecbfd8020019d
(1725509533.5482306) can0 60B#014ff3f980200191
(1725509533.5485034) can0 60B#024f3bfb80200172
(1725509533.5487888) can0 60B#03504c1c8020018b
(1725509533.5490694) can0 60B#04501bf9802001a7
(1725509533.5493968) can0 60B#05511bf58020017a
(1725509533.5496736) can0 60B#064efc0980200193
(1725509533.5499527) can0 60B#0950ac778020018b
(1725509533.5504375) can0 60C#0084a33a0220e8
(1725509533.5505) can0 60C#018ca53a0220e8
(1725509533.5510168) can0 60C#028ca33a0220e8
(1725509533.5510798) can0 60C#038ca53a0220e8
(1725509533.551597) can0 60C#048ca53a0220e8
(1725509533.551659) can0 60C#058ca33a0220e8
(1725509533.5519981) can0 60C#068ca53a0220e8
(1725509533.5520358) can0 60C#098ca53a8220e8
(1725509533.5520706) can0 60D#007d2fa070800505
(1725509533.552591) can0 60D#017c6fa070800505
(1725509533.5529308) can0 60D#027d4fa070800505
(1725509533.5529635) can0 60D#037d0fa070800505
(1725509533.5534348) can0 60D#047dcfa070800605
(1725509533.5539458) can0 60D#057d4fa070800505
(1725509533.5540047) can0 60D#067d0fa070800505
(1725509533.5545182) can0 60D#097d2fa070800505
(1725509533.6180308) can0 60A#0800c110
(1725509533.618081) can0 60B#004ecbfd8020019d
(1725509533.6183777) can0 60B#014ff3f980200191
(1725509533.6188006) can0 60B#024f3bfb80200172
(1725509533.6193168) can0 60B#03504c1d8020018b
(1725509533.619365) can0 60B#04501bf9802001a7
(1725509533.619805) can0 60B#05511bf58020017a
(1725509533.6198933) can0 60B#064efc0980200193
(1725509533.620169) can0 60B#0950ac778020018b
(1725509533.6202028) can0 60C#0084a33a0220e8
(1725509533.620451) can0 60C#018ca53a0220e8
(1725509533.6209204) can0 60C#028ca33a0220e8
(1725509533.6212237) can0 60C#038ca53a0220e8
(1725509533.6212506) can0 60C#048ca53a0220e8
(1725509533.621272) can0 60C#058ca33a0220e8
(1725509533.6215167) can0 60C#068ca53a0220e8
(1725509533.6217694) can0 60C#0994a53a8220e8
(1725509533.6220233) can0 60D#007d2fa070800505
(1725509533.6223044) can0 60D#017c6fa070800505
(1725509533.6225483) can0 60D#027d4fa070800505
(1725509533.6227896) can0 60D#037d0fa070800505
(1725509533.6230333) can0 60D#047dcfa070800605
(1725509533.623444) can0 60D#057d4fa070800505
(1725509533.6236894) can0 60D#067d0fa070800505
(1725509533.623934) can0 60D#097d2fa070800505
(1725509533.692963) can0 60A#0800c310
(1725509533.6933239) can0 60B#004ecbfd8020019d
(1725509533.693357) can0 60B#014ff3f980200191
(1725509533.6938226) can0 60B#024f3bfb80200172
(1725509533.6943648) can0 60B#03504c1c8020018b
(1725509533.6944246) can0 60B#04501bf9802001a7
(1725509533.694734) can0 60B#05511bf58020017a
(1725509533.6947663) can0 60B#064efc0980200194
(1725509533.695043) can0 60B#0950ac778020018a
(1725509533.695088) can0 60C#0084a33a0220e8
(1725509533.6956) can0 60C#018ca53a0220e8
(1725509533.6959422) can0 60C#028ca33a0220e8
(1725509533.6959798) can0 60C#038ca53a0220e8
(1725509533.6965213) can0 60C#048ca53a0220e8
(1725509533.6970613) can0 60C#058ca33a0220e8
(1725509533.6971233) can0 60C#068ca53a0220e8
(1725509533.6971538) can0 60C#098ca53a8220e8
(1725509533.6976156) can0 60D#007d4fa070800505
(1725509533.6976738) can0 60D#017c6fa070800505
(1725509533.6979795) can0 60D#027d4fa070800505
(1725509533.6980119) can0 60D#037d0fa070800505
(1725509533.6985133) can0 60D#047dafa070800605
(1725509533.69904) can0 60D#057d4fa070800505
(1725509533.6990979) can0 60D#067d0fa070800505
(1725509533.699606) can0 60D#097d2fa070800505
(1725509533.7677007) can0 60A#0800c510
(1725509533.7679765) can0 60B#004ecbfd8020019d
(1725509533.7684813) can0 60B#014ff3f980200191
(1725509533.7689545) can0 60B#024f3bfb80200172
(1725509533.7690153) can0 60B#03504c1d8020018c
(1725509533.7694576) can0 60B#04501bf9802001a7
(1725509533.7695155) can0 60B#05511bf58020017a
(1725509533.7699835) can0 60B#064efc0980200194
(1725509533.770042) can0 60B#0950ac778020018a
(1725509533.7705705) can0 60C#0084a33a0220e8
(1725509533.7706325) can0 60C#018ca53a0220e8
(1725509533.770933) can0 60C#028ca33a0220e8
(1725509533.7709715) can0 60C#038ca53a0220e8
(1725509533.7714288) can0 60C#048ca53a0220e8
(1725509533.771998) can0 60C#058ca33a0220e8
(1725509533.7720604) can0 60C#068ca53a0220e8
(1725509533.7720923) can0 60C#098ca53a8220e8
(1725509533.7723722) can0 60D#007d6fa070800505
(1725509533.7724044) can0 60D#017c6fa070800505
(1725509533.7726402) can0 60D#027d4fa070800505
(1725509533.772903) can0 60D#037d0fa070800505
(1725509533.7731428) can0 60D#047dafa070800605
(1725509533.7733831) can0 60D#057d4fa070800505
(1725509533.77362) can0 60D#067d0fa070800505
(1725509533.773885) can0 60D#097d2fa070800505
(1725509533.8429677) can0 60A#0800c710
(1725509533.843523) can0 60B#004ec3fd8020019d
(1725509533.8435805) can0 60B#014ff3f980200191
(1725509533.844065) can0 60B#024f3bfb80200172
(1725509533.844124) can0 60B#03504c1d8020018c
(1725509533.8445952) can0 60B#04501bf9802001a7
(1725509533.8446536) can0 60B#05511bf58020017a
(1725509533.8449595) can0 60B#064efc0980200194
(1725509533.8449922) can0 60B#0950ac778020018a
(1725509533.8455212) can0 60C#0084a33a0220e8
(1725509533.8460286) can0 60C#018ca53a0220e8
(1725509533.8460991) can0 60C#028ca33a0220e8
(1725509533.84613) can0 60C#038ca53a0220e8
(1725509533.8466084) can0 60C#048ca53a0220e8
(1725509533.8466818) can0 60C#058ca33a0220e8
(1725509533.8469975) can0 60C#068ca53a0220e8
(1725509533.8470347) can0 60C#098ca53a8220e8
(1725509533.847516) can0 60D#007dafa070800505
(1725509533.8480453) can0 60D#017c8fa070800505
(1725509533.8481042) can0 60D#027d2fa070800505
(1725509533.8486218) can0 60D#037d0fa070800505
(1725509533.8486803) can0 60D#047dafa070800605
(1725509533.8487055) can0 60D#057d4fa070800505
(1725509533.8491073) can0 60D#067d0fa070800505
(1725509533.8491402) can0 60D#097d2fa070800505
(1725509533.913266) can0 60A#0800c910
(1725509533.9133415) can0 60B#004ec3fd8020019d
(1725509533.91362) can0 60B#014ff3f980200191
(1725509533.9136517) can0 60B#024f3bfb80200172
(1725509533.913926) can0 60B#03504c1d8020018c
(1725509533.9143944) can0 60B#04501bf9802001a7
(1725509533.9147356) can0 60B#05511bf58020017a
(1725509533.9147682) can0 60B#064efc0980200193
(1725509533.9150438) can0 60B#0950ac768020018a
(1725509533.915334) can0 60C#0084a33a0220e8
(1725509533.9156165) can0 60C#018ca53a0220e8
(1725509533.9156528) can0 60C#028ca33a0220e8
(1725509533.915937) can0 60C#038ca53a0220e8
(1725509533.9164152) can0 60C#048ca53a0220e8
(1725509533.9169638) can0 60C#058ca33a0220e8
(1725509533.9170258) can0 60C#068ca53a0220e8
(1725509533.917599) can0 60C#098ca53a8220e8
(1725509533.917659) can0 60D#007dcfa070800505
(1725509533.9176853) can0 60D#017c8fa070800505
(1725509533.9179888) can0 60D#027d2fa070800505
(1725509533.918022) can0 60D#037d0fa070800505
(1725509533.9185193) can0 60D#047dafa070800605
(1725509533.9190493) can0 60D#057d4fa070800505
(1725509533.919108) can0 60D#067d0fa070800505
(1725509533.9195783) can0 60D#097d2fa070800505
(1725509533.9879143) can0 60A#0800cb10
(1725509533.9881878) can0 60B#004ec3fd8020019d
(1725509533.9884326) can0 60B#014ff3f980200191
(1725509533.9886723) can0 60B#024f3bfb80200172
(1725509533.98894) can0 60B#03504c1d8020018c
(1725509533.989187) can0 60B#04501bf9802001a7
(1725509533.9894285) can0 60B#05511bf480200177
(1725509533.989668) can0 60B#064efc0980200194
(1725509533.98992) can0 60B#0950ac768020018a
(1725509533.9901662) can0 60C#0084a33a0220e8
(1725509533.9904137) can0 60C#018ca53a0220e8
(1725509533.9906604) can0 60C#028ca33a0220e8
(1725509533.9909194) can0 60C#038ca53a0220e8
(1725509533.9911637) can0 60C#048ca53a0220e8
(1725509533.9914122) can0 60C#058ca53a0220c8
(1725509533.9916608) can0 60C#068ca53a0220e8
(1725509533.9919212) can0 60C#098ca53a8220e8
(1725509533.9921627) can0 60D#007defa070800505
(1725509533.9923997) can0 60D#017c8fa070800505
(1725509533.9926383) can0 60D#027d2fa070800505
(1725509533.9928977) can0 60D#037d0fa070800505
(1725509533.9933596) can0 60D#047dafa070800605
(1725509533.9935992) can0 60D#057d4fa070800505
(1725509533.993836) can0 60D#067d0fa070800505
(1725509533.9940996) can0 60D#097d0fa070800505
(1725509534.0631845) can0 60A#0800cd10
(1725509534.0632262) can0 60B#004ec3fd8020019d
(1725509534.0636315) can0 60B#014ff3f980200191
(1725509534.0639858) can0 60B#024f3bfb80200172
(1725509534.0640104) can0 60B#03504c1d8020018c
(1725509534.0644484) can0 60B#04501bf9802001a7
(1725509534.064899) can0 60B#05511bf480200177
(1725509534.0649643) can0 60B#064efc0980200194
(1725509534.0653677) can0 60B#0950ac778020018a
(1725509534.0654142) can0 60C#0084a33a0220e8
(1725509534.0658314) can0 60C#018ca53a0220e8
(1725509534.0658915) can0 60C#028ca33a0220e8
(1725509534.0663006) can0 60C#038ca53a0220e8
(1725509534.0663402) can0 60C#048ca53a0220e8
(1725509534.0667486) can0 60C#058ca53a0220e8
(1725509534.0671923) can0 60C#068ca53a0220e8
(1725509534.0672324) can0 60C#098ca53a8220e8
(1725509534.0676327) can0 60D#007defa070800505
(1725509534.0676703) can0 60D#017c8fa070800505
(1725509534.0679443) can0 60D#027d2fa070800505
(1725509534.067963) can0 60D#037d0fa070800505
(1725509534.068175) can0 60D#047dafa070800605
(1725509534.0689323) can0 60D#057d2fa070800505
(1725509534.0689697) can0 60D#067d0fa070800505
(1725509534.0693753) can0 60D#097d2fa070800505
(1725509534.1382155) can0 60A#0800cf10
(1725509534.138254) can0 60B#004ec3fd8020019d
(1725509534.1386209) can0 60B#014ff3f980200191
(1725509534.1388633) can0 60B#024f3bfb80200172
(1725509534.1388779) can0 60B#03504c1d8020018c
(1725509534.139223) can0 60B#04501bf9802001a7
(1725509534.1396155) can0 60B#05511bf580200178
(1725509534.1398573) can0 60B#064efc0980200194
(1725509534.1398726) can0 60B#0950ac768020018a
(1725509534.1402547) can0 60C#0084a33a0220e8
(1725509534.1404378) can0 60C#018ca53a0220e8
(1725509534.140622) can0 60C#028ca33a0220e8
(1725509534.140966) can0 60C#038ca53a0220e8
(1725509534.141151) can0 60C#048ca53a0220e8
(1725509534.1413352) can0 60C#058ca53a0220e8
(1725509534.1416771) can0 60C#068ca53a0220e8
(1725509534.141869) can0 60C#098ca53a8220e8
(1725509534.1422474) can0 60D#007defa070800505
(1725509534.1424274) can0 60D#017c8fa070800505
(1725509534.1426091) can0 60D#027d2fa070800505
(1725509534.1429489) can0 60D#037d0fa070800505
(1725509534.1433241) can0 60D#047d8fa070800605
(1725509534.143673) can0 60D#057d2fa070800505
(1725509534.1439083) can0 60D#067d0fa070800505
(1725509534.144257) can0 60D#097d4fa070800505
(1725509534.207969) can0 60A#0800d110
(1725509534.2084906) can0 60B#004ec3fd8020019d
(1725509534.2085268) can0 60B#014ff3f980200191
(1725509534.2089906) can0 60B#024f3bfb80200172
(1725509534.2094917) can0 60B#03504c1d8020018c
(1725509534.209542) can0 60B#04501bf9802001a7
(1725509534.2100358) can0 60B#05511bf480200178
(1725509534.2101336) can0 60B#064efc0980200194
(1725509534.2104669) can0 60B#0950ac768020018a
(1725509534.2105098) can0 60C#0084a33a0220e8
(1725509534.210536) can0 60C#018ca53a0220e8
(1725509534.2110639) can0 60C#0284a33a0220e8
(1725509534.2139301) can0 60C#038ca53a0220e8
(1725509534.2139845) can0 60C#048ca53a0220e8
(1725509534.2140098) can0 60C#058ca53a0220e8
(1725509534.214033) can0 60C#068ca53a0220e8
(1725509534.2140558) can0 60C#098ca53a8220e8
(1725509534.2140791) can0 60D#007dcfa070800505
(1725509534.214099) can0 60D#017c8fa070800505
(1725509534.2141175) can0 60D#027d2fa070800505
(1725509534.2170103) can0 60D#037d0fa070800505
(1725509534.2170596) can0 60D#047d8fa070800605
(1725509534.21708) can0 60D#057d2fa070800505
(1725509534.2170997) can0 60D#067d0fa070800505
(1725509534.2171187) can0 60D#097d2fa070800505
(1725509534.2835128) can0 60A#0800d310
(1725509534.2835743) can0 60B#004ec3fd8020019d
(1725509534.284053) can0 60B#014ff3f980200191
(1725509534.2841115) can0 60B#024f3bfb80200173
(1725509534.2846274) can0 60B#03504c1d8020018c
(1725509534.2846856) can0 60B#04501bf9802001a6
(1725509534.2847111) can0 60B#05511bf480200178
(1725509534.2849982) can0 60B#064efc0980200194
(1725509534.2850335) can0 60B#0950ac768020018a
(1725509534.285518) can0 60C#0084a33a0220e8
(1725509534.2859704) can0 60C#018ca53a0220e8
(1725509534.2860289) can0 60C#0284a33a0220e8
(1725509534.2865922) can0 60C#038ca53a0220e8
(1725509534.2866542) can0 60C#048ca53a0220e8
(1725509534.2870383) can0 60C#058ca33a0220e8
(1725509534.287081) can0 60C#068ca53a0220e8
(1725509534.2871141) can0 60C#098ca53a8220e8
(1725509534.28761) can0 60D#007dafa070800505
(1725509534.2879577) can0 60D#017cafa070800505
(1725509534.2879946) can0 60D#027d0fa070800505
(1725509534.2883875) can0 60D#037d0fa070800505
(1725509534.288434) can0 60D#047d8fa070800605
(1725509534.2887537) can0 60D#057d0fa070800505
(1725509534.2890437) can0 60D#067d0fa070800505
(1725509534.2894387) can0 60D#097d2fa070800505
(1725509534.3581026) can0 60A#0800d510
(1725509534.3586082) can0 60B#004ec3fd8020019d
(1725509534.3586674) can0 60B#014ff3f980200191
(1725509534.3589756) can0 60B#024f3bfb80200173
(1725509534.3590086) can0 60B#03504c1d8020018b
(1725509534.3595123) can0 60B#04501bf9802001a6
(1725509534.3600373) can0 60B#05511bf480200178
(1725509534.3600962) can0 60B#064efc0980200194
(1725509534.3605664) can0 60B#0950ac768020018a
(1725509534.3606374) can0 60C#0084a33a0220e8
(1725509534.360948) can0 60C#018ca53a0220e8
(1725509534.3609853) can0 60C#0284a33a0220e8
(1725509534.3615253) can0 60C#038ca53a0220e8
(1725509534.361587) can0 60C#048ca53a0220e8
(1725509534.3619342) can0 60C#058ca33a0220e8
(1725509534.3619783) can0 60C#068ca53a0220e8
(1725509534.3625188) can0 60C#098ca53a8220e8
(1725509534.3625798) can0 60D#007dafa070800505
(1725509534.3630514) can0 60D#017cafa070800505
(1725509534.3631098) can0 60D#027d0fa070800505
(1725509534.363573) can0 60D#037d0fa070800505
(1725509534.3636305) can0 60D#047d8fa070800605
(1725509534.3639436) can0 60D#057d2fa070800505
(1725509534.363977) can0 60D#067d0fa070800505
(1725509534.3644361) can0 60D#097d0fa070800505
(1725509534.4330242) can0 60A#0800d710
(1725509534.4335861) can0 60B#004ec3fd8020019d
(1725509534.4339437) can0 60B#014ff3f980200191
(1725509534.4339774) can0 60B#024f3bfb80200172
(1725509534.4345083) can0 60B#03504c1d8020018b
(1725509534.434567) can0 60B#04501bf9802001a7
(1725509534.4350603) can0 60B#05511bf480200179
(1725509534.435119) can0 60B#064efc0980200194
(1725509534.4355764) can0 60B#0950ac768020018a
(1725509534.4356477) can0 60C#0084a33a0220e8
(1725509534.4359639) can0 60C#018ca53a0220e8
(1725509534.4360006) can0 60C#0284a33a0220e8
(1725509534.4365196) can0 60C#038ca53a0220e8
(1725509534.436582) can0 60C#048ca53a0220e8
(1725509534.4370718) can0 60C#058ca33a0220e8
(1725509534.437134) can0 60C#068ca53a0220e8
(1725509534.4376023) can0 60C#098ca53a8220e8
(1725509534.437664) can0 60D#007d8fa070800505
(1725509534.4379797) can0 60D#017cafa070800505
(1725509534.4380126) can0 60D#027d2fa070800505
(1725509534.4385102) can0 60D#037d0fa070800505
(1725509534.4390345) can0 60D#047d8fa070800605
(1725509534.4390929) can0 60D#057d2fa070800505
(1725509534.4395633) can0 60D#067d0fa070800505
(1725509534.4396217) can0 60D#097d2fa070800505
(1725509534.5079923) can0 60A#0800d910
(1725509534.5082853) can0 60B#004ec3fd8020019d
(1725509534.5085292) can0 60B#014ff3f980200191
(1725509534.5087688) can0 60B#024f3bfb80200172
(1725509534.509008) can0 60B#03504c1d8020018c
(1725509534.5092819) can0 60B#04501bf9802001a7
(1725509534.509523) can0 60B#05511bf480200179
(1725509534.5097613) can0 60B#064efc0980200194
(1725509534.5099993) can0 60B#0950ac768020018a
(1725509534.5102882) can0 60C#0084a33a0220e8
(1725509534.5107486) can0 60C#018ca53a0220e8
(1725509534.5111318) can0 60C#0284a33a0220e8
(1725509534.5111854) can0 60C#038ca53a0220e8
(1725509534.511589) can0 60C#048ca53a0220e8
(1725509534.5119324) can0 60C#058ca33a0220e8
(1725509534.5119708) can0 60C#068ca53a0220e8
(1725509534.5122154) can0 60C#098ca53a8220e8
(1725509534.5124595) can0 60D#007d6fa070800505
(1725509534.5126998) can0 60D#017cafa070800505
(1725509534.512941) can0 60D#027d2fa070800505
(1725509534.513178) can0 60D#037d0fa070800505
(1725509534.5136056) can0 60D#047d6fa070800605
(1725509534.5139291) can0 60D#057d2fa070800505
(1725509534.5139625) can0 60D#067d0fa070800505
(1725509534.514197) can0 60D#097d2fa070800505
(1725509534.5780058) can0 60A#0800db10
(1725509534.5785086) can0 60B#004ec3fd8020019d
(1725509534.578999) can0 60B#014ff3f980200191
(1725509534.5790567) can0 60B#024f3bfb80200173
(1725509534.5795903) can0 60B#03504c1d8020018c
(1725509534.5796494) can0 60B#04501bf9802001a7
(1725509534.5799723) can0 60B#05511bf480200179
(1725509534.580005) can0 60B#064efc0980200194
(1725509534.5805078) can0 60B#0950ac768020018a
(1725509534.5805786) can0 60C#0084a33a0220e8
(1725509534.5810602) can0 60C#018ca53a0220e8
(1725509534.5811222) can0 60C#0284a33a0220e8
(1725509534.5814755) can0 60C#038ca53a0220e8
(1725509534.5815198) can0 60C#048ca53a0220e8
(1725509534.5820045) can0 60C#058ca33a0220e8
(1725509534.582067) can0 60C#068ca53a0220e8
(1725509534.5825982) can0 60C#098ca53a8220e8
(1725509534.5826607) can0 60D#007d4fa070800505
(1725509534.5829766) can0 60D#017cafa070800505
(1725509534.5830095) can0 60D#027d2fa070800505
(1725509534.5835116) can0 60D#037d0fa070800505
(1725509534.5840456) can0 60D#047d6fa070800605
(1725509534.5841045) can0 60D#057d2fa070800505
(1725509534.5845578) can0 60D#067d0fa070800505
(1725509534.5846217) can0 60D#097d0fa070800505
(1725509534.653094) can0 60A#0800dd10
(1725509534.653366) can0 60B#004ec3fd8020019d
(1725509534.6535609) can0 60B#014ff3f980200191
(1725509534.65375) can0 60B#024f3bfb80200173
(1725509534.6539419) can0 60B#03504c1d8020018c
(1725509534.6543705) can0 60B#04501bf9802001a6
(1725509534.6545677) can0 60B#05511bf480200179
(1725509534.6547902) can0 60B#064efc0980200193
(1725509534.655026) can0 60B#0950ac768020018a
(1725509534.6554716) can0 60C#0084a33a0220e8
(1725509534.6556647) can0 60C#018ca53a0220e8
(1725509534.6558943) can0 60C#0284a33a0220e8
(1725509534.6561227) can0 60C#038ca53a0220e8
(1725509534.6563325) can0 60C#048ca53a0220e8
(1725509534.6565511) can0 60C#058ca33a0220e8
(1725509534.6567454) can0 60C#068ca53a0220e8
(1725509534.65714) can0 60C#098ca53a8220e8
(1725509534.6573677) can0 60D#007d2fa070800505
(1725509534.657589) can0 60D#017cafa070800505
(1725509534.6578116) can0 60D#027d2fa070800505
(1725509534.6582046) can0 60D#037d0fa070800505
(1725509534.6583977) can0 60D#047d6fa070800605
(1725509534.6585813) can0 60D#057d2fa070800505
(1725509534.658933) can0 60D#067d0fa070800505
(1725509534.6591518) can0 60D#097d0fa070800505
(1725509534.7280114) can0 60A#0800df10
(1725509534.7282524) can0 60B#004ec3fd8020019d
(1725509534.728438) can0 60B#014ff3f980200192
(1725509534.7287865) can0 60B#024f3bfb80200172
(1725509534.7293494) can0 60B#03504c1d8020018c
(1725509534.7296073) can0 60B#04501bf9802001a6
(1725509534.7296228) can0 60B#05511bf480200179
(1725509534.729803) can0 60B#064efc0980200193
(1725509534.7302518) can0 60B#0950ac768020018a
(1725509534.730494) can0 60C#0084a33a0220e8
(1725509534.7307377) can0 60C#018ca53a0220e8
(1725509534.7309704) can0 60C#0284a33a0220e8
(1725509534.7312043) can0 60C#038ca53a0220e8
(1725509534.73143) can0 60C#048ca53a0220e8
(1725509534.73163) can0 60C#058ca33a0220e8
(1725509534.7318628) can0 60C#068ca53a0220e8
(1725509534.7320583) can0 60C#098ca53a8220e8
(1725509534.732284) can0 60D#007d0fa070800505
(1725509534.732676) can0 60D#017cafa070800505
(1725509534.732881) can0 60D#027d0fa070800505
(1725509534.733067) can0 60D#037d0fa070800505
(1725509534.7334552) can0 60D#047d6fa070800605
(1725509534.7336748) can0 60D#057d2fa070800505
(1725509534.733879) can0 60D#067d0fa070800505
(1725509534.7343597) can0 60D#097d0fa070800505
(1725509534.803231) can0 60A#0900e110
(1725509534.8036234) can0 60B#004ec3fd8020019d
(1725509534.8038716) can0 60B#014ff3f980200192
(1725509534.8038886) can0 60B#024f3bfb80200173
(1725509534.8042378) can0 60B#03504c1d8020018c
(1725509534.8046284) can0 60B#04501bf9802001a6
(1725509534.8049479) can0 60B#05511bf480200179
(1725509534.80499) can0 60B#064efc0980200193
(1725509534.8052928) can0 60B#0759e43080200180
(1725509534.8055193) can0 60B#0950ac768020018a
(1725509534.8057513) can0 60C#0084a33a0220e8
(1725509534.8060682) can0 60C#018ca53a0220e8
(1725509534.8063588) can0 60C#0284a33a0220e8
(1725509534.8063793) can0 60C#038ca53a0220e8
(1725509534.806648) can0 60C#048ca53a0220e8
(1725509534.8069155) can0 60C#058ca33a0220e8
(1725509534.8071692) can0 60C#068ca53a0220e8
(1725509534.8074446) can0 60C#07a5678d822064
(1725509534.8078074) can0 60C#098ca53a8220e8
(1725509534.80809) can0 60D#007d0fa070800505
(1725509534.808361) can0 60D#017cafa070800505
(1725509534.808583) can0 60D#027d0fa070800505
(1725509534.808808) can0 60D#037d0fa070800505
(1725509534.8091965) can0 60D#047d6fa070800605
(1725509534.8096151) can0 60D#057d2fa070800505
(1725509534.8096511) can0 60D#067d0fa070800505
(1725509534.8099058) can0 60D#077d0fa070800505
(1725509534.8102822) can0 60D#097cefa070800505
(1725509534.8784354) can0 60A#0900e310
(1725509534.8788862) can0 60B#004ec3fd8020019d
(1725509534.8789299) can0 60B#014ff3f980200191
(1725509534.879329) can0 60B#024f3bfb80200173
(1725509534.8793726) can0 60B#03504c1d8020018c
(1725509534.8795998) can0 60B#04501bf9802001a6
(1725509534.8796203) can0 60B#05511bf480200179
(1725509534.8798177) can0 60B#064efc0980200194
(1725509534.8802576) can0 60B#0759e4308020017f
(1725509534.8804595) can0 60B#0950ac768020018a
(1725509534.880669) can0 60C#0084a33a0220e8
(1725509534.8808875) can0 60C#018ca53a0220e8
(1725509534.8810928) can0 60C#0284a33a0220e8
(1725509534.881339) can0 60C#038ca53a0220e8
(1725509534.8817122) can0 60C#048ca53a0220e8
(1725509534.8819225) can0 60C#058ca33a0220e8
(1725509534.8823037) can0 60C#068ca53a0220e8
(1725509534.8827543) can0 60C#07a56b8d822068
(1725509534.8827999) can0 60C#098ca53a8220e8
(1725509534.8832061) can0 60D#007d0fa070800505
(1725509534.8836234) can0 60D#017cafa070800505
(1725509534.883667) can0 60D#027d0fa070800505
(1725509534.8839138) can0 60D#037d0fa070800505
(1725509534.8842852) can0 60D#047d6fa070800605
(1725509534.8847013) can0 60D#057d2fa070800505
(1725509534.8847446) can0 60D#067d0fa070800505
(1725509534.8849704) can0 60D#077d0fa070800505
(1725509534.884995) can0 60D#097ccfa070800505
(1725509534.948283) can0 60A#0900e510
(1725509534.9487026) can0 60B#004ec3fd8020019d
(1725509534.948746) can0 60B#014ff3f980200191
(1725509534.94897) can0 60B#024f3bfb80200173
(1725509534.9493437) can0 60B#03504c1d8020018c
(1725509534.9497638) can0 60B#04501bf9802001a6
(1725509534.949808) can0 60B#05511bf480200179
(1725509534.9502327) can0 60B#064efc0980200194
(1725509534.950652) can0 60B#0759e4308020017e
(1725509534.9506948) can0 60B#0950ac7680200189
(1725509534.950934) can0 60C#0084a33a0220e8
(1725509534.9509568) can0 60C#018ca53a0220e8
(1725509534.9513333) can0 60C#0284a33a0220e8
(1725509534.9517586) can0 60C#038ca53a0220e8
(1725509534.9520159) can0 60C#048ca53a0220e8
(1725509534.952043) can0 60C#058ca33a0220e8
(1725509534.9524388) can0 60C#068ca53a0220e8
(1725509534.952934) can0 60C#07a56f8d022048
(1725509534.9530058) can0 60C#098ca53a8220e8
(1725509534.9534369) can0 60D#007d0fa070800505
(1725509534.9534802) can0 60D#017cafa070800505
(1725509534.9539108) can0 60D#027d0fa070800505
(1725509534.9539545) can0 60D#037d0fa070800505
(1725509534.9543533) can0 60D#047d6fa070800605
(1725509534.954602) can0 60D#057d2fa070800505
(1725509534.9546225) can0 60D#067d0fa070800505
(1725509534.954819) can0 60D#077d2fa070800505
(1725509534.9550188) can0 60D#097cefa070800505
(1725509535.0231714) can0 60A#0a00e710
(1725509535.0233998) can0 60B#004ec3fd8020019d
(1725509535.0236003) can0 60B#014ff3f980200191
(1725509535.0238032) can0 60B#024f3bfb80200173
(1725509535.024177) can0 60B#03504c1d8020018c
(1725509535.0243816) can0 60B#04501bf9802001a6
(1725509535.0245872) can0 60B#05511bf480200179
(1725509535.0249567) can0 60B#064efc0980200194
(1725509535.0251558) can0 60B#0759e4308020017e
(1725509535.0255258) can0 60B#08523b4d8020018b
(1725509535.025724) can0 60B#0950ac768020018a
(1725509535.0259285) can0 60C#0084a33a0220e8
(1725509535.026316) can0 60C#018ca53a0220e8
(1725509535.026742) can0 60C#0284a33a0220e8
(1725509535.0271683) can0 60C#038ca53a0220e8
(1725509535.0272133) can0 60C#048ca53a0220e8
(1725509535.027618) can0 60C#058ca33a0220e8
(1725509535.027663) can0 60C#068ca53a0220e8
(1725509535.027925) can0 60C#07a56f8d022028
(1725509535.0279484) can0 60C#08ad698d822064
(1725509535.0283277) can0 60C#098ca53a8220e8
(1725509535.0287545) can0 60D#007d0fa070800505
(1725509535.0290022) can0 60D#017cafa070800505
(1725509535.0290265) can0 60D#027d0fa070800505
(1725509535.0292609) can0 60D#037d0fa070800505
(1725509535.029461) can0 60D#047d6fa070800605
(1725509535.0298276) can0 60D#057d2fa070800505
(1725509535.0300376) can0 60D#067d0fa070800505
(1725509535.0302596) can0 60D#077d0fa070800505
(1725509535.030633) can0 60D#087d0fa070800505
(1725509535.030829) can0 60D#097cefa070800505
(1725509535.0983663) can0 60A#0800e910
(1725509535.0986319) can0 60B#004ec3fd8020019d
(1725509535.0986567) can0 60B#014ff3f980200197
(1725509535.0989683) can0 60B#024f3bfb80200173
(1725509535.0992634) can0 60B#03504c1d8020018c
(1725509535.0994632) can0 60B#05511bf480200179
(1725509535.099662) can0 60B#064efc0980200194
(1725509535.0998828) can0 60B#08523b4d8020018b
(1725509535.1002576) can0 60B#0950ac768020018a
(1725509535.1004663) can0 60C#0084a33a0220e8
(1725509535.100669) can0 60C#018ca53a0220e8
(1725509535.1009076) can0 60C#0284a33a0220e8
(1725509535.101141) can0 60C#038ca53a0220e8
(1725509535.1015122) can0 60C#058ca33a0220e8
(1725509535.1017134) can0 60C#068ca53a0220e8
(1725509535.101919) can0 60C#08ad6d8d82206c
(1725509535.1023006) can0 60C#098ca53a8220e8
(1725509535.1027184) can0 60D#007d0fa070800605
(1725509535.102971) can0 60D#017cafa070800605
(1725509535.1029918) can0 60D#027d2fa070800505
(1725509535.103429) can0 60D#037d0fa070800505
(1725509535.103872) can0 60D#057d2fa070800505
(1725509535.1042972) can0 60D#067d0fa070800505
(1725509535.1043396) can0 60D#087d0fa070800505
(1725509535.1047306) can0 60D#097ccfa070800505
(1725509535.1734874) can0 60A#0800eb10
(1725509535.1739695) can0 60B#004ec3fd8020019d
(1725509535.1740277) can0 60B#014ff3f98020019b
(1725509535.1743677) can0 60B#024f33fb80200173
(1725509535.1744003) can0 60B#03504c1d8020018b
(1725509535.174637) can0 60B#05511bf480200179
(1725509535.1749015) can0 60B#064efc0980200193
(1725509535.1751437) can0 60B#08523b4d8020018b
(1725509535.175386) can0 60B#0950ac768020018b
(1725509535.1756387) can0 60C#0084a33a0220e8
(1725509535.1759088) can0 60C#018ca53a0220e8
(1725509535.1761634) can0 60C#0284a33a0220e8
(1725509535.1764133) can0 60C#038ca53a0220e8
(1725509535.1766598) can0 60C#058ca33a0220e8
(1725509535.1769474) can0 60C#068ca53a0220e8
(1725509535.1771967) can0 60C#08ad6f8d82204c
(1725509535.177233) can0 60C#098ca53a8220e8
(1725509535.1774774) can0 60D#007d2fa070800605
(1725509535.1779373) can0 60D#017cafa070800605
(1725509535.1781828) can0 60D#027d2fa070800505
(1725509535.1784286) can0 60D#037d0fa070800505
(1725509535.1786652) can0 60D#057d2fa070800505
(1725509535.178918) can0 60D#067d0fa070800505
(1725509535.1793652) can0 60D#087d0fa070800505
(1725509535.1796684) can0 60D#097cafa070800505
(1725509535.2483172) can0 60A#0800ed10
(1725509535.2485902) can0 60B#004ec3fd8020019d
(1725509535.2488346) can0 60B#014ff3f98020019d
(1725509535.2491014) can0 60B#024f33fb80200173
(1725509535.2493587) can0 60B#03504c1d8020018b
(1725509535.2495978) can0 60B#05511bf580200179
(1725509535.2498388) can0 60B#064efc0980200193
(1725509535.250103) can0 60B#08523b4d8020018b
(1725509535.2503583) can0 60B#0950ac768020018a
(1725509535.2506037) can0 60C#0084a33a0220e8
(1725509535.2508729) can0 60C#018ca53a0220e8
(1725509535.2511184) can0 60C#0284a33a0220e8
(1725509535.2513635) can0 60C#038ca53a0220e8
(1725509535.2516065) can0 60C#058ca33a0220e8
(1725509535.2518756) can0 60C#068ca53a0220e8
(1725509535.2521224) can0 60C#08adb18d82204c
(1725509535.2523673) can0 60C#098ca53a8220e8
(1725509535.2526126) can0 60D#007d4fa070800605
(1725509535.2528737) can0 60D#017cafa070800605
(1725509535.2531114) can0 60D#027d2fa070800505
(1725509535.2533607) can0 60D#037d0fa070800505
(1725509535.2535963) can0 60D#057d2fa070800505
(1725509535.2538311) can0 60D#067d0fa070800505
(1725509535.2540922) can0 60D#087d0fa070800505
(1725509535.2543607) can0 60D#097c8fa070800505
(1725509535.318318) can0 60A#0800ef10
(1725509535.3185887) can0 60B#004ec3fd8020019d
(1725509535.3188298) can0 60B#014ff3f9802001a0
(1725509535.3190963) can0 60B#024f33fb80200173
(1725509535.3193588) can0 60B#03504c1d8020018b
(1725509535.3195975) can0 60B#05511bf580200179
(1725509535.3198354) can0 60B#064efc0980200193
(1725509535.320104) can0 60B#08523b4d8020018b
(1725509535.3203592) can0 60B#0950ac768020018a
(1725509535.3206058) can0 60C#0084a33a0220e8
(1725509535.3208737) can0 60C#018ca53a0220e8
(1725509535.3211226) can0 60C#0284a33a0220e8
(1725509535.3213663) can0 60C#038ca53a0220e8
(1725509535.321613) can0 60C#058ca33a0220e8
(1725509535.3218799) can0 60C#068ca53a0220e8
(1725509535.3221283) can0 60C#08b5b18d82202c
(1725509535.3223732) can0 60C#098ca53a8220e8
(1725509535.3226163) can0 60D#007d6fa070800605
(1725509535.3228781) can0 60D#017cafa070800605
(1725509535.3231196) can0 60D#027d2fa070800505
(1725509535.3233619) can0 60D#037d0fa070800505
(1725509535.3235981) can0 60D#057d2fa070800505
(1725509535.323834) can0 60D#067d0fa070800505
(1725509535.3240955) can0 60D#087d0fa070800505
(1725509535.3243635) can0 60D#097c6fa070800505
(1725509535.3933165) can0 60A#0700f110
(1725509535.3935878) can0 60B#004ec3fd8020019d
(1725509535.3938284) can0 60B#014ff3f9802001a1
(1725509535.3940954) can0 60B#024f33fb80200173
(1725509535.3943582) can0 60B#03504c1d8020018b
(1725509535.394597) can0 60B#05511bf580200179
(1725509535.3948362) can0 60B#064efc0980200193
(1725509535.39511) can0 60B#0950ac768020018a
(1725509535.3953655) can0 60C#0084a33a0220e8
(1725509535.3956158) can0 60C#018ca33a0220e8
(1725509535.3958852) can0 60C#0284a33a0220e8
(1725509535.3961306) can0 60C#038ca53a0220e8
(1725509535.3963737) can0 60C#058ca33a0220e8
(1725509535.3966193) can0 60C#068ca53a0220e8
(1725509535.3968863) can0 60C#098ca53a8220e8
(1725509535.3971288) can0 60D#007dafa070800605
(1725509535.3973653) can0 60D#017cafa070800605
(1725509535.3976035) can0 60D#027d2fa070800505
(1725509535.3978388) can0 60D#037d0fa070800505
(1725509535.3981051) can0 60D#057d2fa070800505
(1725509535.3983605) can0 60D#067d0fa070800505
(1725509535.3985965) can0 60D#097c6fa070800505
(1725509535.4682915) can0 60A#0700f310
(1725509535.4685419) can0 60B#004ec3fd8020019d
(1725509535.4687803) can0 60B#014ff3f9802001a3
(1725509535.4690201) can0 60B#024f33fb80200173
(1725509535.4692814) can0 60B#03504c1d8020018b
(1725509535.46952) can0 60B#05511bf580200179
(1725509535.4697843) can0 60B#064efc0980200193
(1725509535.4700253) can0 60B#0950ac768020018a
(1725509535.4702892) can0 60C#0084a33a0220e8
(1725509535.4705338) can0 60C#018ca53a0220e8
(1725509535.4707763) can0 60C#0284a33a0220e8
(1725509535.471022) can0 60C#038ca53a0220e8
(1725509535.4712868) can0 60C#058ca33a0220e8
(1725509535.4715347) can0 60C#068ca53a0220e8
(1725509535.4717796) can0 60C#098ca53a8220e8
(1725509535.4722824) can0 60D#007dcfa070800605
(1725509535.472518) can0 60D#017cafa070800605
(1725509535.4727526) can0 60D#027d2fa070800505
(1725509535.4729898) can0 60D#037d0fa070800505
(1725509535.4732869) can0 60D#057d2fa070800505
(1725509535.4737322) can0 60D#067d0fa070800505
(1725509535.4740338) can0 60D#097c8fa070800505
(1725509535.543318) can0 60A#0700f510
(1725509535.5435884) can0 60B#004ec3fd8020019d
(1725509535.5438287) can0 60B#014ff3f9802001a4
(1725509535.5440931) can0 60B#024f33fb80200173
(1725509535.5443609) can0 60B#03504c1d8020018b
(1725509535.544599) can0 60B#05511bf480200179
(1725509535.5448358) can0 60B#064efc0980200194
(1725509535.5451088) can0 60B#0950ac768020018a
(1725509535.545365) can0 60C#0084a33a0220e8
(1725509535.5456085) can0 60C#018ca53a0220e8
(1725509535.5458758) can0 60C#0284a33a0220e8
(1725509535.5461218) can0 60C#038ca53a0220e8
(1725509535.5463643) can0 60C#058ca33a0220e8
(1725509535.5466099) can0 60C#068ca53a0220e8
(1725509535.5468767) can0 60C#098ca53a8220e8
(1725509535.5471182) can0 60D#007dafa070800605
(1725509535.5473604) can0 60D#017cafa070800605
(1725509535.5475984) can0 60D#027d2fa070800505
(1725509535.5478334) can0 60D#037d0fa070800505
(1725509535.5483856) can0 60D#057d0fa070800505
(1725509535.5484178) can0 60D#067d0fa070800505
(1725509535.5486507) can0 60D#097c6fa070800505
(1725509535.6185296) can0 60A#0700f710
(1725509535.6185915) can0 60B#004ec3fd8020019d
(1725509535.6188364) can0 60B#014ff3f9802001a4
(1725509535.6191242) can0 60B#024f33fb80200173
(1725509535.619364) can0 60B#03504c1d8020018b
(1725509535.6196086) can0 60B#05511bf480200179
(1725509535.619876) can0 60B#064efc0980200194
(1725509535.6201174) can0 60B#0950ac768020018a
(1725509535.6203663) can0 60C#0084a33a0220e8
(1725509535.620613) can0 60C#018ca53a0220e8
(1725509535.6208782) can0 60C#0284a33a0220e8
(1725509535.621124) can0 60C#038ca53a0220e8
(1725509535.6213682) can0 60C#058ca33a0220e8
(1725509535.6216118) can0 60C#068ca53a0220e8
(1725509535.6218798) can0 60C#098ca53a8220e8
(1725509535.6221256) can0 60D#007d8fa070800605
(1725509535.6223633) can0 60D#017cafa070800605
(1725509535.6226) can0 60D#027d2fa070800505
(1725509535.6228838) can0 60D#037d0fa070800505
(1725509535.6231248) can0 60D#057d2fa070800505
(1725509535.623553) can0 60D#067d0fa070800505
(1725509535.6237879) can0 60D#097cafa070800505
(1725509535.6932862) can0 60A#0700f910
(1725509535.693529) can0 60B#004ec3fd8020019d
(1725509535.6937664) can0 60B#014ff3f9802001a5
(1725509535.6942017) can0 60B#024f33fb80200173
(1725509535.694443) can0 60B#03504c1d8020018b
(1725509535.6946812) can0 60B#05511bf580200179
(1725509535.694919) can0 60B#064efc0980200194
(1725509535.6951575) can0 60B#0950ac768020018a
(1725509535.6954033) can0 60C#0084a33a0220e8
(1725509535.6956463) can0 60C#018ca53a0220e8
(1725509535.6959047) can0 60C#0284a33a0220e8
(1725509535.6961482) can0 60C#038ca53a0220e8
(1725509535.6963909) can0 60C#058ca33a0220e8
(1725509535.6966336) can0 60C#068ca53a0220e8
(1725509535.6968925) can0 60C#098ca53a8220e8
(1725509535.6971328) can0 60D#007d6fa070800605
(1725509535.6973689) can0 60D#017ccfa070800605
(1725509535.6977968) can0 60D#027d2fa070800505
(1725509535.6980336) can0 60D#037d0fa070800505
(1725509535.6982834) can0 60D#057d2fa070800505
(1725509535.698521) can0 60D#067d0fa070800505
(1725509535.6987557) can0 60D#097ccfa070800505
(1725509535.7635071) can0 60A#0700fb10
(1725509535.7637837) can0 60B#004ec3fd8020019d
(1725509535.764126) can0 60B#014ff3f9802001a5
(1725509535.7641592) can0 60B#024f33fb80200173
(1725509535.7644434) can0 60B#03504c1d8020018b
(1725509535.7647982) can0 60B#05511bf480200179
(1725509535.7653425) can0 60B#064efc0980200194
(1725509535.7654011) can0 60B#0950ac768020018a
(1725509535.7659159) can0 60C#0084a33a0220e8
(1725509535.7659783) can0 60C#018ca53a0220e8
(1725509535.766522) can0 60C#0284a33a0220e8
(1725509535.7667685) can0 60C#038ca53a0220e8
(1725509535.7671452) can0 60C#058ca33a0220e8
(1725509535.7671897) can0 60C#068ca53a0220e8
(1725509535.767221) can0 60C#098ca53a8220e8
(1725509535.767565) can0 60D#007d4fa070800605
(1725509535.7676077) can0 60D#017ccfa070800605
(1725509535.7679048) can0 60D#027d2fa070800505
(1725509535.768157) can0 60D#037d0fa070800505
(1725509535.768398) can0 60D#057d0fa070800505
(1725509535.7686365) can0 60D#067d0fa070800505
(1725509535.7688904) can0 60D#097cafa070800505
(1725509535.838633) can0 60A#0700fd10
(1725509535.838961) can0 60B#004ec3fd8020019d
(1725509535.8389945) can0 60B#014ff3f9802001a6
(1725509535.8394768) can0 60B#024f33fb80200173
(1725509535.8397744) can0 60B#03504c1d8020018b
(1725509535.8398082) can0 60B#05511bf480200179
(1725509535.8400931) can0 60B#064efc0980200194
(1725509535.8403592) can0 60B#0950ac7680200189
(1725509535.8406126) can0 60C#0084a33a0220e8
(1725509535.840888) can0 60C#018ca53a0220e8
(1725509535.8411381) can0 60C#0284a33a0220e8
(1725509535.8411744) can0 60C#038ca53a0220e8
(1725509535.8414123) can0 60C#058ca33a0220e8
(1725509535.8416593) can0 60C#068ca53a0220e8
(1725509535.841921) can0 60C#098ca53a8220e8
(1725509535.8421648) can0 60D#007d4fa070800605
(1725509535.8424032) can0 60D#017ccfa070800605
(1725509535.8428936) can0 60D#027d2fa070800505
(1725509535.8431604) can0 60D#037d0fa070800505
(1725509535.843412) can0 60D#057d2fa070800505
(1725509535.843827) can0 60D#067d0fa070800505
(1725509535.8441553) can0 60D#097cefa070800505
(1725509535.9135087) can0 60A#0700ff10
(1725509535.9137826) can0 60B#004ec3fd8020019d
(1725509535.914024) can0 60B#014ff3f9802001a6
(1725509535.9142814) can0 60B#024f33fb80200173
(1725509535.9145231) can0 60B#03504c1d8020018b
(1725509535.9147623) can0 60B#05511bf480200178
(1725509535.9150004) can0 60B#064efc0980200194
(1725509535.9152813) can0 60B#0950ac7680200189
(1725509535.9155273) can0 60C#0084a33a0220e8
(1725509535.9157724) can0 60C#018ca53a0220e8
(1725509535.9160166) can0 60C#0284a33a0220e8
(1725509535.9164839) can0 60C#038ca53a0220e8
(1725509535.9169996) can0 60C#058ca33a0220e8
(1725509535.9170618) can0 60C#068ca53a0220e8
(1725509535.9173706) can0 60C#098ce53a8220e8
(1725509535.9174066) can0 60D#007d2fa070800605
(1725509535.9176424) can0 60D#017ccfa070800605
(1725509535.917907) can0 60D#027d2fa070800505
(1725509535.9181461) can0 60D#037d0fa070800505
(1725509535.9183855) can0 60D#057d2fa070800505
(1725509535.9186234) can0 60D#067d0fa070800505
(1725509535.9188848) can0 60D#097cefa070800505
(1725509535.9885068) can0 60A#08010110
(1725509535.988783) can0 60B#004ec3fd8020019d
(1725509535.989027) can0 60B#014ff3f9802001a6
(1725509535.9892824) can0 60B#024f33fb80200173
(1725509535.9895217) can0 60B#03504c1d8020018b
(1725509535.9897623) can0 60B#0459e42e80200180
(1725509535.9900045) can0 60B#05511bf480200178
(1725509535.990281) can0 60B#064efc0980200194
(1725509535.990519) can0 60B#0950ac768020018a
(1725509535.9907727) can0 60C#0084a33a0220e8
(1725509535.9910176) can0 60C#018ca33a0220e8
(1725509535.991485) can0 60C#0284a33a0220e8
(1725509535.9919767) can0 60C#038ca53a0220e8
(1725509535.99204) can0 60C#04a5678d822064
(1725509535.992376) can0 60C#058ca33a0220e8
(1725509535.9924119) can0 60C#068ca53a0220e8
(1725509535.9928992) can0 60C#098ca53a8220e8
(1725509535.993206) can0 60D#007d2fa070800605
(1725509535.9932387) can0 60D#017ccfa070800605
(1725509535.993473) can0 60D#027d2fa070800505
(1725509535.9937103) can0 60D#037d0fa070800505
(1725509535.9939554) can0 60D#047d0fa070800505
(1725509535.9944005) can0 60D#057d2fa070800505
(1725509535.994835) can0 60D#067d0fa070800505
(1725509535.994932) can0 60D#097ccfa070800505
(1725509536.0635083) can0 60A#08010310
(1725509536.0637834) can0 60B#004ec3fd8020019d
(1725509536.0640259) can0 60B#014ff3f9802001a6
(1725509536.064282) can0 60B#024f33fb80200173
(1725509536.0645235) can0 60B#03504c1d8020018b
(1725509536.0647624) can0 60B#0459e42f80202181
(1725509536.0650012) can0 60B#05511bf480200179
(1725509536.065283) can0 60B#064efc0980200194
(1725509536.0655236) can0 60B#0950ac768020018a
(1725509536.0657694) can0 60C#0084a33a0220e8
(1725509536.0660129) can0 60C#018ca33a0220e8
(1725509536.0664861) can0 60C#0284a33a0220e8
(1725509536.0669732) can0 60C#038ca53a0220e8
(1725509536.0670376) can0 60C#04a5278c8220a8
(1725509536.0673697) can0 60C#058ca33a0220e8
(1725509536.0674064) can0 60C#068ca53a0220e8
(1725509536.0678961) can0 60C#098ca53a8220e8
(1725509536.0681982) can0 60D#007d0fa070800605
(1725509536.0682313) can0 60D#017cefa070800605
(1725509536.068466) can0 60D#027d2fa070800505
(1725509536.0687072) can0 60D#037d0fa070800505
(1725509536.0689485) can0 60D#047d2fa070800505
(1725509536.0693908) can0 60D#057d2fa070800505
(1725509536.0698836) can0 60D#067d0fa070800505
(1725509536.0699444) can0 60D#097cefa070800505
(1725509536.138507) can0 60A#08010510
(1725509536.1387818) can0 60B#004ec3fd8020019d
(1725509536.1390252) can0 60B#014ff3f9802001a6
(1725509536.1392822) can0 60B#024f33fb80200173
(1725509536.1395211) can0 60B#03504c1d8020018b
(1725509536.1397612) can0 60B#0459e42f80202181
(1725509536.140002) can0 60B#05511bf480200179
(1725509536.1402814) can0 60B#064efc0980200194
(1725509536.14052) can0 60B#0950ac768020018a
(1725509536.140765) can0 60C#0084a33a0220e8
(1725509536.141148) can0 60C#018ca53a0220e8
(1725509536.1416) can0 60C#0284a33a0220e8
(1725509536.1419263) can0 60C#038ca53a0220e8
(1725509536.141965) can0 60C#049d277c0220e8
(1725509536.1424067) can0 60C#058ca33a0220e8
(1725509536.1428993) can0 60C#068ca53a0220e8
(1725509536.142965) can0 60C#098ca53a8220e8
(1725509536.1432953) can0 60D#007cefa070800605
(1725509536.1433277) can0 60D#017cefa070800605
(1725509536.1437511) can0 60D#027d2fa070800505
(1725509536.14381) can0 60D#037d0fa070800505
(1725509536.1442819) can0 60D#047d2fa070800505
(1725509536.14434) can0 60D#057d2fa070800505
(1725509536.1446097) can0 60D#067d0fa070800505
(1725509536.144642) can0 60D#097ccfa070800505
(1725509536.2085083) can0 60A#08010710
(1725509536.2087822) can0 60B#004ec3fd8020019d
(1725509536.2090232) can0 60B#014ff3f9802001a6
(1725509536.2092845) can0 60B#024f3bfb80200173
(1725509536.2095232) can0 60B#03504c1d8020018b
(1725509536.2097633) can0 60B#0459e42f80202181
(1725509536.2101934) can0 60B#05511bf480200179
(1725509536.2104323) can0 60B#064efc0980200194
(1725509536.2106702) can0 60B#0950ac768020018a
(1725509536.2109265) can0 60C#0084a33a0220e8
(1725509536.2111707) can0 60C#018ca53a0220e8
(1725509536.2114165) can0 60C#0284a33a0220e8
(1725509536.2116594) can0 60C#038ca53a0220e8
(1725509536.2119186) can0 60C#049d257b8220e8
(1725509536.2121625) can0 60C#058ca33a0220e8
(1725509536.2124116) can0 60C#068ca53a0220e8
(1725509536.212655) can0 60C#098ca53a8220e8
(1725509536.212917) can0 60D#007cefa070800605
(1725509536.2131605) can0 60D#017cefa070800605
(1725509536.213402) can0 60D#027d0fa070800505
(1725509536.2136376) can0 60D#037d0fa070800505
(1725509536.2138898) can0 60D#047c6fa070800505
(1725509536.2141275) can0 60D#057d2fa070800505
(1725509536.214557) can0 60D#067d0fa070800505
(1725509536.2147923) can0 60D#097cafa070800505
(1725509536.2838283) can0 60A#08010910
(1725509536.284336) can0 60B#004ec3fd8020019d
(1725509536.2843945) can0 60B#014ff3f9802001a6
(1725509536.2848036) can0 60B#024f3bfb80200172
(1725509536.2849114) can0 60B#03504c1d8020018b
(1725509536.2853277) can0 60B#0459e42f80202182
(1725509536.2853866) can0 60B#05511bf480200178
(1725509536.2856529) can0 60B#064efc0980200194
(1725509536.285685) can0 60B#0950ac768020018b
(1725509536.2859676) can0 60C#0084a33a0220e8
(1725509536.2862892) can0 60C#018ca53a0220e8
(1725509536.286535) can0 60C#0284a33a0220e8
(1725509536.2865705) can0 60C#038ca53a0220e8
(1725509536.2868145) can0 60C#049d257b0220e8
(1725509536.2870815) can0 60C#058ca33a0220e8
(1725509536.287365) can0 60C#068ca53a0220e8
(1725509536.287816) can0 60C#098ca53a8220e8
(1725509536.288165) can0 60D#007d0fa070800605
(1725509536.2881982) can0 60D#017cefa070800705
(1725509536.2884328) can0 60D#027cefa070800505
(1725509536.288671) can0 60D#037d0fa070800505
(1725509536.2889261) can0 60D#047cefa070800505
(1725509536.2891643) can0 60D#057d0fa070800505
(1725509536.2894015) can0 60D#067d0fa070800505
(1725509536.2898295) can0 60D#097cefa070800505
(1725509536.3590539) can0 60A#08010b10
(1725509536.3591166) can0 60B#004ec3fd8020019d
(1725509536.3595753) can0 60B#014ff3f9802001a6
(1725509536.3596334) can0 60B#024f3bfb80200172
(1725509536.3600101) can0 60B#03504c1d8020018b
(1725509536.3600492) can0 60B#0459e43080202182
(1725509536.3605838) can0 60B#05511bf480200178
(1725509536.3606443) can0 60B#064efc0980200194
(1725509536.361035) can0 60B#0950ac768020018b
(1725509536.3610854) can0 60C#0084a33a0220e8
(1725509536.3615978) can0 60C#018ca53a0220e8
(1725509536.36166) can0 60C#0284a33a0220e8
(1725509536.3620446) can0 60C#038ca53a0220e8
(1725509536.3620877) can0 60C#0495257b0220e8
(1725509536.3625982) can0 60C#058ca33a0220e8
(1725509536.362661) can0 60C#068ca53a0220e8
(1725509536.3630233) can0 60C#098ca53a8220e8
(1725509536.3630648) can0 60D#007d2fa070800605
(1725509536.3635929) can0 60D#017cefa070800705
(1725509536.3636515) can0 60D#027ccfa070800505
(1725509536.3640456) can0 60D#037d0fa070800505
(1725509536.3640785) can0 60D#047d0fa070800505
(1725509536.3644238) can0 60D#057d2fa070800505
(1725509536.3647926) can0 60D#067d0fa070800505
(1725509536.3648834) can0 60D#097ccfa070800505
(1725509536.4337022) can0 60A#08010d10
(1725509536.4339774) can0 60B#004ebbfd8020019d
(1725509536.4344738) can0 60B#014ff3f9802001a6
(1725509536.434958) can0 60B#024f3bfb80200172
(1725509536.4350169) can0 60B#03504c1d8020018b
(1725509536.4354162) can0 60B#0459e42f80200182
(1725509536.4354768) can0 60B#05511bf480200176
(1725509536.435925) can0 60B#064efc0980200194
(1725509536.4359832) can0 60B#0950ac768020018b
(1725509536.4364867) can0 60C#0084a33a0220e8
(1725509536.4365482) can0 60C#018ca53a0220e8
(1725509536.4368258) can0 60C#0284a33a0220e8
(1725509536.4368966) can0 60C#038ca53a0220e8
(1725509536.437141) can0 60C#0495256a8220e8
(1725509536.4371793) can0 60C#058ca53a0220c8
(1725509536.4374208) can0 60C#068ca53a0220e8
(1725509536.4376647) can0 60C#098ca53a8220e8
(1725509536.4379606) can0 60D#007d4fa070800605
(1725509536.4382017) can0 60D#017cefa070800705
(1725509536.4384377) can0 60D#027ccfa070800505
(1725509536.4386742) can0 60D#037d0fa070800505
(1725509536.4391177) can0 60D#047d2fa070800505
(1725509536.4393606) can0 60D#057d2fa070800505
(1725509536.4395974) can0 60D#067d0fa070800505
(1725509536.4398322) can0 60D#097cefa070800505
(1725509536.508695) can0 60A#08010f10
(1725509536.5089715) can0 60B#004ebbfd8020019d
(1725509536.509477) can0 60B#014ff3f9802001a6
(1725509536.509942) can0 60B#024f3bfb80200172
(1725509536.5100005) can0 60B#03504c1d8020018b
(1725509536.5104768) can0 60B#0459e42f80200182
(1725509536.5105357) can0 60B#05511bf480200173
(1725509536.5109723) can0 60B#064efc0980200194
(1725509536.5110312) can0 60B#0950ac778020018b
(1725509536.5115664) can0 60C#0084a33a0220e8
(1725509536.5116282) can0 60C#018ca53a0220e8
(1725509536.5116587) can0 60C#0284a33a0220e8
(1725509536.5119426) can0 60C#038ca53a0220e8
(1725509536.511988) can0 60C#0495256a8220e8
(1725509536.5124896) can0 60C#058ca53a8220c8
(1725509536.512979) can0 60C#068ca53a0220e8
(1725509536.5130408) can0 60C#098ca53a8220e8
(1725509536.5135624) can0 60D#007d6fa070800605
(1725509536.513621) can0 60D#017cefa070800705
(1725509536.513924) can0 60D#027cafa070800505
(1725509536.513956) can0 60D#037d0fa070800505
(1725509536.5141897) can0 60D#047d2fa070800505
(1725509536.514222) can0 60D#057d2fa070800505
(1725509536.5146487) can0 60D#067d0fa070800505
(1725509536.5149584) can0 60D#097d0fa070800505
(1725509536.5836973) can0 60A#08011110
(1725509536.583973) can0 60B#004ebbfd8020019d
(1725509536.5844734) can0 60B#014ffbf9802001a6
(1725509536.5849504) can0 60B#024f3bfb80200172
(1725509536.5850093) can0 60B#03504c1d8020018b
(1725509536.5854845) can0 60B#0459e42f80200182
(1725509536.5855436) can0 60B#05511bf480200172
(1725509536.586011) can0 60B#064efc0980200194
(1725509536.5860696) can0 60B#0950ac778020018b
(1725509536.5865889) can0 60C#0084a33a0220e8
(1725509536.5866508) can0 60C#018ca53a0220e8
(1725509536.5866811) can0 60C#0284a33a0220e8
(1725509536.5869765) can0 60C#038ca53a0220e8
(1725509536.5870147) can0 60C#0495256a8220e8
(1725509536.5874863) can0 60C#058ca53a8220c8
(1725509536.5879903) can0 60C#068ca53a0220e8
(1725509536.588059) can0 60C#098ca53a8220e8
(1725509536.5885525) can0 60D#007d8fa070800605
(1725509536.588611) can0 60D#017cefa070800705
(1725509536.5889213) can0 60D#027c8fa070800505
(1725509536.5889542) can0 60D#037d0fa070800505
(1725509536.5893815) can0 60D#047d2fa070800505
(1725509536.589827) can0 60D#057d2fa070800505
(1725509536.5899389) can0 60D#067d0fa070800505
(1725509536.5903554) can0 60D#097d0fa070800505
(1725509536.6586986) can0 60A#08011310
(1725509536.6589725) can0 60B#004ebbfd8020019d
(1725509536.6594734) can0 60B#014ffbf9802001a7
(1725509536.6599448) can0 60B#024f3bfb80200172
(1725509536.6600037) can0 60B#03504c1d8020018b
(1725509536.6604784) can0 60B#0459e42f80200181
(1725509536.6605363) can0 60B#05511bf4801fe171
(1725509536.6609788) can0 60B#064efc0980200194
(1725509536.6610382) can0 60B#0950ac778020018a
(1725509536.6615922) can0 60C#0084a33a0220e8
(1725509536.6616542) can0 60C#018ca53a0220e8
(1725509536.6616845) can0 60C#0284a33a0220e8
(1725509536.6619558) can0 60C#038ca53a0220e8
(1725509536.6619935) can0 60C#0495256a8220e8
(1725509536.6624913) can0 60C#058ca53a8220c8
(1725509536.662981) can0 60C#068ca53a0220e8
(1725509536.6630435) can0 60C#098ca53a8220e8
(1725509536.663558) can0 60D#007dafa070800605
(1725509536.663616) can0 60D#017cefa070800705
(1725509536.6639187) can0 60D#027c8fa070800505
(1725509536.663952) can0 60D#037d0fa070800505
(1725509536.6643937) can0 60D#047d2fa070800505
(1725509536.6648235) can0 60D#057d2fa070800505
(1725509536.6649344) can0 60D#067d0fa070800505
(1725509536.6653464) can0 60D#097d2fa070800505
(1725509536.7287745) can0 60A#08011510
(1725509536.7291033) can0 60B#004ebbfd8020019d
(1725509536.7291417) can0 60B#014ffbf9802001a7
(1725509536.7293806) can0 60B#024f3bfb80200172
(1725509536.7296197) can0 60B#03504c1d8020018b
(1725509536.7298768) can0 60B#0459e42f80200181
(1725509536.7301433) can0 60B#05511bf3801fe170
(1725509536.730411) can0 60B#064efc0980200194
(1725509536.730649) can0 60B#0950ac778020018b
(1725509536.7309475) can0 60C#0084a33a0220e8
(1725509536.7311933) can0 60C#018ca53a0220e8
(1725509536.7314396) can0 60C#0284a33a0220e8
(1725509536.7316825) can0 60C#038ca53a0220e8
(1725509536.7319274) can0 60C#0495255a8220e8
(1725509536.7321723) can0 60C#058ce53a8220c8
(1725509536.7324183) can0 60C#068ca53a0220e8
(1725509536.7326615) can0 60C#098ca53a8220e8
(1725509536.7329159) can0 60D#007dcfa070800605
(1725509536.7331579) can0 60D#017cefa070800705
(1725509536.7335875) can0 60D#027c8fa070800505
(1725509536.7338228) can0 60D#037d0fa070800505
(1725509536.734082) can0 60D#047d2fa070800505
(1725509536.734361) can0 60D#057d0fa070800505
(1725509536.7345998) can0 60D#067d0fa070800505
(1725509536.7348375) can0 60D#097d2fa070800505
(1725509536.8036962) can0 60A#08011710
(1725509536.8039706) can0 60B#004ebbfd8020019d
(1725509536.8045206) can0 60B#014ffbf9802001a7
(1725509536.8049908) can0 60B#024f3bfb80200173
(1725509536.8050494) can0 60B#03504c1d8020018b
(1725509536.8055613) can0 60B#0459e42f80200180
(1725509536.805619) can0 60B#05511bf4801fe172
(1725509536.8059251) can0 60B#064efc0980200194
(1725509536.805958) can0 60B#0950ac768020018b
(1725509536.8064113) can0 60C#0084a33a0220e8
(1725509536.8064737) can0 60C#018ca53a0220e8
(1725509536.8069317) can0 60C#0284a33a0220e8
(1725509536.806994) can0 60C#038ca53a0220e8
(1725509536.8074856) can0 60C#0495255a8220e8
(1725509536.807548) can0 60C#058ca53a0220e8
(1725509536.8080072) can0 60C#068ca53a0220e8
(1725509536.8080692) can0 60C#098ca53a8220e8
(1725509536.8083682) can0 60D#007dcfa070800605
(1725509536.8084009) can0 60D#017cefa070800705
(1725509536.8086343) can0 60D#027cafa070800505
(1725509536.8089097) can0 60D#037d0fa070800505
(1725509536.8091621) can0 60D#047d0fa070800505
(1725509536.8094015) can0 60D#057cafa070800505
(1725509536.8096378) can0 60D#067d0fa070800505
(1725509536.8098962) can0 60D#097d2fa070800505
(1725509536.8789217) can0 60A#08011910
(1725509536.8794343) can0 60B#004ebbfd8020019d
(1725509536.8796852) can0 60B#014ffbf9802001a7
(1725509536.8824131) can0 60B#024f3bfb80200173
(1725509536.882472) can0 60B#03504c1d8020018b
(1725509536.8824978) can0 60B#0459e42f80200180
(1725509536.882522) can0 60B#05511bf480200174
(1725509536.8825455) can0 60B#064efc0980200194
(1725509536.8825693) can0 60B#0950ac768020018b
(1725509536.8826063) can0 60C#0084a33a0220e8
(1725509536.8826385) can0 60C#018ca53a0220e8
(1725509536.8852944) can0 60C#0284a33a0220e8
(1725509536.8853571) can0 60C#038ca53a0220e8
(1725509536.8853886) can0 60C#0495255a0220e8
(1725509536.8854167) can0 60C#058ca53a0220e8
(1725509536.8854444) can0 60C#068ca53a0220e8
(1725509536.8854725) can0 60C#098ca53a8220e8
(1725509536.8855004) can0 60D#007defa070800605
(1725509536.885526) can0 60D#017cefa070800705
(1725509536.8855498) can0 60D#027cafa070800505
(1725509536.8855724) can0 60D#037d0fa070800505
(1725509536.8855953) can0 60D#047d0fa070800505
(1725509536.8856187) can0 60D#057c8fa070800505
(1725509536.8859494) can0 60D#067d0fa070800505
(1725509536.8859825) can0 60D#097d2fa070800505
(1725509536.9489348) can0 60A#08011b10
(1725509536.949361) can0 60B#004ebbfd8020019d
(1725509536.9494007) can0 60B#014ffbf9802001a7
(1725509536.9496996) can0 60B#024f3bfb80200173
(1725509536.9500823) can0 60B#03504c1d8020018b
(1725509536.9501276) can0 60B#0459e42f80200180
(1725509536.9505725) can0 60B#05511bf480200175
(1725509536.9509397) can0 60B#064efc0980200194
(1725509536.9509726) can0 60B#0950ac778020018b
(1725509536.951529) can0 60C#0084a33a0220e8
(1725509536.952039) can0 60C#018ca53a0220e8
(1725509536.9521008) can0 60C#0284a33a0220e8
(1725509536.9521313) can0 60C#038ca53a0220e8
(1725509536.9526174) can0 60C#0495255a0220e8
(1725509536.9526796) can0 60C#058ca53a0220e8
(1725509536.9530551) can0 60C#068ca53a0220e8
(1725509536.9530976) can0 60C#098ca53a8220e8
(1725509536.9535983) can0 60D#007dcfa070800605
(1725509536.9536564) can0 60D#017cefa070800705
(1725509536.9540753) can0 60D#027cefa070800505
(1725509536.9541137) can0 60D#037d0fa070800505
(1725509536.9545944) can0 60D#047d0fa070800505
(1725509536.954651) can0 60D#057cafa070800505
(1725509536.9550514) can0 60D#067d0fa070800505
(1725509536.9550896) can0 60D#097d2fa070800505
(1725509537.0239449) can0 60A#08011d10
(1725509537.0243654) can0 60B#004ebbfd8020019d
(1725509537.0244043) can0 60B#014ffbf9802001a7
(1725509537.0247185) can0 60B#024f3bfb80200173
(1725509537.0250463) can0 60B#03504c1d8020018b
(1725509537.0250852) can0 60B#0459e42f8020017f
(1725509537.025553) can0 60B#05511bf480200176
(1725509537.0260382) can0 60B#064efc0980200194
(1725509537.0260973) can0 60B#0950ac768020018b
(1725509537.02643) can0 60C#0084a33a0220e8
(1725509537.0264719) can0 60C#018ca53a0220e8
(1725509537.026808) can0 60C#0284a33a0220e8
(1725509537.0271955) can0 60C#038ca53a0220e8
(1725509537.0272427) can0 60C#0495255a0220e8
(1725509537.0275898) can0 60C#058ca33a0220e8
(1725509537.0276327) can0 60C#068ca53a0220e8
(1725509537.0279148) can0 60C#098ca53a8220e8
(1725509537.028346) can0 60D#007d8fa070800605
(1725509537.0288298) can0 60D#017cefa070800705
(1725509537.0289428) can0 60D#027cefa070800505
(1725509537.0294018) can0 60D#037d0fa070800505
(1725509537.029459) can0 60D#047d0fa070800505
(1725509537.0297885) can0 60D#057cafa070800505
(1725509537.029827) can0 60D#067d0fa070800505
(1725509537.0301833) can0 60D#097d2fa070800505
(1725509537.099363) can0 60A#08011f10
(1725509537.099425) can0 60B#004ebbfd8020019d
(1725509537.0999167) can0 60B#014ffbf9802001a7
(1725509537.099981) can0 60B#024f3bfb80200173
(1725509537.1005158) can0 60B#03504c1d8020018b
(1725509537.1005745) can0 60B#0459e4308020017f
(1725509537.1006002) can0 60B#05511bf480200177
(1725509537.1009355) can0 60B#064efc0980200194
(1725509537.1009681) can0 60B#0950ac768020018b
(1725509537.1012545) can0 60C#0084a33a0220e8
(1725509537.101541) can0 60C#018ca53a0220e8
(1725509537.101827) can0 60C#0284a33a0220e8
(1725509537.1018915) can0 60C#038ca53a0220e8
(1725509537.1021748) can0 60C#0495255a0220e8
(1725509537.102459) can0 60C#058ca33a0220e8
(1725509537.1027386) can0 60C#068ca53a0220e8
(1725509537.103023) can0 60C#098ca53a8220e8
(1725509537.1035113) can0 60D#007d6fa070800605
(1725509537.1035697) can0 60D#017cefa070800705
(1725509537.1040392) can0 60D#027d0fa070800505
(1725509537.1040976) can0 60D#037d0fa070800505
(1725509537.1045685) can0 60D#047d0fa070800505
(1725509537.1046271) can0 60D#057ccfa070800505
(1725509537.1049323) can0 60D#067d0fa070800505
(1725509537.1049645) can0 60D#097d0fa070800505
(1725509537.1740222) can0 60A#08012110
(1725509537.174585) can0 60B#004ebbfd8020019d
(1725509537.1746433) can0 60B#014ffbf9802001a7
(1725509537.1750116) can0 60B#024f3bfb80200172
(1725509537.1750505) can0 60B#03504c1d8020018b
(1725509537.175583) can0 60B#0459e4308020017f
(1725509537.175641) can0 60B#05511bf480200178
(1725509537.1759534) can0 60B#064efc0980200194
(1725509537.1759863) can0 60B#0950ac778020018b
(1725509537.176524) can0 60C#0084a33a0220e8
(1725509537.1770782) can0 60C#018ca53a0220e8
(1725509537.1771412) can0 60C#0284a33a0220e8
(1725509537.1771717) can0 60C#038ca53a0220e8
(1725509537.1776407) can0 60C#0495254a0220e8
(1725509537.1777022) can0 60C#058ca33a0220e8
(1725509537.1780155) can0 60C#068ca53a0220e8
(1725509537.1780527) can0 60C#098ca53a8220e8
(1725509537.178586) can0 60D#007d4fa070800605
(1725509537.178644) can0 60D#017cefa070800705
(1725509537.1789632) can0 60D#027d2fa070800505
(1725509537.1789956) can0 60D#037d0fa070800505
(1725509537.1795144) can0 60D#047d0fa070800505
(1725509537.1800492) can0 60D#057ccfa070800505
(1725509537.1801083) can0 60D#067d0fa070800505
(1725509537.180549) can0 60D#097d2fa070800505
(1725509537.2493358) can0 60A#08012310
(1725509537.249398) can0 60B#004ebbfd8020019d
(1725509537.249839) can0 60B#014ffbf9802001a7
(1725509537.2499347) can0 60B#024f3bfb80200173
(1725509537.250406) can0 60B#03504c1d8020018b
(1725509537.250469) can0 60B#0459e4308020017f
(1725509537.2507734) can0 60B#05511bf480200178
(1725509537.2508063) can0 60B#064efc0980200194
(1725509537.2510812) can0 60B#0950ac778020018b
(1725509537.2514138) can0 60C#0084a33a0220e8
(1725509537.2514498) can0 60C#018ca53a0220e8
(1725509537.2517283) can0 60C#0284a33a0220e8
(1725509537.252014) can0 60C#038ca53a0220e8
(1725509537.252526) can0 60C#0495254a0220e8
(1725509537.2530472) can0 60C#058ca33a0220e8
(1725509537.2531092) can0 60C#068ca53a0220e8
(1725509537.2531397) can0 60C#098ca53a8220e8
(1725509537.2536132) can0 60D#007d4fa070800605
(1725509537.2536714) can0 60D#017cefa070800705
(1725509537.2539756) can0 60D#027d2fa070800505
(1725509537.254008) can0 60D#037d0fa070800505
(1725509537.2545118) can0 60D#047cefa070800505
(1725509537.2550054) can0 60D#057cefa070800505
(1725509537.2550645) can0 60D#067d0fa070800505
(1725509537.2555945) can0 60D#097d4fa070800505
(1725509537.323913) can0 60A#08012510
(1725509537.3241858) can0 60B#004ebbfd8020019d
(1725509537.3244264) can0 60B#014ffbf9802001a7
(1725509537.3246648) can0 60B#024f3bfb80200172
(1725509537.3249507) can0 60B#03504c1d8020018b
(1725509537.3251956) can0 60B#0459e43080200180
(1725509537.3254342) can0 60B#05511bf480200179
(1725509537.325672) can0 60B#064efc0980200194
(1725509537.3259234) can0 60B#0950ac778020018a
(1725509537.326169) can0 60C#0084a33a0220e8
(1725509537.3264122) can0 60C#018ca33a0220e8
(1725509537.3266585) can0 60C#0284a33a0220e8
(1725509537.3269157) can0 60C#038ca53a0220e8
(1725509537.3271623) can0 60C#048ce54a0220e8
(1725509537.3274086) can0 60C#058ca33a0220e8
(1725509537.327651) can0 60C#068ca53a0220e8
(1725509537.3279107) can0 60C#098ca53a8220e8
(1725509537.3281596) can0 60D#007d6fa070800605
(1725509537.3283956) can0 60D#017cefa070800705
(1725509537.328821) can0 60D#027d2fa070800505
(1725509537.329085) can0 60D#037d0fa070800505
(1725509537.329361) can0 60D#047cefa070800505
(1725509537.3295965) can0 60D#057d0fa070800505
(1725509537.3298311) can0 60D#067d0fa070800505
(1725509537.330102) can0 60D#097d2fa070800505
(1725509537.398967) can0 60A#08012710
(1725509537.399488) can0 60B#004ebbfd8020019d
(1725509537.4000154) can0 60B#014ffbf9802001a6
(1725509537.4000669) can0 60B#024f3bfb80200172
(1725509537.400572) can0 60B#03504c1d8020018b
(1725509537.4007893) can0 60B#0459e43080200180
(1725509537.4008152) can0 60B#05511bf480200179
(1725509537.4036582) can0 60B#064efc0980200194
(1725509537.4037175) can0 60B#0950ac778020018a
(1725509537.4037564) can0 60C#0084a33a0220e8
(1725509537.403787) can0 60C#018ca33a0220e8
(1725509537.403816) can0 60C#0284a33a0220e8
(1725509537.4038718) can0 60C#038ca53a0220e8
(1725509537.403908) can0 60C#048ce54a0220e8
(1725509537.4039376) can0 60C#058ca33a0220e8
(1725509537.4039664) can0 60C#068ca53a0220e8
(1725509537.407002) can0 60C#098ca53a8220e8
(1725509537.4070625) can0 60D#007d6fa070800605
(1725509537.4070897) can0 60D#017cefa070800705
(1725509537.4071143) can0 60D#027d2fa070800505
(1725509537.4071383) can0 60D#037d0fa070800505
(1725509537.4071631) can0 60D#047d0fa070800505
(1725509537.4071872) can0 60D#057d0fa070800505
(1725509537.4072108) can0 60D#067d0fa070800505
(1725509537.407234) can0 60D#097cefa070800505
(1725509537.4690197) can0 60A#08012910
(1725509537.4695919) can0 60B#004ebbfd8020019d
(1725509537.46965) can0 60B#014ffbf9802001a6
(1725509537.4699585) can0 60B#024f3bfb80200172
(1725509537.4699934) can0 60B#03504c1d8020018b
(1725509537.4705083) can0 60B#0459e42f80200180
(1725509537.4709973) can0 60B#05511bf480200179
(1725509537.4710562) can0 60B#064efc0980200194
(1725509537.4715912) can0 60B#0950ac778020018a
(1725509537.471662) can0 60C#0084a33a0220e8
(1725509537.471974) can0 60C#018ca53a0220e8
(1725509537.4720106) can0 60C#0284a33a0220e8
(1725509537.4720438) can0 60C#038ca53a0220e8
(1725509537.4725206) can0 60C#048ce54a0220e8
(1725509537.473025) can0 60C#058ca33a0220e8
(1725509537.4730864) can0 60C#068ca53a0220e8
(1725509537.4736097) can0 60C#098ca53a8220e8
(1725509537.4736707) can0 60D#007d8fa070800705
(1725509537.4739752) can0 60D#017cefa070800705
(1725509537.4740083) can0 60D#027d2fa070800505
(1725509537.4745107) can0 60D#037d0fa070800505
(1725509537.4750543) can0 60D#047d2fa070800505
