(1725511959.417730) can0 60D#017ccfa070800d05
(1725511959.417814) can0 60D#027d0fa070800805
(1725511959.417828) can0 60D#037d0fa070800505
(1725511959.474410) can0 60A#0603dd10
(1725511959.474889) can0 60B#004ec3fd8020019c
(1725511959.474938) can0 60B#014f33fb8020018d
(1725511959.475763) can0 60B#024ffbf9802001a5
(1725511959.475807) can0 60B#03504c1d80200189
(1725511959.478572) can0 60B#0450b4768020018c
(1725511959.478626) can0 60B#054efc0980200193
(1725511959.478650) can0 60C#0084633a0220e8
(1725511959.478666) can0 60C#0184a33a0220e8
(1725511959.478680) can0 60C#028ca33a0220e8
(1725511959.478693) can0 60C#038ca53a0220e8
(1725511959.478708) can0 60C#0494a53a8220e8
(1725511959.478721) can0 60C#058ca53a0220e8
(1725511959.478734) can0 60D#007d4fa070800605
(1725511959.481422) can0 60D#017d2fa070800d05
(1725511959.481483) can0 60D#027d0fa070800805
(1725511959.481495) can0 60D#037d0fa070800505
(1725511959.481506) can0 60D#047defa070800505
(1725511959.481518) can0 60D#057d0fa070800505
(1725511959.544443) can0 60A#0603df10
(1725511959.544933) can0 60B#004ec3fd8020019c
(1725511959.544972) can0 60B#014f33fb8020018c
(1725511959.545408) can0 60B#024ffbf9802001a5
(1725511959.545447) can0 60B#03504c1d80200189
(1725511959.545902) can0 60B#0450ac768020018d
(1725511959.546221) can0 60B#054efc0980200193
(1725511959.546244) can0 60C#0084633a0220e8
(1725511959.546689) can0 60C#0184a33a0220e8
(1725511959.546730) can0 60C#028ca33a0220e8
(1725511959.547023) can0 60C#038ca53a0220e8
(1725511959.547041) can0 60C#0494a53a8220e8
(1725511959.547305) can0 60C#058ca53a0220e8
(1725511959.547724) can0 60D#007d4fa070800605
(1725511959.547997) can0 60D#017d0fa070800d05
(1725511959.548416) can0 60D#027d0fa070800805
(1725511959.548903) can0 60D#037d0fa070800505
(1725511959.548942) can0 60D#047defa070800505
(1725511959.549335) can0 60D#057d0fa070800505
(1725511959.619628) can0 60A#0603e110
(1725511959.619936) can0 60B#004ec3fd8020019c
(1725511959.619953) can0 60B#014f33fb8020018c
(1725511959.620368) can0 60B#024ffbf9802001a5
(1725511959.620830) can0 60B#03504c1d80200189
(1725511959.620894) can0 60B#0450ac778020018d
(1725511959.621330) can0 60B#054efc0980200193
(1725511959.621408) can0 60C#0084a33a0220e8
(1725511959.621874) can0 60C#0184a33a0220e8
(1725511959.621917) can0 60C#028ca33a0220e8
(1725511959.622360) can0 60C#038ca53a0220e8
(1725511959.622400) can0 60C#0494a53a8220e8
(1725511959.622885) can0 60C#058ca53a0220e8
(1725511959.622925) can0 60D#007d2fa070800605
(1725511959.623360) can0 60D#017cefa070800d05
(1725511959.623398) can0 60D#027d0fa070800805
(1725511959.623861) can0 60D#037cefa070800505
(1725511959.623900) can0 60D#047e0fa070800505
(1725511959.624161) can0 60D#057d0fa070800505
(1725511959.689559) can0 60A#0603e310
(1725511959.690038) can0 60B#004ec3fd8020019c
(1725511959.690078) can0 60B#014f33fb8020018c
(1725511959.690478) can0 60B#024ffbf9802001a5
(1725511959.690516) can0 60B#03504c1d80200189
(1725511959.690814) can0 60B#0450ac768020018d
(1725511959.691229) can0 60B#054efc0980200193
(1725511959.691276) can0 60C#0084a33a0220e8
(1725511959.691715) can0 60C#0184a33a0220e8
(1725511959.692182) can0 60C#028ca33a0220e8
(1725511959.692222) can0 60C#038ca53a0220e8
(1725511959.692670) can0 60C#0494e73a8220cc
(1725511959.692711) can0 60C#058ca53a0220e8
(1725511959.693156) can0 60D#007d4fa070800605
(1725511959.693195) can0 60D#017cefa070800d05
(1725511959.693627) can0 60D#027d0fa070800805
(1725511959.693666) can0 60D#037cefa070800505
(1725511959.694153) can0 60D#047e0fa070800505
(1725511959.694191) can0 60D#057d0fa070800505
(1725511959.759792) can0 60A#0603e510
(1725511959.759833) can0 60B#004ec3fd8020019c
(1725511959.760152) can0 60B#014f33fb8020018c
(1725511959.760167) can0 60B#024ffbf9802001a5
(1725511959.760427) can0 60B#03504c1d80200189
(1725511959.760791) can0 60B#0450ac778020018d
(1725511959.761284) can0 60B#054efc0980200193
(1725511959.761332) can0 60C#0084633a0220e8
(1725511959.761773) can0 60C#0184a33a0220e8
(1725511959.761813) can0 60C#028ca33a0220e8
(1725511959.762289) can0 60C#038ca53a0220e8
(1725511959.762360) can0 60C#0494e73a8220e8
(1725511959.762650) can0 60C#058ca53a0220e8
(1725511959.762667) can0 60D#007d4fa070800605
(1725511959.763001) can0 60D#017d0fa070800d05
(1725511959.763288) can0 60D#027d0fa070800705
(1725511959.763552) can0 60D#037cefa070800505
(1725511959.763979) can0 60D#047defa070800505
(1725511959.764408) can0 60D#057d0fa070800505
(1725511959.834696) can0 60A#0603e710
(1725511959.835147) can0 60B#004ec3fd8020019c
(1725511959.835185) can0 60B#014f33fb8020018c
(1725511959.835477) can0 60B#024ffbf9802001a5
(1725511959.835492) can0 60B#03504c1d80200189
(1725511959.835753) can0 60B#0450b4778020018d
(1725511959.836032) can0 60B#054efc0980200193
(1725511959.836464) can0 60C#0084633a0220e8
(1725511959.836958) can0 60C#0184a33a0220e8
(1725511959.836997) can0 60C#028ca33a0220e8
(1725511959.837443) can0 60C#038ca53a0220e8
(1725511959.837488) can0 60C#0494e73a8220e8
(1725511959.837929) can0 60C#058ca53a0220e8
(1725511959.837970) can0 60D#007d6fa070800605
(1725511959.838404) can0 60D#017d0fa070800d05
(1725511959.838443) can0 60D#027d0fa070800705
(1725511959.838660) can0 60D#037cefa070800505
(1725511959.838675) can0 60D#047defa070800505
(1725511959.839134) can0 60D#057d0fa070800505
(1725511959.904736) can0 60A#0603e910
(1725511959.904777) can0 60B#004ec3fd8020019c
(1725511959.905147) can0 60B#014f33fb8020018c
(1725511959.905611) can0 60B#024ffbf9802001a5
(1725511959.905650) can0 60B#03504c1d80200189
(1725511959.905956) can0 60B#0450b4778020018d
(1725511959.905972) can0 60B#054efc0980200193
(1725511959.906394) can0 60C#0084633a0220e8
(1725511959.906884) can0 60C#0184a33a0220e8
(1725511959.906924) can0 60C#028ca33a0220e8
(1725511959.907370) can0 60C#038ca53a0220e8
(1725511959.907410) can0 60C#0494e73a8220e8
(1725511959.907821) can0 60C#058ca53a0220e8
(1725511959.907882) can0 60D#007d6fa070800605
(1725511959.908323) can0 60D#017d2fa070800d05
(1725511959.908813) can0 60D#027d0fa070800705
(1725511959.908883) can0 60D#037cefa070800505
(1725511959.909324) can0 60D#047dcfa070800505
(1725511959.909363) can0 60D#057d0fa070800505
(1725511959.974706) can0 60A#0603eb10
(1725511959.975000) can0 60B#004ec3fd8020019c
(1725511959.975016) can0 60B#014f33fb8020018c
(1725511959.975380) can0 60B#024ffbf9802001a5
(1725511959.975782) can0 60B#03504c1d80200189
(1725511959.975821) can0 60B#0450b4778020018c
(1725511959.976282) can0 60B#054efc0980200193
(1725511959.976749) can0 60C#0084633a0220e8
(1725511959.976790) can0 60C#0184a33a0220e8
(1725511959.977026) can0 60C#028ca33a0220e8
(1725511959.977043) can0 60C#038ca53a0220e8
(1725511959.977232) can0 60C#0494e73a8220e8
(1725511959.977464) can0 60C#058ca53a0220e8
(1725511959.977685) can0 60D#007d6fa070800605
(1725511959.977915) can0 60D#017d2fa070800d05
(1725511959.978688) can0 60D#027d0fa070800705
(1725511959.978727) can0 60D#037d0fa070800505
(1725511959.978996) can0 60D#047dafa070800505
(1725511959.979011) can0 60D#057d0fa070800505
(1725511960.049596) can0 60A#0603ed10
(1725511960.050097) can0 60B#004ec3fd8020019c
(1725511960.050136) can0 60B#014f33fb8020018c
(1725511960.050573) can0 60B#024ffbf9802001a5
(1725511960.050612) can0 60B#03504c1d80200189
(1725511960.051066) can0 60B#0450b4778020018c
(1725511960.051529) can0 60B#054efc0980200193
(1725511960.051577) can0 60C#0084633a0220e8
(1725511960.052023) can0 60C#0184a33a0220e8
(1725511960.052062) can0 60C#028ca33a0220e8
(1725511960.052501) can0 60C#038ca53a0220e8
(1725511960.052541) can0 60C#0494e53a8220e8
(1725511960.052994) can0 60C#058ca53a0220e8
(1725511960.053035) can0 60D#007d8fa070800605
(1725511960.053469) can0 60D#017d4fa070800d05
(1725511960.053508) can0 60D#027d0fa070800705
(1725511960.053961) can0 60D#037cefa070800505
(1725511960.053998) can0 60D#047dafa070800505
(1725511960.054439) can0 60D#057d0fa070800505
(1725511960.119709) can0 60A#0603ef10
(1725511960.120115) can0 60B#004ec3fd8020019c
(1725511960.120154) can0 60B#014f33fb8020018c
(1725511960.120525) can0 60B#024ffbf9802001a5
(1725511960.120922) can0 60B#03504c1d80200189
(1725511960.120962) can0 60B#0450b4778020018b
(1725511960.121242) can0 60B#054efc0980200193
(1725511960.121276) can0 60C#0084633a0220e8
(1725511960.121519) can0 60C#0184a33a0220e8
(1725511960.121908) can0 60C#028ca33a0220e8
(1725511960.122148) can0 60C#038ca53a0220e8
(1725511960.122545) can0 60C#0494e53a8220e8
(1725511960.123077) can0 60C#058ca53a0220e8
(1725511960.123116) can0 60D#007d6fa070800605
(1725511960.123128) can0 60D#017d4fa070800d05
(1725511960.123522) can0 60D#027d0fa070800705
(1725511960.123959) can0 60D#037cefa070800505
(1725511960.123998) can0 60D#047d6fa070800505
(1725511960.124232) can0 60D#057d0fa070800505
(1725511960.189709) can0 60A#0603f110
(1725511960.189974) can0 60B#004ec3fd8020019c
(1725511960.189993) can0 60B#014f2bfb8020018c
(1725511960.190223) can0 60B#024ffbf9802001a5
(1725511960.190810) can0 60B#03504c1d80200189
(1725511960.191180) can0 60B#0450b4778020018b
(1725511960.191207) can0 60B#054efc0980200193
(1725511960.191630) can0 60C#0084633a0220e8
(1725511960.191971) can0 60C#0184a33a0220e8
(1725511960.191990) can0 60C#028ca33a0220e8
(1725511960.192004) can0 60C#038ca53a0220e8
(1725511960.192445) can0 60C#0494e53a8220e8
(1725511960.193073) can0 60C#058ca53a0220e8
(1725511960.193133) can0 60D#007d8fa070800605
(1725511960.193362) can0 60D#017d6fa070800d05
(1725511960.193377) can0 60D#027d0fa070800705
(1725511960.193614) can0 60D#037cefa070800505
(1725511960.193855) can0 60D#047d6fa070800505
(1725511960.194098) can0 60D#057d0fa070800505
(1725511960.259473) can0 60A#0603f310
(1725511960.259684) can0 60B#004ec3fd8020019c
(1725511960.260057) can0 60B#014f2bfb8020018c
(1725511960.260244) can0 60B#024ffbf9802001a5
(1725511960.260426) can0 60B#03504c1d80200189
(1725511960.260767) can0 60B#0450b4778020018c
(1725511960.260958) can0 60B#054efc0980200193
(1725511960.261304) can0 60C#0084633a0220e8
(1725511960.261490) can0 60C#0184a33a0220e8
(1725511960.261675) can0 60C#028ca33a0220e8
(1725511960.262224) can0 60C#038ca53a0220e8
(1725511960.262637) can0 60C#0494e53a8220e8
(1725511960.262677) can0 60C#058ca53a0220e8
(1725511960.262910) can0 60D#007d8fa070800605
(1725511960.263261) can0 60D#017d6fa070800d05
(1725511960.263656) can0 60D#027d0fa070800705
(1725511960.263694) can0 60D#037d0fa070800505
(1725511960.263962) can0 60D#047d4fa070800505
(1725511960.264315) can0 60D#057d0fa070800505
(1725511960.334469) can0 60A#0603f510
(1725511960.334686) can0 60B#004ec3fd8020019c
(1725511960.335212) can0 60B#014f2bfb8020018c
(1725511960.335610) can0 60B#024ffbf9802001a5
(1725511960.335650) can0 60B#03504c1d80200189
(1725511960.335891) can0 60B#0450b4778020018c
(1725511960.336121) can0 60B#054efc0980200193
(1725511960.336487) can0 60C#0084633a0220e8
(1725511960.336916) can0 60C#0184a33a0220e8
(1725511960.336957) can0 60C#028ca33a0220e8
(1725511960.337334) can0 60C#038ca53a0220e8
(1725511960.337737) can0 60C#0494e53a8220e8
(1725511960.337777) can0 60C#058ca53a0220e8
(1725511960.338012) can0 60D#007dafa070800605
(1725511960.338028) can0 60D#017d6fa070800d05
(1725511960.338374) can0 60D#027d0fa070800705
(1725511960.338564) can0 60D#037d0fa070800505
(1725511960.338963) can0 60D#047d2fa070800505
(1725511960.339147) can0 60D#057d0fa070800505
(1725511960.404472) can0 60A#0603f710
(1725511960.404682) can0 60B#004ebbfd8020019c
(1725511960.405048) can0 60B#014f2bfb8020018c
(1725511960.405282) can0 60B#024ffbf9802001a5
(1725511960.405672) can0 60B#03504c1d80200189
(1725511960.406032) can0 60B#0450b4778020018c
(1725511960.406435) can0 60B#054efc0980200193
(1725511960.406482) can0 60C#0084633a0220e8
(1725511960.406725) can0 60C#0184a33a0220e8
(1725511960.407108) can0 60C#028ca33a0220e8
(1725511960.407534) can0 60C#038ca53a0220e8
(1725511960.407574) can0 60C#0494e73a8220cc
(1725511960.407991) can0 60C#058ca53a0220e8
(1725511960.408032) can0 60D#007dafa070800605
(1725511960.408268) can0 60D#017d6fa070800d05
(1725511960.408524) can0 60D#027d0fa070800705
(1725511960.408935) can0 60D#037d0fa070800505
(1725511960.409357) can0 60D#047d2fa070800505
(1725511960.409396) can0 60D#057d0fa070800505
(1725511960.474626) can0 60A#0603f910
(1725511960.474889) can0 60B#004ec3fd8020019c
(1725511960.475075) can0 60B#014f2bfb8020018c
(1725511960.475259) can0 60B#024ffbf9802001a5
(1725511960.475599) can0 60B#03504c1d80200189
(1725511960.475781) can0 60B#0450b4778020018c
(1725511960.476127) can0 60B#054efc0980200193
(1725511960.476314) can0 60C#0084633a0220e8
(1725511960.476499) can0 60C#0184a33a0220e8
(1725511960.476886) can0 60C#028ca33a0220e8
(1725511960.477242) can0 60C#038ca53a0220e8
(1725511960.477644) can0 60C#0494e73a8220cc
(1725511960.477890) can0 60C#058ca53a0220e8
(1725511960.477908) can0 60D#007dafa070800605
(1725511960.478255) can0 60D#017d6fa070800d05
(1725511960.478524) can0 60D#027d0fa070800705
(1725511960.478919) can0 60D#037d0fa070800505
(1725511960.479316) can0 60D#047d2fa070800505
(1725511960.479354) can0 60D#057d0fa070800505
(1725511960.549629) can0 60A#0603fb10
(1725511960.549889) can0 60B#004ebbfd8020019c
(1725511960.550113) can0 60B#014f2bfb8020018c
(1725511960.550476) can0 60B#024ffbf9802001a5
(1725511960.550712) can0 60B#03504c1d80200189
(1725511960.550959) can0 60B#0450b4778020018b
(1725511960.551142) can0 60B#054efc0980200193
(1725511960.551332) can0 60C#0084633a0220e8
(1725511960.551567) can0 60C#0184a33a0220e8
(1725511960.551832) can0 60C#028ca33a0220e8
(1725511960.552247) can0 60C#038ca53a0220e8
(1725511960.552651) can0 60C#0494e73a8220e8
(1725511960.553118) can0 60C#058ca53a0220e8
(1725511960.553138) can0 60D#007d8fa070800605
(1725511960.553520) can0 60D#017d6fa070800d05
(1725511960.553559) can0 60D#027d0fa070800705
(1725511960.553977) can0 60D#037d0fa070800505
(1725511960.554257) can0 60D#047d2fa070800505
(1725511960.554276) can0 60D#057d0fa070800505
(1725511960.619637) can0 60A#0603fd10
(1725511960.619891) can0 60B#004ebbfd8020019c
(1725511960.620077) can0 60B#014f2bfb8020018c
(1725511960.620285) can0 60B#024ffbf9802001a5
(1725511960.620826) can0 60B#03504c1d8020018a
(1725511960.620881) can0 60B#0450b4778020018b
(1725511960.621065) can0 60B#054efc0980200193
(1725511960.621415) can0 60C#0084633a0220e8
(1725511960.621601) can0 60C#0184a33a0220e8
(1725511960.621897) can0 60C#028ca33a0220e8
(1725511960.622086) can0 60C#038ca53a0220e8
(1725511960.622432) can0 60C#0494e73a8220e8
(1725511960.622617) can0 60C#058ca53a0220e8
(1725511960.622802) can0 60D#007d8fa070800605
(1725511960.623145) can0 60D#017d6fa070800d05
(1725511960.623487) can0 60D#027d0fa070800705
(1725511960.623668) can0 60D#037d0fa070800505
(1725511960.624096) can0 60D#047d0fa070800505
(1725511960.624457) can0 60D#057d0fa070800505
(1725511960.689961) can0 60A#0603ff10
(1725511960.690001) can0 60B#004ebbfd8020019c
(1725511960.690381) can0 60B#014f2bfb8020018c
(1725511960.690640) can0 60B#024ffbf9802001a5
(1725511960.690656) can0 60B#03504c1d8020018a
(1725511960.691040) can0 60B#0450b4778020018b
(1725511960.691423) can0 60B#054efc0980200193
(1725511960.691882) can0 60C#0084633a0220e8
(1725511960.691923) can0 60C#0184a33a0220e8
(1725511960.692334) can0 60C#028ca33a0220e8
(1725511960.692374) can0 60C#038ca53a0220e8
(1725511960.692610) can0 60C#0494e73a8220e8
(1725511960.692627) can0 60C#058ca53a0220e8
(1725511960.693319) can0 60D#007d6fa070800605
(1725511960.693357) can0 60D#017d4fa070800d05
(1725511960.693754) can0 60D#027d0fa070800705
(1725511960.694182) can0 60D#037d0fa070800505
(1725511960.694221) can0 60D#047cefa070800505
(1725511960.694471) can0 60D#057d0fa070800505
(1725511960.764767) can0 60A#06040110
(1725511960.765150) can0 60B#004ebbfd8020019c
(1725511960.765380) can0 60B#014f2bfb8020018c
(1725511960.765395) can0 60B#024ffbf9802001a5
(1725511960.765735) can0 60B#03504c1d8020018a
(1725511960.765958) can0 60B#0450b4778020018a
(1725511960.766217) can0 60B#054efc0980200193
(1725511960.766418) can0 60C#0084633a0220e8
(1725511960.766767) can0 60C#0184a33a0220e8
(1725511960.766960) can0 60C#028ca33a0220e8
(1725511960.767310) can0 60C#038ca53a0220e8
(1725511960.767494) can0 60C#0494e73a8220c8
(1725511960.767679) can0 60C#058ca53a0220e8
(1725511960.768222) can0 60D#007d6fa070800605
(1725511960.768618) can0 60D#017d6fa070800d05
(1725511960.768656) can0 60D#027d0fa070800705
(1725511960.768893) can0 60D#037cefa070800505
(1725511960.769249) can0 60D#047cefa070800505
(1725511960.769628) can0 60D#057d0fa070800505
(1725511960.834825) can0 60A#06040310
(1725511960.835274) can0 60B#004ebbfd8020019c
(1725511960.835327) can0 60B#014f2bfb8020018c
(1725511960.835576) can0 60B#024ffbf9802001a5
(1725511960.835806) can0 60B#03504c1d80200189
(1725511960.836045) can0 60B#0450b4778020018a
(1725511960.836242) can0 60B#054efc0980200193
(1725511960.836433) can0 60C#0084633a0220e8
(1725511960.836620) can0 60C#0184a33a0220e8
(1725511960.836969) can0 60C#028ca33a0220e8
(1725511960.837152) can0 60C#038ca53a0220e8
(1725511960.837507) can0 60C#0494e73a8220e8
(1725511960.837694) can0 60C#058ca53a0220e8
(1725511960.837909) can0 60D#007d8fa070800605
(1725511960.838340) can0 60D#017d6fa070800d05
(1725511960.838566) can0 60D#027d0fa070800705
(1725511960.838814) can0 60D#037cefa070800505
(1725511960.839036) can0 60D#047cefa070800505
(1725511960.839265) can0 60D#057d0fa070800505
(1725511960.904904) can0 60A#06040510
(1725511960.905306) can0 60B#004ebbfd8020019c
(1725511960.905344) can0 60B#014f2bfb8020018d
(1725511960.905591) can0 60B#024ffbf9802001a5
(1725511960.905977) can0 60B#03504c1d80200189
(1725511960.906378) can0 60B#0450b4778020018a
(1725511960.906417) can0 60B#054efc0980200193
(1725511960.906820) can0 60C#0084633a0220e8
(1725511960.906897) can0 60C#0184a33a0220e8
(1725511960.907106) can0 60C#028ca33a0220e8
(1725511960.907294) can0 60C#038ca53a0220e8
(1725511960.907482) can0 60C#0494e73a8220c8
(1725511960.907666) can0 60C#058ca53a0220e8
(1725511960.908052) can0 60D#007d6fa070800605
(1725511960.908237) can0 60D#017d6fa070800d05
(1725511960.908581) can0 60D#027d0fa070800705
(1725511960.908762) can0 60D#037d0fa070800505
(1725511960.908958) can0 60D#047cefa070800505
(1725511960.909303) can0 60D#057d0fa070800505
(1725511960.979771) can0 60A#06040710
(1725511960.980714) can0 60B#004ebbfd8020019c
(1725511960.983332) can0 60B#014f2bfb8020018d
(1725511960.983372) can0 60B#024ffbf9802001a5
(1725511960.983385) can0 60B#03504c1d80200189
(1725511960.983397) can0 60B#0450b47780200189
(1725511960.983408) can0 60B#054efc0980200193
(1725511960.983428) can0 60C#0084633a0220e8
(1725511960.983442) can0 60C#0184a33a0220e8
(1725511960.983455) can0 60C#028ca33a0220e8
(1725511960.983469) can0 60C#038ca53a0220e8
(1725511960.985976) can0 60C#0494e73a8220e8
(1725511960.986019) can0 60C#058ca53a0220e8
(1725511960.986035) can0 60D#007d6fa070800605
(1725511960.986047) can0 60D#017d6fa070800d05
(1725511960.986060) can0 60D#027d0fa070800705
(1725511960.986072) can0 60D#037d0fa070800505
(1725511960.986084) can0 60D#047d0fa070800505
(1725511960.986095) can0 60D#057d0fa070800505
(1725511961.052546) can0 60A#06040910
(1725511961.052586) can0 60B#004ebbfd8020019c
(1725511961.052598) can0 60B#014f2bfb8020018d
(1725511961.052610) can0 60B#024ffbf9802001a5
(1725511961.052621) can0 60B#03504c1d80200189
(1725511961.052633) can0 60B#0450b4778020018a
(1725511961.052644) can0 60B#054efc0980200193
(1725511961.052659) can0 60C#0084633a0220e8
(1725511961.055227) can0 60C#0184a33a0220e8
(1725511961.055269) can0 60C#028ca33a0220e8
(1725511961.055284) can0 60C#038ca53a0220e8
(1725511961.055298) can0 60C#0494e73a8220e8
(1725511961.055312) can0 60C#058ca53a0220e8
(1725511961.055326) can0 60D#007d8fa070800605
(1725511961.055338) can0 60D#017d6fa070800d05
(1725511961.055350) can0 60D#027d0fa070800705
(1725511961.055361) can0 60D#037d0fa070800505
(1725511961.055372) can0 60D#047cefa070800505
(1725511961.055384) can0 60D#057d0fa070800505
(1725511961.125070) can0 60A#06040b10
(1725511961.125550) can0 60B#004ebbfd8020019c
(1725511961.125970) can0 60B#014f2bfb8020018d
(1725511961.125989) can0 60B#024ffbf9802001a5
(1725511961.126462) can0 60B#03504c1d80200189
(1725511961.126526) can0 60B#0450b47880202189
(1725511961.126892) can0 60B#054efc0980200193
(1725511961.126922) can0 60C#0084633a0220e8
(1725511961.127363) can0 60C#0184a33a0220e8
(1725511961.127674) can0 60C#028ca33a0220e8
(1725511961.127700) can0 60C#038ca53a0220e8
(1725511961.128150) can0 60C#0494e73a8220e8
(1725511961.128183) can0 60C#058ca53a0220e8
(1725511961.129135) can0 60D#007d6fa070800605
(1725511961.132065) can0 60D#017d4fa070800d05
(1725511961.132124) can0 60D#027d0fa070800705
(1725511961.132136) can0 60D#037d0fa070800505
(1725511961.132153) can0 60D#047d0fa070800505
(1725511961.132164) can0 60D#057d0fa070800505
(1725511961.195024) can0 60A#06040d10
(1725511961.195070) can0 60B#004ebbfd8020019c
(1725511961.195881) can0 60B#014f2bfb8020018c
(1725511961.198560) can0 60B#024ffbf9802001a5
(1725511961.198616) can0 60B#03504c1d8020018a
(1725511961.198628) can0 60B#0450b4788020018a
(1725511961.198640) can0 60B#054efc0980200193
(1725511961.198665) can0 60C#0084633a0220e8
(1725511961.198680) can0 60C#0184a33a0220e8
(1725511961.198693) can0 60C#028ca33a0220e8
(1725511961.198707) can0 60C#038ca53a0220e8
(1725511961.198720) can0 60C#0494e73a8220e8
(1725511961.201340) can0 60C#058ca53a0220e8
(1725511961.201407) can0 60D#007d4fa070800605
(1725511961.201425) can0 60D#017d4fa070800d05
(1725511961.201437) can0 60D#027d0fa070800705
(1725511961.201448) can0 60D#037d0fa070800505
(1725511961.201460) can0 60D#047cefa070800505
(1725511961.201471) can0 60D#057d0fa070800505
(1725511961.265250) can0 60A#06040f10
(1725511961.265306) can0 60B#004ebbfd8020019c
(1725511961.265808) can0 60B#014f2bfb8020018c
(1725511961.266183) can0 60B#024ffbf9802001a5
(1725511961.269160) can0 60B#03504c1d8020018a
(1725511961.269200) can0 60B#0450b4778020018a
(1725511961.269212) can0 60B#054efc0980200193
(1725511961.269231) can0 60C#0084633a0220e8
(1725511961.269246) can0 60C#0184a33a0220e8
(1725511961.269259) can0 60C#028ca33a0220e8
(1725511961.269273) can0 60C#038ca53a0220e8
(1725511961.269286) can0 60C#0494e73a8220e8
(1725511961.269300) can0 60C#058ca53a0220e8
(1725511961.269312) can0 60D#007d2fa070800605
(1725511961.271913) can0 60D#017d4fa070800e05
(1725511961.271956) can0 60D#027d0fa070800705
(1725511961.271968) can0 60D#037d0fa070800505
(1725511961.271980) can0 60D#047cefa070800505
(1725511961.271991) can0 60D#057d0fa070800505
(1725511961.339799) can0 60A#06041110
(1725511961.340060) can0 60B#004ebbfd8020019c
(1725511961.340258) can0 60B#014f2bfb8020018c
(1725511961.340639) can0 60B#024ffbf9802001a5
(1725511961.340925) can0 60B#03504c1d8020018a
(1725511961.341427) can0 60B#0450b4778020018b
(1725511961.341830) can0 60B#054efc0980200193
(1725511961.341897) can0 60C#0084633a0220e8
(1725511961.342218) can0 60C#0184a33a0220e8
(1725511961.342253) can0 60C#028ca33a0220e8
(1725511961.342523) can0 60C#038ca53a0220e8
(1725511961.342783) can0 60C#0494e53a8220e8
(1725511961.343363) can0 60C#058ca53a0220e8
(1725511961.343919) can0 60D#007d0fa070800605
(1725511961.343984) can0 60D#017d4fa070800e05
(1725511961.343999) can0 60D#027d0fa070800705
(1725511961.344310) can0 60D#037d0fa070800505
(1725511961.344339) can0 60D#047cefa070800505
(1725511961.344693) can0 60D#057d0fa070800505
(1725511961.409969) can0 60A#06041310
(1725511961.410351) can0 60B#004ebbfd8020019c
(1725511961.410800) can0 60B#014f2bfb8020018d
(1725511961.410839) can0 60B#024ffbf9802001a5
(1725511961.411139) can0 60B#03504c1d80200189
(1725511961.411162) can0 60B#0450b4778020018c
(1725511961.411370) can0 60B#054efc0980200193
(1725511961.411705) can0 60C#0084633a0220e8
(1725511961.412059) can0 60C#0184a33a0220e8
(1725511961.412356) can0 60C#028ca33a0220e8
(1725511961.412382) can0 60C#038ca53a0220e8
(1725511961.412640) can0 60C#0494e53a8220e8
(1725511961.412955) can0 60C#058ca53a0220e8
(1725511961.413176) can0 60D#007cefa070800605
(1725511961.413497) can0 60D#017d4fa070800e05
(1725511961.413773) can0 60D#027d0fa070800705
(1725511961.414036) can0 60D#037d0fa070800505
(1725511961.414332) can0 60D#047d0fa070800505
(1725511961.414576) can0 60D#057d0fa070800505
(1725511961.480161) can0 60A#06041510
(1725511961.480728) can0 60B#004ebbfd8020019c
(1725511961.480795) can0 60B#014f2bfb8020018d
(1725511961.483721) can0 60B#024ffbf9802001a5
(1725511961.483769) can0 60B#03504c1d80200189
(1725511961.483782) can0 60B#0450ac778020018c
(1725511961.483793) can0 60B#054efc0980200193
(1725511961.483812) can0 60C#0084633a0220e8
(1725511961.483827) can0 60C#0184a33a0220e8
(1725511961.483858) can0 60C#028ca33a0220e8
(1725511961.483875) can0 60C#038ca53a0220e8
(1725511961.483889) can0 60C#0494a53a8220e8
(1725511961.486756) can0 60C#058ca53a0220e8
(1725511961.486797) can0 60D#007ccfa070800605
(1725511961.486809) can0 60D#017d4fa070800e05
(1725511961.486821) can0 60D#027d0fa070800705
(1725511961.486833) can0 60D#037d0fa070800505
(1725511961.486865) can0 60D#047d2fa070800505
(1725511961.486878) can0 60D#057d0fa070800505
(1725511961.554994) can0 60A#06041710
(1725511961.555379) can0 60B#004ec3fd8020019c
(1725511961.555610) can0 60B#014f2bfb8020018d
(1725511961.555626) can0 60B#024ffbf9802001a5
(1725511961.555888) can0 60B#03504c1d80200189
(1725511961.556072) can0 60B#0450ac778020018c
(1725511961.556504) can0 60B#054efc0980200193
(1725511961.557089) can0 60C#0084633a0220e8
(1725511961.560269) can0 60C#0184a33a0220e8
(1725511961.560327) can0 60C#028ca33a0220e8
(1725511961.560342) can0 60C#038ca53a0220e8
(1725511961.560357) can0 60C#0494a53a8220e8
(1725511961.560370) can0 60C#058ca53a0220e8
(1725511961.560385) can0 60D#007ccfa070800605
(1725511961.560397) can0 60D#017d6fa070800e05
(1725511961.560409) can0 60D#027d0fa070800705
(1725511961.560420) can0 60D#037d0fa070800505
(1725511961.560827) can0 60D#047d2fa070800505
(1725511961.560910) can0 60D#057d0fa070800505
(1725511961.625073) can0 60A#06041910
(1725511961.625320) can0 60B#004ec3fd8020019c
(1725511961.625519) can0 60B#014f2bfb8020018d
(1725511961.625714) can0 60B#024ffbf9802001a5
(1725511961.626174) can0 60B#03504c1d80200189
(1725511961.626801) can0 60B#0450ac778020018c
(1725511961.626828) can0 60B#054efc0980200193
(1725511961.627099) can0 60C#0084633a0220e8
(1725511961.627121) can0 60C#0184a33a0220e8
(1725511961.627336) can0 60C#028ca33a0220e8
(1725511961.627549) can0 60C#038ca53a0220e8
(1725511961.627775) can0 60C#0494e73a8220cc
(1725511961.628010) can0 60C#058ca53a0220e8
(1725511961.628278) can0 60D#007cafa070800605
(1725511961.628495) can0 60D#017d2fa070800e05
(1725511961.628698) can0 60D#027d0fa070800705
(1725511961.629062) can0 60D#037d0fa070800505
(1725511961.629311) can0 60D#047d2fa070800505
(1725511961.629521) can0 60D#057d0fa070800505
(1725511961.698148) can0 60A#06041b10
(1725511961.698212) can0 60B#004ec3fd8020019c
(1725511961.698225) can0 60B#014f2bfb8020018d
(1725511961.698236) can0 60B#024ffbf9802001a5
(1725511961.698248) can0 60B#03504c1d80200189
(1725511961.698259) can0 60B#0450ac778020018c
(1725511961.698271) can0 60B#054efc0980200193
(1725511961.698289) can0 60C#0084633a0220e8
(1725511961.698303) can0 60C#0184a33a0220e8
(1725511961.701397) can0 60C#028ca33a0220e8
(1725511961.701440) can0 60C#038ca53a0220e8
(1725511961.701455) can0 60C#0494e73a8220e8
(1725511961.701470) can0 60C#058ca53a0220e8
(1725511961.701484) can0 60D#007cafa070800605
(1725511961.701496) can0 60D#017d0fa070800e05
(1725511961.701508) can0 60D#027d0fa070800705
(1725511961.701519) can0 60D#037d0fa070800505
(1725511961.701531) can0 60D#047d0fa070800505
(1725511961.701542) can0 60D#057d0fa070800505
(1725511961.765060) can0 60A#06041d10
(1725511961.765315) can0 60B#004ec3fd8020019c
(1725511961.765610) can0 60B#014f2bfb8020018d
(1725511961.766129) can0 60B#024ffbf9802001a5
(1725511961.766724) can0 60B#03504c1d80200188
(1725511961.766797) can0 60B#0450ac778020018b
(1725511961.766809) can0 60B#054efc0980200193
(1725511961.767516) can0 60C#0084633a0220e8
(1725511961.767572) can0 60C#0184a33a0220e8
(1725511961.768042) can0 60C#028ca33a0220e8
(1725511961.768077) can0 60C#038ca53a0220e8
(1725511961.768091) can0 60C#0494e73a8220e8
(1725511961.768536) can0 60C#058ca53a0220e8
(1725511961.768575) can0 60D#007cafa070800605
(1725511961.768896) can0 60D#017cefa070800e05
(1725511961.768912) can0 60D#027d0fa070800705
(1725511961.769329) can0 60D#037d0fa070800505
(1725511961.769793) can0 60D#047d2fa070800505
(1725511961.769832) can0 60D#057d0fa070800505
(1725511961.840328) can0 60A#06041f10
(1725511961.840371) can0 60B#004ec3fd8020019c
(1725511961.840722) can0 60B#014f2bfb8020018d
(1725511961.841061) can0 60B#024ffbf9802001a5
(1725511961.841084) can0 60B#03504c1d80200188
(1725511961.841377) can0 60B#0450ac778020018c
(1725511961.841574) can0 60B#054efc0980200193
(1725511961.841775) can0 60C#0084633a0220e8
(1725511961.842103) can0 60C#0184a33a0220e8
(1725511961.842395) can0 60C#028ca33a0220e8
(1725511961.842656) can0 60C#038ca53a0220e8
(1725511961.843004) can0 60C#0494e73a8220e8
(1725511961.843264) can0 60C#058ca53a0220e8
(1725511961.843295) can0 60D#007cafa070800605
(1725511961.843589) can0 60D#017ccfa070800e05
(1725511961.844006) can0 60D#027d0fa070800705
(1725511961.844352) can0 60D#037d0fa070800505
(1725511961.844649) can0 60D#047d2fa070800505
(1725511961.844676) can0 60D#057d0fa070800505
(1725511961.910316) can0 60A#06042110
(1725511961.910379) can0 60B#004ec3fd8020019c
(1725511961.911004) can0 60B#014f2bfb8020018d
(1725511961.913708) can0 60B#024ffbf9802001a5
(1725511961.913765) can0 60B#03504c1d80200188
(1725511961.913777) can0 60B#0450ac778020018b
(1725511961.913794) can0 60B#054efc0980200193
(1725511961.913820) can0 60C#0084633a0220e8
(1725511961.913835) can0 60C#0184a33a0220e8
(1725511961.913883) can0 60C#028ca33a0220e8
(1725511961.913898) can0 60C#038ca53a0220e8
(1725511961.916738) can0 60C#0494e73a8220e8
(1725511961.916780) can0 60C#058ca53a0220e8
(1725511961.916794) can0 60D#007cafa070800605
(1725511961.916806) can0 60D#017ccfa070800e05
(1725511961.916818) can0 60D#027d0fa070800705
(1725511961.916829) can0 60D#037d0fa070800505
(1725511961.916867) can0 60D#047d2fa070800505
(1725511961.916881) can0 60D#057d0fa070800505
(1725511961.980042) can0 60A#06042310
(1725511961.980267) can0 60B#004ec3fd8020019c
(1725511961.980451) can0 60B#014f2bfb8020018d
(1725511961.980796) can0 60B#024ffbf9802001a5
(1725511961.981021) can0 60B#03504c1d80200188
(1725511961.981237) can0 60B#0450ac778020018b
(1725511961.981666) can0 60B#054efc0980200193
(1725511961.981888) can0 60C#0084633a0220e8
(1725511961.982270) can0 60C#0184a33a0220e8
(1725511961.982677) can0 60C#028ca33a0220e8
(1725511961.982716) can0 60C#038ca53a0220e8
(1725511961.982968) can0 60C#0494e53a8220e8
(1725511961.982987) can0 60C#058ca53a0220e8
(1725511961.983546) can0 60D#007cafa070800605
(1725511961.983587) can0 60D#017ccfa070800e05
(1725511961.983821) can0 60D#027d0fa070800705
(1725511961.984146) can0 60D#037d0fa070800505
(1725511961.984382) can0 60D#047d2fa070800505
(1725511961.984593) can0 60D#057d0fa070800505
(1725511962.055068) can0 60A#06042510
(1725511962.055359) can0 60B#004ec3fd8020019c
(1725511962.055774) can0 60B#014f2bfb8020018d
(1725511962.056254) can0 60B#024ffbf9802001a5
(1725511962.056292) can0 60B#03504c1d80200188
(1725511962.056520) can0 60B#0450ac778020018b
(1725511962.056536) can0 60B#054efc0980200193
(1725511962.057164) can0 60C#0084633a0220e8
(1725511962.057636) can0 60C#0184a33a0220e8
(1725511962.057676) can0 60C#028ca33a0220e8
(1725511962.057899) can0 60C#038ca53a0220e8
(1725511962.057916) can0 60C#0494e53a8220e8
(1725511962.058269) can0 60C#058ca53a0220e8
(1725511962.058737) can0 60D#007cafa070800605
(1725511962.059003) can0 60D#017cafa070800d05
(1725511962.059019) can0 60D#027d0fa070800705
(1725511962.059319) can0 60D#037d0fa070800505
(1725511962.059745) can0 60D#047d0fa070800505
(1725511962.060058) can0 60D#057d0fa070800505
(1725511962.125314) can0 60A#06042710
(1725511962.125778) can0 60B#004ec3fd8020019c
(1725511962.125816) can0 60B#014f2bfb8020018d
(1725511962.126278) can0 60B#024ffbf9802001a5
(1725511962.126317) can0 60B#03504c1d80200188
(1725511962.126582) can0 60B#0450ac778020018b
(1725511962.126597) can0 60B#054efc0980200193
(1725511962.126888) can0 60C#0084633a0220e8
(1725511962.127108) can0 60C#0184a33a0220e8
(1725511962.127376) can0 60C#028ca33a0220e8
(1725511962.127639) can0 60C#038ca53a0220e8
(1725511962.128069) can0 60C#0494e73a8220cc
(1725511962.128536) can0 60C#058ca53a0220e8
(1725511962.128580) can0 60D#007cafa070800605
(1725511962.129043) can0 60D#017cafa070800d05
(1725511962.129432) can0 60D#027d0fa070800705
(1725511962.129471) can0 60D#037d0fa070800505
(1725511962.129924) can0 60D#047d0fa070800505
(1725511962.129963) can0 60D#057d0fa070800505
(1725511962.195738) can0 60A#06042910
(1725511962.195797) can0 60B#004ec3fd8020019c
(1725511962.198492) can0 60B#014f2bfb8020018d
(1725511962.198531) can0 60B#024ffbf9802001a5
(1725511962.198659) can0 60B#03504c1d80200188
(1725511962.198674) can0 60B#0450ac778020018b
(1725511962.198687) can0 60B#054efc0980200193
(1725511962.198706) can0 60C#0084633a0220e8
(1725511962.198720) can0 60C#0184a33a0220e8
(1725511962.198733) can0 60C#028ca33a0220e8
(1725511962.198747) can0 60C#038ca53a0220e8
(1725511962.201282) can0 60C#0494e73a8220cc
(1725511962.201321) can0 60C#058ca53a0220e8
(1725511962.201337) can0 60D#007cafa070800605
(1725511962.201349) can0 60D#017cafa070800e05
(1725511962.201360) can0 60D#027d0fa070800705
(1725511962.201372) can0 60D#037d0fa070800505
(1725511962.201383) can0 60D#047d0fa070800505
(1725511962.201394) can0 60D#057d0fa070800505
(1725511962.270453) can0 60A#06042b10
(1725511962.270934) can0 60B#004ec3fd8020019c
(1725511962.270973) can0 60B#014f2bfb8020018d
(1725511962.271409) can0 60B#024ffbf9802001a5
(1725511962.271447) can0 60B#03504c1d80200188
(1725511962.271899) can0 60B#0450ac778020018b
(1725511962.271938) can0 60B#054efc0980200193
(1725511962.272381) can0 60C#0084633a0220e8
(1725511962.272421) can0 60C#0184a33a0220e8
(1725511962.272919) can0 60C#028ca33a0220e8
(1725511962.272959) can0 60C#038ca53a0220e8
(1725511962.273217) can0 60C#0494e73a8220cc
(1725511962.273234) can0 60C#058ca53a0220e8
(1725511962.273497) can0 60D#007cafa070800605
(1725511962.273759) can0 60D#017cafa070800d05
(1725511962.274029) can0 60D#027d0fa070800705
(1725511962.274218) can0 60D#037d0fa070800505
(1725511962.274435) can0 60D#047d0fa070800505
(1725511962.275078) can0 60D#057d0fa070800505
(1725511962.340108) can0 60A#06042d10
(1725511962.340381) can0 60B#004ec3fd8020019c
(1725511962.340661) can0 60B#014f33fb8020018d
(1725511962.341040) can0 60B#024ffbf9802001a5
(1725511962.341332) can0 60B#03504c1d80200188
(1725511962.341696) can0 60B#0450ac778020018a
(1725511962.341970) can0 60B#054efc0980200193
(1725511962.341994) can0 60C#0084633a0220e8
(1725511962.342349) can0 60C#0184633a0220e8
(1725511962.342625) can0 60C#028ca33a0220e8
(1725511962.343441) can0 60C#038ca53a0220e8
(1725511962.343484) can0 60C#0494e73a8220e8
(1725511962.346143) can0 60C#058ca53a0220e8
(1725511962.346188) can0 60D#007cafa070800605
(1725511962.346200) can0 60D#017cafa070800d05
(1725511962.346305) can0 60D#027d0fa070800705
(1725511962.346350) can0 60D#037d0fa070800505
(1725511962.346399) can0 60D#047d6fa070800505
(1725511962.346413) can0 60D#057d0fa070800505
(1725511962.410477) can0 60A#06042f10
(1725511962.410942) can0 60B#004ec3fd8020019c
(1725511962.410981) can0 60B#014f33fb8020018d
(1725511962.411266) can0 60B#024ffbf9802001a5
(1725511962.411281) can0 60B#03504c1d80200188
(1725511962.411689) can0 60B#0450ac778020018a
(1725511962.412147) can0 60B#054efc0980200193
(1725511962.412194) can0 60C#0084633a0220e8
(1725511962.412634) can0 60C#0184a33a0220e8
(1725511962.412673) can0 60C#028ca33a0220e8
(1725511962.412984) can0 60C#038ca53a0220e8
(1725511962.413007) can0 60C#0494e73a8220cc
(1725511962.413427) can0 60C#058ca53a0220e8
(1725511962.413907) can0 60D#007ccfa070800605
(1725511962.413946) can0 60D#017cafa070800d05
(1725511962.414332) can0 60D#027d0fa070800705
(1725511962.414642) can0 60D#037d0fa070800505
(1725511962.414658) can0 60D#047d6fa070800505
(1725511962.414997) can0 60D#057d0fa070800505
(1725511962.485502) can0 60A#06043110
(1725511962.485833) can0 60B#004ec3fd8020019c
(1725511962.485892) can0 60B#014f33fb8020018d
(1725511962.486242) can0 60B#024ffbf9802001a5
(1725511962.486684) can0 60B#03504c1d80200188
(1725511962.486723) can0 60B#0450ac7780200189
(1725511962.487000) can0 60B#054efc0980200193
(1725511962.487024) can0 60C#0084633a0220e8
(1725511962.487242) can0 60C#0184633a0220e8
(1725511962.487669) can0 60C#028ca33a0220e8
(1725511962.488003) can0 60C#038ca53a0220e8
(1725511962.488021) can0 60C#0494e73a8220e8
(1725511962.488287) can0 60C#058ca53a0220e8
(1725511962.488711) can0 60D#007ccfa070800605
(1725511962.488992) can0 60D#017cafa070800d05
(1725511962.489405) can0 60D#027d0fa070800705
(1725511962.489898) can0 60D#037d0fa070800505
(1725511962.489936) can0 60D#047d4fa070800505
(1725511962.490371) can0 60D#057d0fa070800505
(1725511962.555423) can0 60A#06043310
(1725511962.555906) can0 60B#004ec3fd8020019c
(1725511962.555944) can0 60B#014f33fb8020018d
(1725511962.556285) can0 60B#024ffbf9802001a5
(1725511962.556307) can0 60B#03504c1d80200188
(1725511962.556604) can0 60B#0450b47780200189
(1725511962.557043) can0 60B#054efc0980200193
(1725511962.557466) can0 60C#0084633a0220e8
(1725511962.557506) can0 60C#0184633a0220e8
(1725511962.557977) can0 60C#028ca33a0220e8
(1725511962.558017) can0 60C#038ca53a0220e8
(1725511962.558385) can0 60C#0494e73a8220cc
(1725511962.558425) can0 60C#058ca53a0220e8
(1725511962.558893) can0 60D#007ccfa070800605
(1725511962.559355) can0 60D#017c8fa070800d05
(1725511962.559394) can0 60D#027d0fa070800705
(1725511962.559833) can0 60D#037d0fa070800505
(1725511962.559903) can0 60D#047d4fa070800505
(1725511962.560339) can0 60D#057d0fa070800505
(1725511962.625342) can0 60A#06043510
(1725511962.625599) can0 60B#004ec3fd8020019c
(1725511962.625966) can0 60B#014f33fb8020018d
(1725511962.626324) can0 60B#024ffbf9802001a5
(1725511962.626362) can0 60B#03504c1d80200188
(1725511962.626584) can0 60B#0450ac7780200189
(1725511962.626803) can0 60B#054efc0980200193
(1725511962.627107) can0 60C#0084633a0220e8
(1725511962.627460) can0 60C#0184633a0220e8
(1725511962.627736) can0 60C#028ca33a0220e8
(1725511962.627756) can0 60C#038ca53a0220e8
(1725511962.628170) can0 60C#0494e73a8220e8
(1725511962.628600) can0 60C#058ca53a0220e8
(1725511962.628972) can0 60D#007ccfa070800605
(1725511962.628992) can0 60D#017c8fa070800d05
(1725511962.629343) can0 60D#027d0fa070800705
(1725511962.629588) can0 60D#037d0fa070800505
(1725511962.629603) can0 60D#047d4fa070800505
(1725511962.629794) can0 60D#057d0fa070800505
(1725511962.700751) can0 60A#06043710
(1725511962.700791) can0 60B#004ec3fd8020019c
(1725511962.701190) can0 60B#014f33fb8020018d
(1725511962.701229) can0 60B#024ffbf9802001a5
(1725511962.701664) can0 60B#03504c1d80200188
(1725511962.702037) can0 60B#0450ac7780200189
(1725511962.702053) can0 60B#054efc0980200193
(1725511962.702073) can0 60C#0084633a0220e8
(1725511962.702319) can0 60C#0184633a0220e8
(1725511962.702594) can0 60C#028ca33a0220e8
(1725511962.702955) can0 60C#038ca53a0220e8
(1725511962.703452) can0 60C#0494e73a8220cc
(1725511962.703492) can0 60C#058ca53a0220e8
(1725511962.703958) can0 60D#007ccfa070800605
(1725511962.704425) can0 60D#017c8fa070800d05
(1725511962.704463) can0 60D#027d0fa070800705
(1725511962.704903) can0 60D#037d0fa070800505
(1725511962.704941) can0 60D#047d4fa070800505
(1725511962.705227) can0 60D#057d0fa070800505
(1725511962.770482) can0 60A#06043910
(1725511962.770522) can0 60B#004ec3fd8020019c
(1725511962.770754) can0 60B#014f33fb8020018d
(1725511962.771147) can0 60B#024ffbf9802001a5
(1725511962.771546) can0 60B#03504c1d80200188
(1725511962.771958) can0 60B#0450ac7780200189
(1725511962.771997) can0 60B#054efc0980200193
(1725511962.772374) can0 60C#0084633a0220e8
(1725511962.772831) can0 60C#0184633a0220e8
(1725511962.772890) can0 60C#028ca33a0220e8
(1725511962.773181) can0 60C#038ca53a0220e8
(1725511962.773211) can0 60C#0494e73a8220cc
(1725511962.773597) can0 60C#058ca53a0220e8
(1725511962.773934) can0 60D#007ccfa070800605
(1725511962.773970) can0 60D#017c8fa070800d05
(1725511962.774165) can0 60D#027d0fa070800705
(1725511962.774354) can0 60D#037d0fa070800505
(1725511962.774819) can0 60D#047d4fa070800505
(1725511962.775306) can0 60D#057d0fa070800505
(1725511962.840624) can0 60A#06043b10
(1725511962.840664) can0 60B#004ec3fd8020019c
(1725511962.840977) can0 60B#014f33fb8020018d
(1725511962.841240) can0 60B#024ffbf9802001a5
(1725511962.841651) can0 60B#03504c1d80200188
(1725511962.842144) can0 60B#0450ac7780200189
(1725511962.842183) can0 60B#054efc0980200193
(1725511962.842624) can0 60C#0084633a0220e8
(1725511962.842665) can0 60C#0184633a0220e8
(1725511962.843140) can0 60C#028ca33a0220e8
(1725511962.843180) can0 60C#038ca53a0220e8
(1725511962.843591) can0 60C#0494e93a8220cc
(1725511962.843631) can0 60C#058ca53a0220e8
(1725511962.843978) can0 60D#007ccfa070800605
(1725511962.843994) can0 60D#017cafa070800d05
(1725511962.844457) can0 60D#027d0fa070800705
(1725511962.844491) can0 60D#037d0fa070800505
(1725511962.845474) can0 60D#047d4fa070800505
(1725511962.845928) can0 60D#057d0fa070800505
(1725511962.915588) can0 60A#06043d10
(1725511962.915629) can0 60B#004ec3fd8020019c
(1725511962.916035) can0 60B#014f33fb8020018d
(1725511962.916460) can0 60B#024ffbf9802001a5
(1725511962.916906) can0 60B#03504c1d80200188
(1725511962.916945) can0 60B#0450ac7780200189
(1725511962.917424) can0 60B#054efc0980200193
(1725511962.917471) can0 60C#0084633a0220e8
(1725511962.917936) can0 60C#0184633a0220e8
(1725511962.917976) can0 60C#028ca33a0220e8
(1725511962.918381) can0 60C#038ca53a0220e8
(1725511962.918422) can0 60C#049ce94a8220cc
(1725511962.918891) can0 60C#058ca53a0220e8
(1725511962.918933) can0 60D#007ccfa070800605
(1725511962.919196) can0 60D#017cafa070800d05
(1725511962.919211) can0 60D#027d0fa070800705
(1725511962.919539) can0 60D#037d0fa070800505
(1725511962.919912) can0 60D#047d4fa070800505
(1725511962.920287) can0 60D#057d0fa070800505
(1725511962.985487) can0 60A#06043f10
(1725511962.985945) can0 60B#004ec3fd8020019c
(1725511962.986405) can0 60B#014f33fb8020018d
(1725511962.986444) can0 60B#024ffbf9802001a5
(1725511962.986860) can0 60B#03504c1d80200188
(1725511962.986898) can0 60B#0450b47780200189
(1725511962.987216) can0 60B#054efc0980200193
(1725511962.987252) can0 60C#0084633a0220e8
(1725511962.987619) can0 60C#0184633a0220e8
(1725511962.988034) can0 60C#028ca33a0220e8
(1725511962.988071) can0 60C#038ca53a0220e8
(1725511962.988396) can0 60C#0494e73a8220e8
(1725511962.988703) can0 60C#058ca53a0220e8
(1725511962.988733) can0 60D#007ccfa070800605
(1725511962.989173) can0 60D#017cafa070800d05
(1725511962.989509) can0 60D#027d0fa070800705
(1725511962.989535) can0 60D#037d0fa070800505
(1725511962.989919) can0 60D#047d6fa070800505
(1725511962.990167) can0 60D#057d0fa070800505
(1725511963.055532) can0 60A#06044110
(1725511963.055956) can0 60B#004ec3fd8020019c
(1725511963.056354) can0 60B#014f33fb8020018d
(1725511963.056393) can0 60B#024ffbf9802001a5
(1725511963.056764) can0 60B#03504c1d80200188
(1725511963.056803) can0 60B#0450b47780200189
(1725511963.057103) can0 60B#054efc0980200193
(1725511963.057340) can0 60C#0084633a0220e8
(1725511963.057358) can0 60C#0184633a0220e8
(1725511963.057700) can0 60C#028ca33a0220e8
(1725511963.057989) can0 60C#038ca53a0220e8
(1725511963.058270) can0 60C#0494e73a8220e8
(1725511963.058548) can0 60C#058ca53a0220e8
(1725511963.058805) can0 60D#007ccfa070800605
(1725511963.059098) can0 60D#017cafa070800d05
(1725511963.059397) can0 60D#027d0fa070800705
(1725511963.059622) can0 60D#037d0fa070800505
(1725511963.059939) can0 60D#047d2fa070800505
(1725511963.060158) can0 60D#057d0fa070800505
(1725511963.130638) can0 60A#06044310
(1725511963.131083) can0 60B#004ec3fd8020019c
(1725511963.131100) can0 60B#014f33fb8020018d
(1725511963.131463) can0 60B#024ffbf9802001a5
(1725511963.131802) can0 60B#03504c1d80200188
(1725511963.131838) can0 60B#0450b47780200189
(1725511963.132447) can0 60B#054efc0980200193
(1725511963.132801) can0 60C#0084633a0220e8
(1725511963.132827) can0 60C#0184633a0220e8
(1725511963.132857) can0 60C#028ca33a0220e8
(1725511963.133174) can0 60C#038ca53a0220e8
(1725511963.133447) can0 60C#0494e73a8220e8
(1725511963.133465) can0 60C#058ca53a0220e8
(1725511963.133693) can0 60D#007ccfa070800605
(1725511963.134009) can0 60D#017ccfa070800d05
(1725511963.134322) can0 60D#027d0fa070800705
(1725511963.134687) can0 60D#037d0fa070800505
(1725511963.135126) can0 60D#047d0fa070800505
(1725511963.135165) can0 60D#057d0fa070800505
(1725511963.200572) can0 60A#06044510
(1725511963.201102) can0 60B#004ec3fd8020019c
(1725511963.201156) can0 60B#014f33fb8020018d
(1725511963.201483) can0 60B#024ffbf9802001a5
(1725511963.201515) can0 60B#03504c1d80200188
(1725511963.201950) can0 60B#0450b4778020018a
(1725511963.203209) can0 60B#054efc0980200193
(1725511963.203602) can0 60C#0084633a0220e8
(1725511963.206193) can0 60C#0184a33a0220e8
(1725511963.206237) can0 60C#028ca33a0220e8
(1725511963.206251) can0 60C#038ca53a0220e8
(1725511963.206265) can0 60C#0494e73a8220e8
(1725511963.206282) can0 60C#058ca53a0220e8
(1725511963.206296) can0 60D#007ccfa070800605
(1725511963.206308) can0 60D#017ccfa070800d05
(1725511963.206320) can0 60D#027d0fa070800705
(1725511963.206331) can0 60D#037d0fa070800505
(1725511963.206343) can0 60D#047cafa070800505
(1725511963.206354) can0 60D#057d0fa070800505
(1725511963.270610) can0 60A#06044710
(1725511963.270936) can0 60B#004ec3fd8020019c
(1725511963.270952) can0 60B#014f33fb8020018d
(1725511963.271505) can0 60B#024ffbf9802001a5
(1725511963.271804) can0 60B#03504c1d80200188
(1725511963.271832) can0 60B#0450b4778020018a
(1725511963.272124) can0 60B#054efc0980200193
(1725511963.272584) can0 60C#0084633a0220e8
(1725511963.274099) can0 60C#0184a33a0220e8
(1725511963.274195) can0 60C#028ca33a0220e8
(1725511963.276595) can0 60C#038ca53a0220e8
(1725511963.276663) can0 60C#0494e73a8220cc
(1725511963.276677) can0 60C#058ca53a0220e8
(1725511963.276693) can0 60D#007ccfa070800605
(1725511963.276722) can0 60D#017ccfa070800d05
(1725511963.276735) can0 60D#027d0fa070800705
(1725511963.276747) can0 60D#037d0fa070800505
(1725511963.276758) can0 60D#047cafa070800505
(1725511963.276769) can0 60D#057d0fa070800505
(1725511963.345578) can0 60A#06044910
(1725511963.345986) can0 60B#004ec3fd8020019c
(1725511963.346282) can0 60B#014f33fb8020018d
(1725511963.346313) can0 60B#024ffbf9802001a5
(1725511963.346524) can0 60B#03504c1d80200188
(1725511963.346737) can0 60B#0450b4768020018a
(1725511963.346990) can0 60B#054efc0980200193
(1725511963.347229) can0 60C#0084633a0220e8
(1725511963.347456) can0 60C#0184a33a0220e8
(1725511963.347696) can0 60C#028ca33a0220e8
(1725511963.348519) can0 60C#038ca53a0220e8
(1725511963.351229) can0 60C#0494e73a8220e8
(1725511963.351270) can0 60C#058ca53a0220e8
(1725511963.351285) can0 60D#007ccfa070800605
(1725511963.351296) can0 60D#017ccfa070800d05
(1725511963.351308) can0 60D#027d0fa070800705
(1725511963.351319) can0 60D#037d0fa070800505
(1725511963.351330) can0 60D#047c6fa070800505
(1725511963.351341) can0 60D#057d0fa070800505
(1725511963.415587) can0 60A#06044b10
(1725511963.415926) can0 60B#004ec3fd8020019c
(1725511963.416143) can0 60B#014f33fb8020018d
(1725511963.416453) can0 60B#024ffbf9802001a5
(1725511963.416877) can0 60B#03504c1d80200188
(1725511963.417304) can0 60B#0450b4778020018a
(1725511963.417342) can0 60B#054efc0980200193
(1725511963.417583) can0 60C#0084633a0220e8
(1725511963.417600) can0 60C#0184a33a0220e8
(1725511963.417812) can0 60C#028ca33a0220e8
(1725511963.418237) can0 60C#038ca53a0220e8
(1725511963.418553) can0 60C#0494e73a8220e8
(1725511963.418572) can0 60C#058ca53a0220e8
(1725511963.418797) can0 60D#007ccfa070800605
(1725511963.419185) can0 60D#017ccfa070800d05
(1725511963.419446) can0 60D#027d0fa070800705
(1725511963.419631) can0 60D#037d0fa070800505
(1725511963.419980) can0 60D#047c6fa070800505
(1725511963.420290) can0 60D#057d0fa070800505
(1725511963.485567) can0 60A#06044d10
(1725511963.485777) can0 60B#004ec3fd8020019c
(1725511963.486089) can0 60B#014f33fb8020018d
(1725511963.486319) can0 60B#024ffbf9802001a5
(1725511963.486504) can0 60B#03504c1d80200188
(1725511963.486928) can0 60B#0450b47780200189
(1725511963.487270) can0 60B#054efc0980200193
(1725511963.487562) can0 60C#0084633a0220e8
(1725511963.487586) can0 60C#0184633a0220e8
(1725511963.488003) can0 60C#028ca33a0220e8
(1725511963.488337) can0 60C#038ca53a0220e8
(1725511963.488377) can0 60C#0494e73a8220e8
(1725511963.488929) can0 60C#058ca53a0220e8
(1725511963.489233) can0 60D#007cefa070800605
(1725511963.489261) can0 60D#017ccfa070800d05
(1725511963.489722) can0 60D#027d0fa070800705
(1725511963.490007) can0 60D#037d0fa070800505
(1725511963.490032) can0 60D#047c8fa070800505
(1725511963.490279) can0 60D#057d0fa070800505
(1725511963.560525) can0 60A#06044f10
(1725511963.560756) can0 60B#004ec3fd8020019c
(1725511963.560981) can0 60B#014f33fb8020018d
(1725511963.561750) can0 60B#024ffbf9802001a5
(1725511963.564447) can0 60B#03504c1d80200188
(1725511963.564520) can0 60B#0450b47780200189
(1725511963.564533) can0 60B#054efc0980200193
(1725511963.565098) can0 60C#0084633a0220e8
(1725511963.565156) can0 60C#0184633a0220e8
(1725511963.565172) can0 60C#028ca33a0220e8
(1725511963.565186) can0 60C#038ca53a0220e8
(1725511963.565200) can0 60C#0494e73a8220e8
(1725511963.567713) can0 60C#058ca53a0220e8
(1725511963.567752) can0 60D#007cefa070800605
(1725511963.567765) can0 60D#017ccfa070800d05
(1725511963.567777) can0 60D#027d0fa070800705
(1725511963.567789) can0 60D#037d0fa070800505
(1725511963.567801) can0 60D#047c8fa070800505
(1725511963.567812) can0 60D#057d0fa070800505
(1725511963.635780) can0 60A#06045110
(1725511963.636266) can0 60B#004ec3fd8020019c
(1725511963.636305) can0 60B#014f33fb8020018d
(1725511963.636708) can0 60B#024ffbf9802001a5
(1725511963.636748) can0 60B#03504c1d80200188
(1725511963.637133) can0 60B#0450b4778020018a
(1725511963.637605) can0 60B#054efc0980200193
(1725511963.637652) can0 60C#0084633a0220e8
(1725511963.637984) can0 60C#0184633a0220e8
(1725511963.638001) can0 60C#028ca33a0220e8
(1725511963.638264) can0 60C#038ca53a0220e8
(1725511963.638636) can0 60C#0494e53a8220e8
(1725511963.639041) can0 60C#058ca53a0220e8
(1725511963.639076) can0 60D#007cefa070800605
(1725511963.639539) can0 60D#017ccfa070800d05
(1725511963.639940) can0 60D#027d0fa070800705
(1725511963.639970) can0 60D#037d0fa070800505
(1725511963.640973) can0 60D#047cafa070800505
(1725511963.641035) can0 60D#057d0fa070800505
(1725511963.705712) can0 60A#06045310
(1725511963.705964) can0 60B#004ec3fd8020019c
(1725511963.706212) can0 60B#014f33fb8020018d
(1725511963.706434) can0 60B#024ffbf9802001a5
(1725511963.706688) can0 60B#03504c1d80200188
(1725511963.707012) can0 60B#0450b4778020018a
(1725511963.708045) can0 60B#054efc0980200193
(1725511963.710614) can0 60C#0084633a0220e8
(1725511963.710656) can0 60C#0184a33a0220e8
(1725511963.710672) can0 60C#028ca33a0220e8
(1725511963.710686) can0 60C#038ca53a0220e8
(1725511963.710700) can0 60C#0494e53a8220e8
(1725511963.710713) can0 60C#058ca53a0220e8
(1725511963.710727) can0 60D#007d0fa070800605
(1725511963.710739) can0 60D#017ccfa070800d05
(1725511963.710751) can0 60D#027d0fa070800705
(1725511963.710763) can0 60D#037d0fa070800505
(1725511963.710774) can0 60D#047ccfa070800505
(1725511963.710786) can0 60D#057d0fa070800505
(1725511963.775892) can0 60A#06045510
(1725511963.776437) can0 60B#004ec3fd8020019c
(1725511963.776482) can0 60B#014f33fb8020018d
(1725511963.777236) can0 60B#024ffbf9802001a5
(1725511963.777274) can0 60B#03504c1d80200188
(1725511963.780714) can0 60B#0450b4778020018a
(1725511963.780783) can0 60B#054efc0980200193
(1725511963.780809) can0 60C#0084633a0220e8
(1725511963.780825) can0 60C#0184a33a0220e8
(1725511963.780838) can0 60C#028ca33a0220e8
(1725511963.780890) can0 60C#038ca53a0220e8
(1725511963.780905) can0 60C#0494e53a8220e8
(1725511963.780919) can0 60C#058ca53a0220e8
(1725511963.780942) can0 60D#007d2fa070800605
(1725511963.783420) can0 60D#017cefa070800d05
(1725511963.783450) can0 60D#027d0fa070800705
(1725511963.783462) can0 60D#037d0fa070800505
(1725511963.783474) can0 60D#047d0fa070800505
(1725511963.783485) can0 60D#057d0fa070800505
(1725511963.845838) can0 60A#06045710
(1725511963.846202) can0 60B#004ec3fd8020019c
(1725511963.846254) can0 60B#014f33fb8020018d
(1725511963.846585) can0 60B#024ffbf9802001a5
(1725511963.847021) can0 60B#03504c1d80200188
(1725511963.847042) can0 60B#0450b4778020018a
(1725511963.847295) can0 60B#054efc0980200193
(1725511963.847572) can0 60C#0084633a0220e8
(1725511963.848314) can0 60C#0184a33a0220e8
(1725511963.850961) can0 60C#028ca33a0220e8
(1725511963.851001) can0 60C#038ca53a0220e8
(1725511963.851016) can0 60C#0494e73a8220cc
(1725511963.851029) can0 60C#058ca53a0220e8
(1725511963.851043) can0 60D#007d4fa070800605
(1725511963.851055) can0 60D#017cefa070800d05
(1725511963.851067) can0 60D#027d0fa070800705
(1725511963.851078) can0 60D#037d0fa070800505
(1725511963.851089) can0 60D#047d0fa070800505
(1725511963.851464) can0 60D#057d0fa070800505
(1725511963.921022) can0 60A#06045910
(1725511963.921063) can0 60B#004ec3fd8020019c
(1725511963.921285) can0 60B#014f33fb8020018d
(1725511963.921514) can0 60B#024ffbf9802001a5
(1725511963.921902) can0 60B#03504c1d80200188
(1725511963.922298) can0 60B#0450b4778020018a
(1725511963.922338) can0 60B#054efc0980200193
(1725511963.922715) can0 60C#0084633a0220e8
(1725511963.923006) can0 60C#0184a33a0220e8
(1725511963.923025) can0 60C#028ca33a0220e8
(1725511963.923213) can0 60C#038ca53a0220e8
(1725511963.923471) can0 60C#0494e73a8220cc
(1725511963.923704) can0 60C#058ca53a0220e8
(1725511963.924163) can0 60D#007d4fa070800605
(1725511963.924442) can0 60D#017cefa070800d05
(1725511963.924460) can0 60D#027d0fa070800705
(1725511963.924652) can0 60D#037d0fa070800505
(1725511963.925301) can0 60D#047d0fa070800505
(1725511963.925561) can0 60D#057d0fa070800505
(1725511963.990735) can0 60A#06045b10
(1725511963.991050) can0 60B#004ec3fd8020019c
(1725511963.991315) can0 60B#014f33fb8020018d
(1725511963.991548) can0 60B#024ffbf9802001a5
(1725511963.991773) can0 60B#03504c1d80200188
(1725511963.992142) can0 60B#0450b4778020018a
(1725511963.992420) can0 60B#054efc0980200193
(1725511963.992447) can0 60C#0084633a0220e8
(1725511963.992645) can0 60C#0184a33a0220e8
(1725511963.993405) can0 60C#028ca33a0220e8
(1725511963.993446) can0 60C#038ca53a0220e8
(1725511963.993821) can0 60C#0494e73a8220e8
(1725511963.993884) can0 60C#058ca53a0220e8
(1725511963.994257) can0 60D#007d2fa070800605
(1725511963.994563) can0 60D#017cefa070800d05
(1725511963.994585) can0 60D#027d0fa070800705
(1725511963.994832) can0 60D#037d0fa070800505
(1725511963.995174) can0 60D#047d0fa070800505
(1725511963.995464) can0 60D#057d0fa070800505
(1725511964.060628) can0 60A#06045d10
(1725511964.060898) can0 60B#004ec3fd8020019c
(1725511964.061248) can0 60B#014f33fb8020018d
(1725511964.061431) can0 60B#024ffbf9802001a5
(1725511964.061613) can0 60B#03504c1d80200188
(1725511964.061956) can0 60B#0450b4778020018a
(1725511964.062403) can0 60B#054efc0980200193
(1725511964.062631) can0 60C#0084633a0220e8
(1725511964.063089) can0 60C#0184a33a0220e8
(1725511964.063366) can0 60C#028ca33a0220e8
(1725511964.063387) can0 60C#038ca53a0220e8
(1725511964.063747) can0 60C#0494e73a8220e8
(1725511964.064114) can0 60C#058ca53a0220e8
(1725511964.064154) can0 60D#007d2fa070800605
(1725511964.064528) can0 60D#017cefa070800d05
(1725511964.064761) can0 60D#027d0fa070800705
(1725511964.064777) can0 60D#037d0fa070800505
(1725511964.064958) can0 60D#047cafa070800505
(1725511964.065300) can0 60D#057d0fa070800505
(1725511964.135988) can0 60A#06045f10
(1725511964.136028) can0 60B#004ec3fd8020019c
(1725511964.136215) can0 60B#014f33fb8020018d
(1725511964.136403) can0 60B#024ffbf9802001a5
(1725511964.136750) can0 60B#03504c1d80200188
(1725511964.136956) can0 60B#0450b4778020018a
(1725511964.137323) can0 60B#054efc0980200193
(1725511964.137509) can0 60C#0084633a0220e8
(1725511964.137693) can0 60C#0184a33a0220e8
(1725511964.138297) can0 60C#028ca33a0220e8
(1725511964.138731) can0 60C#038ca53a0220e8
(1725511964.138772) can0 60C#0494e73a8220cc
(1725511964.139181) can0 60C#058ca53a0220e8
(1725511964.139221) can0 60D#007d0fa070800605
(1725511964.139461) can0 60D#017cefa070800d05
(1725511964.139994) can0 60D#027d0fa070800705
(1725511964.140033) can0 60D#037d0fa070800505
(1725511964.140430) can0 60D#047cafa070800505
(1725511964.140883) can0 60D#057d0fa070800505
(1725511964.205914) can0 60A#06046110
(1725511964.206174) can0 60B#004ec3fd8020019c
(1725511964.206189) can0 60B#014f33fb8020018d
(1725511964.206757) can0 60B#024ffbf9802001a5
(1725511964.206796) can0 60B#03504c1d80200188
(1725511964.207108) can0 60B#0450b4778020018a
(1725511964.207511) can0 60B#054efc0980200193
(1725511964.207935) can0 60C#0084633a0220e8
(1725511964.207979) can0 60C#0184a33a0220e8
(1725511964.208361) can0 60C#028ca33a0220e8
(1725511964.208401) can0 60C#038ca53a0220e8
(1725511964.208780) can0 60C#0494e73a8220e8
(1725511964.209110) can0 60C#058ca53a0220e8
(1725511964.209130) can0 60D#007d0fa070800605
(1725511964.209313) can0 60D#017cefa070800d05
(1725511964.209496) can0 60D#027d0fa070800705
(1725511964.209929) can0 60D#037d0fa070800505
(1725511964.210151) can0 60D#047ccfa070800505
(1725511964.210597) can0 60D#057d0fa070800505
(1725511964.275900) can0 60A#06046310
(1725511964.276187) can0 60B#004ec3fd8020019c
(1725511964.276517) can0 60B#014f33fb8020018d
(1725511964.276766) can0 60B#024ffbf9802001a5
(1725511964.276787) can0 60B#03504c1d80200188
(1725511964.277142) can0 60B#0450b4778020018a
(1725511964.277564) can0 60B#054efc0980200193
(1725511964.277931) can0 60C#0084633a0220e8
(1725511964.277951) can0 60C#0184a33a0220e8
(1725511964.278180) can0 60C#028ca33a0220e8
(1725511964.278410) can0 60C#038ca53a0220e8
(1725511964.278794) can0 60C#0494e73a8220e8
(1725511964.279315) can0 60C#058ca53a0220e8
(1725511964.279364) can0 60D#007d0fa070800605
(1725511964.279774) can0 60D#017cefa070800d05
(1725511964.279816) can0 60D#027d0fa070800705
(1725511964.280109) can0 60D#037d0fa070800505
(1725511964.280131) can0 60D#047cafa070800505
(1725511964.280406) can0 60D#057d0fa070800505
(1725511964.350787) can0 60A#06046510
(1725511964.350998) can0 60B#004ec3fd8020019c
(1725511964.351341) can0 60B#014f33fb8020018d
(1725511964.351523) can0 60B#024ffbf9802001a5
(1725511964.351732) can0 60B#03504c1d80200188
(1725511964.352117) can0 60B#0450b4768020018a
(1725511964.352300) can0 60B#054efc0980200193
(1725511964.352486) can0 60C#0084633a0220e8
(1725511964.352996) can0 60C#0184a33a0220e8
(1725511964.353259) can0 60C#028ca33a0220e8
(1725511964.353490) can0 60C#038ca53a0220e8
(1725511964.353726) can0 60C#0494e73a8220e8
(1725511964.353990) can0 60C#058ca53a0220e8
(1725511964.354343) can0 60D#007cefa070800605
(1725511964.354741) can0 60D#017cefa070800d05
(1725511964.354779) can0 60D#027d0fa070800705
(1725511964.354988) can0 60D#037d0fa070800505
(1725511964.355343) can0 60D#047ccfa070800505
(1725511964.355579) can0 60D#057d0fa070800505
(1725511964.421000) can0 60A#06046710
(1725511964.421410) can0 60B#004ec3fd8020019c
(1725511964.421868) can0 60B#014f33fb8020018d
(1725511964.421907) can0 60B#024ffbf9802001a5
(1725511964.422142) can0 60B#03504c1d80200188
(1725511964.422157) can0 60B#0450b476801fe18a
(1725511964.422367) can0 60B#054efc0980200193
(1725511964.422606) can0 60C#0084633a0220e8
(1725511964.423062) can0 60C#0184a33a0220e8
(1725511964.423365) can0 60C#028ca33a0220e8
(1725511964.423390) can0 60C#038ca53a0220e8
(1725511964.423758) can0 60C#0494e73a8220e8
(1725511964.424036) can0 60C#058ca53a0220e8
(1725511964.424388) can0 60D#007cefa070800605
(1725511964.424798) can0 60D#017cefa070800d05
(1725511964.424835) can0 60D#027d0fa070800705
(1725511964.425274) can0 60D#037d0fa070800505
(1725511964.425312) can0 60D#047ccfa070800505
(1725511964.425566) can0 60D#057d0fa070800505
(1725511964.491672) can0 60A#06046910
(1725511964.491716) can0 60B#004ec3fd8020019c
(1725511964.494299) can0 60B#014f33fb8020018d
(1725511964.494338) can0 60B#024ffbf9802001a5
(1725511964.494350) can0 60B#03504c1d80200188
(1725511964.494362) can0 60B#0450b476801fe18a
(1725511964.494379) can0 60B#054efc0980200193
(1725511964.494400) can0 60C#0084633a0220e8
(1725511964.494415) can0 60C#0184633a0220e8
(1725511964.494429) can0 60C#028ca33a0220e8
(1725511964.494442) can0 60C#038ca53a0220e8
(1725511964.497138) can0 60C#0494e73a8220cc
(1725511964.497179) can0 60C#058ca53a0220e8
(1725511964.497194) can0 60D#007cefa070800605
(1725511964.497206) can0 60D#017cefa070800d05
(1725511964.497217) can0 60D#027d0fa070800705
(1725511964.497228) can0 60D#037d0fa070800505
(1725511964.497240) can0 60D#047ccfa070800505
(1725511964.497254) can0 60D#057d0fa070800505
(1725511964.560874) can0 60A#06046b10
(1725511964.561137) can0 60B#004ec3fd8020019c
(1725511964.561378) can0 60B#014f33fb8020018d
(1725511964.561605) can0 60B#024ffbf9802001a5
(1725511964.561827) can0 60B#03504c1d80200188
(1725511964.562064) can0 60B#0450b476801fe18a
(1725511964.562633) can0 60B#054efc0980200193
(1725511964.562899) can0 60C#0084633a0220e8
(1725511964.562917) can0 60C#0184a33a0220e8
(1725511964.563273) can0 60C#028ca33a0220e8
(1725511964.563680) can0 60C#038ca53a0220e8
(1725511964.564002) can0 60C#0494e73a8220cc
(1725511964.564023) can0 60C#058ca53a0220e8
(1725511964.564213) can0 60D#007cefa070800605
(1725511964.564398) can0 60D#017cefa070800d05
(1725511964.564756) can0 60D#027d0fa070800705
(1725511964.565152) can0 60D#037d0fa070800505
(1725511964.565383) can0 60D#047ccfa070800505
(1725511964.565399) can0 60D#057d0fa070800505
(1725511964.636007) can0 60A#06046d10
(1725511964.636316) can0 60B#004ec3fd8020019c
(1725511964.636528) can0 60B#014f33fb8020018d
(1725511964.636742) can0 60B#024ffbf9802001a5
(1725511964.636986) can0 60B#03504c1d80200188
(1725511964.637221) can0 60B#0450b4768020018a
(1725511964.637435) can0 60B#054efc0980200193
(1725511964.637682) can0 60C#0084633a0220e8
(1725511964.638016) can0 60C#0184a33a0220e8
(1725511964.638264) can0 60C#028ca33a0220e8
(1725511964.638499) can0 60C#038ca53a0220e8
(1725511964.638728) can0 60C#0494e73a8220e8
(1725511964.639004) can0 60C#058ca53a0220e8
(1725511964.639283) can0 60D#007cefa070800605
(1725511964.639527) can0 60D#017cefa070800d05
(1725511964.639784) can0 60D#027d0fa070800705
(1725511964.640022) can0 60D#037d0fa070800505
(1725511964.640277) can0 60D#047cefa070800505
(1725511964.640535) can0 60D#057d0fa070800505
(1725511964.706031) can0 60A#06046f10
(1725511964.706253) can0 60B#004ec3fd8020019c
(1725511964.706475) can0 60B#014f33fb8020018d
(1725511964.707024) can0 60B#024ffbf9802001a5
(1725511964.709712) can0 60B#03504c1d80200188
(1725511964.709752) can0 60B#0450b476801fe18a
(1725511964.709765) can0 60B#054efc0980200193
(1725511964.709785) can0 60C#0084633a0220e8
(1725511964.709800) can0 60C#0184a33a0220e8
(1725511964.709814) can0 60C#028ca33a0220e8
(1725511964.709827) can0 60C#038ca53a0220e8
(1725511964.709866) can0 60C#0494e73a8220e8
(1725511964.712976) can0 60C#058ca53a0220e8
(1725511964.713039) can0 60D#007cefa070800605
(1725511964.713054) can0 60D#017cefa070800d05
(1725511964.713066) can0 60D#027d0fa070800705
(1725511964.713078) can0 60D#037d0fa070800505
(1725511964.713089) can0 60D#047cefa070800505
(1725511964.713100) can0 60D#057d0fa070800505
(1725511964.781204) can0 60A#06047110
(1725511964.781249) can0 60B#004ec3fd8020019c
(1725511964.781488) can0 60B#014f33fb8020018d
(1725511964.781726) can0 60B#024ffbf9802001a5
(1725511964.781988) can0 60B#03504c1d80200188
(1725511964.782229) can0 60B#0450b4768020018a
(1725511964.782472) can0 60B#054efc0980200193
(1725511964.782717) can0 60C#0084633a0220e8
(1725511964.783125) can0 60C#0184633a0220e8
(1725511964.783411) can0 60C#028ca33a0220e8
(1725511964.783668) can0 60C#038ca53a0220e8
(1725511964.783696) can0 60C#0494e73a8220e8
(1725511964.784009) can0 60C#058ca53a0220e8
(1725511964.784256) can0 60D#007cefa070800605
(1725511964.784502) can0 60D#017d0fa070800d05
(1725511964.784729) can0 60D#027d0fa070800705
(1725511964.784997) can0 60D#037d0fa070800505
(1725511964.785246) can0 60D#047ccfa070800505
(1725511964.785517) can0 60D#057d0fa070800505
(1725511964.851040) can0 60A#06047310
(1725511964.851292) can0 60B#004ec3fd8020019c
(1725511964.851510) can0 60B#014f33fb8020018d
(1725511964.851727) can0 60B#024ffbf9802001a5
(1725511964.852007) can0 60B#03504c1d80200188
(1725511964.852252) can0 60B#0450b4768020018a
(1725511964.852479) can0 60B#054efc0980200193
(1725511964.852725) can0 60C#0084633a0220e8
(1725511964.853131) can0 60C#0184a33a0220e8
(1725511964.853361) can0 60C#028ca33a0220e8
(1725511964.853600) can0 60C#038ca53a0220e8
(1725511964.853973) can0 60C#0494e73a8220e8
(1725511964.854239) can0 60C#058ca53a0220e8
(1725511964.854267) can0 60D#007cefa070800605
(1725511964.854495) can0 60D#017d0fa070800d05
(1725511964.854727) can0 60D#027d0fa070800705
(1725511964.854990) can0 60D#037d0fa070800505
(1725511964.855245) can0 60D#047cefa070800505
(1725511964.855666) can0 60D#057d0fa070800505
(1725511964.921008) can0 60A#06047510
(1725511964.921237) can0 60B#004ec3fd8020019c
(1725511964.921447) can0 60B#014f33fb8020018d
(1725511964.921676) can0 60B#024ffbf9802001a5
(1725511964.922119) can0 60B#03504c1d80200188
(1725511964.922346) can0 60B#0450b4768020018a
(1725511964.922547) can0 60B#054efc0980200193
(1725511964.922757) can0 60C#0084633a0220e8
(1725511964.922979) can0 60C#0184a33a0220e8
(1725511964.923187) can0 60C#028ca33a0220e8
(1725511964.923555) can0 60C#038ca53a0220e8
(1725511964.923805) can0 60C#0494e73a8220e8
(1725511964.924076) can0 60C#058ca53a0220e8
(1725511964.925950) can0 60D#007cefa070800605
(1725511964.928454) can0 60D#017d0fa070800d05
(1725511964.928494) can0 60D#027d0fa070800705
(1725511964.928506) can0 60D#037d0fa070800505
(1725511964.928518) can0 60D#047cefa070800505
(1725511964.928531) can0 60D#057d0fa070800505
(1725511964.991015) can0 60A#06047710
(1725511964.991244) can0 60B#004ec3fd8020019c
(1725511964.991449) can0 60B#014f33fb8020018d
(1725511964.991807) can0 60B#024ffbf9802001a5
(1725511964.992018) can0 60B#03504c1d80200188
(1725511964.992242) can0 60B#0450b4768020018a
(1725511964.992646) can0 60B#054efc0980200193
(1725511964.992942) can0 60C#0084633a0220e8
(1725511964.993177) can0 60C#0184a33a0220e8
(1725511964.993399) can0 60C#028ca33a0220e8
(1725511964.993628) can0 60C#038ca53a0220e8
(1725511964.993947) can0 60C#0494e53a8220e8
(1725511964.994181) can0 60C#058ca53a0220e8
(1725511964.994404) can0 60D#007cefa070800605
(1725511964.994617) can0 60D#017d0fa070800d05
(1725511964.994911) can0 60D#027d0fa070800705
(1725511964.995118) can0 60D#037d0fa070800505
(1725511964.995315) can0 60D#047d0fa070800505
(1725511964.995682) can0 60D#057d0fa070800505
(1725511965.066005) can0 60A#06047910
(1725511965.066249) can0 60B#004ec3fd8020019c
(1725511965.066459) can0 60B#014f33fb8020018d
(1725511965.066926) can0 60B#024ffbf9802001a5
(1725511965.067184) can0 60B#03504c1d80200188
(1725511965.067411) can0 60B#0450b4768020018a
(1725511965.067620) can0 60B#054efc0980200193
(1725511965.067942) can0 60C#0084633a0220e8
(1725511965.068172) can0 60C#0184633a0220e8
(1725511965.068393) can0 60C#028ca33a0220e8
(1725511965.068621) can0 60C#038ca53a0220e8
(1725511965.068949) can0 60C#0494e73a8220cc
(1725511965.069192) can0 60C#058ca53a0220e8
(1725511965.069405) can0 60D#007cefa070800605
(1725511965.069624) can0 60D#017d0fa070800d05
(1725511965.069937) can0 60D#027d0fa070800705
(1725511965.070167) can0 60D#037d0fa070800505
(1725511965.070394) can0 60D#047d0fa070800505
(1725511965.070617) can0 60D#057d0fa070800505
(1725511965.136224) can0 60A#06047b10
(1725511965.136563) can0 60B#004ec3fd8020019c
(1725511965.136595) can0 60B#014f33fb8020018d
(1725511965.136801) can0 60B#024ffbf9802001a5
(1725511965.137190) can0 60B#03504c1d80200188
(1725511965.137450) can0 60B#0450b4768020018a
(1725511965.137673) can0 60B#054efc0980200193
(1725511965.137929) can0 60C#0084633a0220e8
(1725511965.138782) can0 60C#0184a33a0220e8
(1725511965.141453) can0 60C#028ca33a0220e8
(1725511965.141518) can0 60C#038ca53a0220e8
(1725511965.141534) can0 60C#0494e73a8220cc
(1725511965.141548) can0 60C#058ca53a0220e8
(1725511965.141563) can0 60D#007cefa070800605
(1725511965.141576) can0 60D#017d0fa070800d05
(1725511965.141587) can0 60D#027d0fa070800705
(1725511965.141598) can0 60D#037d0fa070800505
(1725511965.141618) can0 60D#047d0fa070800505
(1725511965.142199) can0 60D#057d0fa070800505
(1725511965.206193) can0 60A#06047d10
(1725511965.206950) can0 60B#004ec3fd8020019c
(1725511965.207218) can0 60B#014f33fb8020018d
(1725511965.207243) can0 60B#024ffbf9802001a5
(1725511965.207256) can0 60B#03504c1d80200188
(1725511965.207453) can0 60B#0450b4768020018a
(1725511965.207662) can0 60B#054efc0980200193
(1725511965.207930) can0 60C#0084633a0220e8
(1725511965.208150) can0 60C#0184a33a0220e8
(1725511965.208358) can0 60C#028ca33a0220e8
(1725511965.208582) can0 60C#038ca53a0220e8
(1725511965.208798) can0 60C#0494e73a8220cc
(1725511965.209193) can0 60C#058ca53a0220e8
(1725511965.209413) can0 60D#007cefa070800605
(1725511965.209615) can0 60D#017d0fa070800d05
(1725511965.209982) can0 60D#027d0fa070800705
(1725511965.210191) can0 60D#037d0fa070800505
(1725511965.210392) can0 60D#047d0fa070800505
(1725511965.210783) can0 60D#057d0fa070800505
(1725511965.281718) can0 60A#06047f10
(1725511965.281761) can0 60B#004ec3fd8020019c
(1725511965.282093) can0 60B#014f33fb8020018d
(1725511965.282111) can0 60B#024ffbf9802001a5
(1725511965.283088) can0 60B#03504c1d80200188
(1725511965.283128) can0 60B#0450b4778020018a
(1725511965.285784) can0 60B#054efc0980200193
(1725511965.285837) can0 60C#0084633a0220e8
(1725511965.285873) can0 60C#0184a33a0220e8
(1725511965.285888) can0 60C#028ca33a0220e8
(1725511965.285902) can0 60C#038ca53a0220e8
(1725511965.285915) can0 60C#0494e73a8220e8
(1725511965.285929) can0 60C#058ca53a0220e8
(1725511965.285942) can0 60D#007cefa070800605
(1725511965.285953) can0 60D#017d0fa070800d05
(1725511965.288508) can0 60D#027d0fa070800705
(1725511965.288548) can0 60D#037d0fa070800505
(1725511965.288560) can0 60D#047d2fa070800505
(1725511965.288571) can0 60D#057d0fa070800505
(1725511965.351266) can0 60A#06048110
(1725511965.351664) can0 60B#004ec3fd8020019c
(1725511965.352004) can0 60B#014f33fb8020018d
(1725511965.352025) can0 60B#024ffbf9802001a5
(1725511965.352388) can0 60B#03504c1d80200188
(1725511965.352784) can0 60B#0450b4778020018a
(1725511965.352823) can0 60B#054efc0980200193
(1725511965.353056) can0 60C#0084633a0220e8
(1725511965.353248) can0 60C#0184a33a0220e8
(1725511965.353468) can0 60C#028ca33a0220e8
(1725511965.353716) can0 60C#038ca53a0220e8
(1725511965.354069) can0 60C#0494e73a8220e8
(1725511965.354493) can0 60C#058ca53a0220e8
(1725511965.354756) can0 60D#007cefa070800605
(1725511965.354771) can0 60D#017cefa070800d05
(1725511965.354982) can0 60D#027d0fa070800705
(1725511965.355298) can0 60D#037d0fa070800505
(1725511965.356073) can0 60D#047d6fa070800505
(1725511965.356379) can0 60D#057d0fa070800505
(1725511965.426353) can0 60A#06048310
(1725511965.426680) can0 60B#004ec3fd8020019c
(1725511965.426698) can0 60B#014f33fb8020018d
(1725511965.427045) can0 60B#024ffbf9802001a5
(1725511965.427350) can0 60B#03504c1d80200188
(1725511965.427554) can0 60B#0450b4778020018a
(1725511965.427818) can0 60B#054efc0980200193
(1725511965.428124) can0 60C#0084633a0220e8
(1725511965.428397) can0 60C#0184a33a0220e8
(1725511965.428683) can0 60C#028ca33a0220e8
(1725511965.428703) can0 60C#038ca53a0220e8
(1725511965.429040) can0 60C#0494e73a8220e8
(1725511965.429351) can0 60C#058ca53a0220e8
(1725511965.429655) can0 60D#007cefa070800605
(1725511965.429996) can0 60D#017cefa070800d05
(1725511965.430300) can0 60D#027d0fa070800705
(1725511965.430318) can0 60D#037d0fa070800505
(1725511965.430617) can0 60D#047d4fa070800505
(1725511965.430929) can0 60D#057d0fa070800505
(1725511965.496228) can0 60A#06048510
(1725511965.496543) can0 60B#004ec3fd8020019c
(1725511965.496815) can0 60B#014f33fb8020018d
(1725511965.497087) can0 60B#024ffbf9802001a5
(1725511965.497352) can0 60B#03504c1d80200188
(1725511965.497651) can0 60B#0450b4778020018a
(1725511965.498030) can0 60B#054efc0980200193
(1725511965.498053) can0 60C#0084633a0220e8
(1725511965.498359) can0 60C#0184a33a0220e8
(1725511965.498666) can0 60C#028ca33a0220e8
(1725511965.499021) can0 60C#038ca53a0220e8
(1725511965.499042) can0 60C#0494e73a8220cc
(1725511965.499343) can0 60C#058ca53a0220e8
(1725511965.499648) can0 60D#007cefa070800605
(1725511965.499918) can0 60D#017cefa070800d05
(1725511965.500228) can0 60D#027d0fa070800705
(1725511965.500468) can0 60D#037d0fa070800505
(1725511965.500691) can0 60D#047d4fa070800505
(1725511965.500948) can0 60D#057d0fa070800505
(1725511965.566233) can0 60A#06048710
(1725511965.566554) can0 60B#004ec3fd8020019c
(1725511965.566872) can0 60B#014f33fb8020018d
(1725511965.567176) can0 60B#024ffbf9802001a5
(1725511965.567454) can0 60B#03504c1d80200188
(1725511965.567472) can0 60B#0450b4778020018a
(1725511965.567772) can0 60B#054efc0980200193
(1725511965.568054) can0 60C#0084633a0220e8
(1725511965.568331) can0 60C#0184a33a0220e8
(1725511965.568597) can0 60C#028ca33a0220e8
(1725511965.568907) can0 60C#038ca53a0220e8
(1725511965.569216) can0 60C#0494e73a8220e8
(1725511965.569524) can0 60C#058ca53a0220e8
(1725511965.569543) can0 60D#007cefa070800605
(1725511965.569860) can0 60D#017cefa070800d05
(1725511965.570170) can0 60D#027d0fa070800705
(1725511965.570478) can0 60D#037d0fa070800505
(1725511965.570783) can0 60D#047d4fa070800505
(1725511965.571027) can0 60D#057d0fa070800505
(1725511965.636585) can0 60A#06048910
(1725511965.636627) can0 60B#004ec3fd8020019c
(1725511965.637061) can0 60B#014f33fb8020018d
(1725511965.637089) can0 60B#024ffbf9802001a5
(1725511965.637357) can0 60B#03504c1d80200188
(1725511965.637583) can0 60B#0450b4778020018a
(1725511965.637772) can0 60B#054efc0980200193
(1725511965.638048) can0 60C#0084633a0220e8
(1725511965.638447) can0 60C#0184a33a0220e8
(1725511965.638909) can0 60C#028ca33a0220e8
(1725511965.638950) can0 60C#038ca53a0220e8
(1725511965.639366) can0 60C#0494e73a8220e8
(1725511965.639407) can0 60C#058ca53a0220e8
(1725511965.639824) can0 60D#007cefa070800605
(1725511965.640449) can0 60D#017d0fa070800d05
(1725511965.640487) can0 60D#027d0fa070800705
(1725511965.640499) can0 60D#037d0fa070800505
(1725511965.640941) can0 60D#047d2fa070800505
(1725511965.641205) can0 60D#057d0fa070800505
(1725511965.711283) can0 60A#06048b10
(1725511965.711495) can0 60B#004ec3fd8020019c
(1725511965.711678) can0 60B#014f33fb8020018d
(1725511965.712040) can0 60B#024ffbf9802001a5
(1725511965.712222) can0 60B#03504c1d80200188
(1725511965.712403) can0 60B#0450b4778020018a
(1725511965.712827) can0 60B#054efc0980200193
(1725511965.713140) can0 60C#0084633a0220e8
(1725511965.713406) can0 60C#0184a33a0220e8
(1725511965.713669) can0 60C#028ca33a0220e8
(1725511965.713899) can0 60C#038ca53a0220e8
(1725511965.714233) can0 60C#0494e73a8220e8
(1725511965.714635) can0 60C#058ca53a0220e8
(1725511965.714674) can0 60D#007cefa070800605
(1725511965.714934) can0 60D#017d0fa070800d05
(1725511965.715209) can0 60D#027d0fa070800705
(1725511965.715612) can0 60D#037d0fa070800505
(1725511965.715970) can0 60D#047d2fa070800505
(1725511965.716003) can0 60D#057d0fa070800505
(1725511965.781947) can0 60A#06048d10
(1725511965.784645) can0 60B#004ec3fd8020019c
(1725511965.784677) can0 60B#014f33fb8020018d
(1725511965.784690) can0 60B#024ffbf9802001a5
(1725511965.784703) can0 60B#03504c1d80200188
(1725511965.784714) can0 60B#0450b47780200189
(1725511965.784726) can0 60B#054efc0980200193
(1725511965.784745) can0 60C#0084633a0220e8
(1725511965.784759) can0 60C#0184a33a0220e8
(1725511965.784773) can0 60C#028ca33a0220e8
(1725511965.787235) can0 60C#038ca53a0220e8
(1725511965.787256) can0 60C#0494e73a8220e8
(1725511965.787270) can0 60C#058ca53a0220e8
(1725511965.787283) can0 60D#007cefa070800605
(1725511965.787295) can0 60D#017d0fa070800d05
(1725511965.787307) can0 60D#027d0fa070800705
(1725511965.787318) can0 60D#037d0fa070800505
(1725511965.787330) can0 60D#047d2fa070800505
(1725511965.787341) can0 60D#057d0fa070800505
(1725511965.851530) can0 60A#06048f10
(1725511965.851572) can0 60B#004ec3fd8020019c
(1725511965.851765) can0 60B#014f33fb8020018d
(1725511965.852152) can0 60B#024ffbf9802001a5
(1725511965.852983) can0 60B#03504c1d80200188
(1725511965.855514) can0 60B#0450b47880202189
(1725511965.855552) can0 60B#054efc0980200193
(1725511965.855572) can0 60C#0084633a0220e8
(1725511965.855587) can0 60C#0184a33a0220e8
(1725511965.855606) can0 60C#028ca33a0220e8
(1725511965.855620) can0 60C#038ca53a0220e8
(1725511965.855634) can0 60C#0494e73a8220e8
(1725511965.855648) can0 60C#058ca53a0220e8
(1725511965.855660) can0 60D#007cefa070800605
(1725511965.858303) can0 60D#017d0fa070800d05
(1725511965.858342) can0 60D#027d0fa070800705
(1725511965.858354) can0 60D#037d0fa070800505
(1725511965.858365) can0 60D#047d2fa070800505
(1725511965.858377) can0 60D#057d0fa070800505
(1725511965.926395) can0 60A#06049110
(1725511965.926629) can0 60B#004ec3fd8020019c
(1725511965.926892) can0 60B#014f33fb8020018d
(1725511965.927247) can0 60B#024ffbf9802001a5
(1725511965.927645) can0 60B#03504c1d80200188
(1725511965.927684) can0 60B#0450b47880202189
(1725511965.927962) can0 60B#054efc0980200193
(1725511965.928155) can0 60C#0084633a0220e8
(1725511965.928341) can0 60C#0184a33a0220e8
(1725511965.928525) can0 60C#028ca33a0220e8
(1725511965.928923) can0 60C#038ca53a0220e8
(1725511965.929118) can0 60C#0494e53a8220e8
(1725511965.929304) can0 60C#058ca53a0220e8
(1725511965.929488) can0 60D#007cefa070800605
(1725511965.930184) can0 60D#017d0fa070800d05
(1725511965.930581) can0 60D#027d0fa070800705
(1725511965.930620) can0 60D#037d0fa070800505
(1725511965.931061) can0 60D#047d2fa070800505
(1725511965.931103) can0 60D#057d0fa070800505
(1725511965.996376) can0 60A#07049310
(1725511965.996678) can0 60B#004ec3fd8020019c
(1725511965.996962) can0 60B#014f33fb8020018d
(1725511965.997392) can0 60B#024ffbf9802001a5
(1725511965.997687) can0 60B#03504c1d80200188
(1725511965.997706) can0 60B#0450b47880202189
(1725511965.998120) can0 60B#054efc0980200193
(1725511965.998509) can0 60B#0859e43080200180
(1725511965.998557) can0 60C#0084633a0220e8
(1725511965.998766) can0 60C#0184a33a0220e8
(1725511965.999018) can0 60C#028ca33a0220e8
(1725511965.999416) can0 60C#038ca53a0220e8
(1725511965.999648) can0 60C#0494e53a8220e8
(1725511965.999665) can0 60C#058ca53a0220e8
(1725511965.999917) can0 60C#089d277b8220c8
(1725511966.000114) can0 60D#007cefa070800605
(1725511966.000302) can0 60D#017cefa070800d05
(1725511966.000645) can0 60D#027d0fa070800705
(1725511966.000890) can0 60D#037d0fa070800505
(1725511966.001233) can0 60D#047d0fa070800505
(1725511966.001414) can0 60D#057d0fa070800505
(1725511966.001756) can0 60D#087c6fa070800505
(1725511966.066464) can0 60A#07049510
(1725511966.066723) can0 60B#004ec3fd8020019c
(1725511966.067028) can0 60B#014f33fb8020018d
(1725511966.067425) can0 60B#024ffbf9802001a5
(1725511966.067686) can0 60B#03504c1d80200188
(1725511966.067701) can0 60B#0450b47880202189
(1725511966.068004) can0 60B#054efc0980200193
(1725511966.068365) can0 60B#0859e43080200180
(1725511966.068770) can0 60C#0084633a0220e8
(1725511966.068811) can0 60C#0184a33a0220e8
(1725511966.069243) can0 60C#028ca33a0220e8
(1725511966.069282) can0 60C#038ca53a0220e8
(1725511966.069665) can0 60C#0494e53a8220e8
(1725511966.070003) can0 60C#058ca53a0220e8
(1725511966.070024) can0 60C#089d297b0220c8
(1725511966.070359) can0 60D#007cefa070800605
(1725511966.070594) can0 60D#017cefa070800d05
(1725511966.070609) can0 60D#027d0fa070800705
(1725511966.071084) can0 60D#037d0fa070800505
(1725511966.071481) can0 60D#047d0fa070800505
(1725511966.071901) can0 60D#057d0fa070800505
(1725511966.071940) can0 60D#087cafa070800505
(1725511966.141307) can0 60A#07049710
(1725511966.141519) can0 60B#004ec3fd8020019c
(1725511966.141880) can0 60B#014f33fb8020018d
(1725511966.142063) can0 60B#024ffbf9802001a5
(1725511966.142405) can0 60B#03504c1d80200188
(1725511966.142587) can0 60B#0450b47880202189
(1725511966.142955) can0 60B#054efc0980200193
(1725511966.143140) can0 60B#0859e42f80200180
(1725511966.143328) can0 60C#0084633a0220e8
(1725511966.143674) can0 60C#0184a33a0220e8
(1725511966.143883) can0 60C#028ca33a0220e8
(1725511966.144071) can0 60C#038ca53a0220e8
(1725511966.144418) can0 60C#0494e53a8220e8
(1725511966.144604) can0 60C#058ca53a0220e8
(1725511966.144960) can0 60C#089d257b0220e8
(1725511966.145143) can0 60D#007cefa070800605
(1725511966.145355) can0 60D#017ccfa070800d05
(1725511966.145736) can0 60D#027d0fa070800705
(1725511966.145964) can0 60D#037d0fa070800505
(1725511966.146320) can0 60D#047d0fa070800505
(1725511966.146718) can0 60D#057d0fa070800505
(1725511966.146959) can0 60D#087cefa070800505
(1725511966.211353) can0 60A#07049910
(1725511966.211590) can0 60B#004ec3fd8020019c
(1725511966.212058) can0 60B#014f33fb8020018d
(1725511966.212331) can0 60B#024ffbf9802001a4
(1725511966.212539) can0 60B#03504c1d80200187
(1725511966.212755) can0 60B#0450b47880202189
(1725511966.213018) can0 60B#054efc0980200193
(1725511966.213303) can0 60B#0859e43080200180
(1725511966.213929) can0 60C#0084633a0220e8
(1725511966.214237) can0 60C#0184a33a0220e8
(1725511966.214261) can0 60C#028ca33a0220e8
(1725511966.214275) can0 60C#038ca53a0220e8
(1725511966.214480) can0 60C#0494e53a8220e8
(1725511966.214693) can0 60C#058ca53a0220e8
(1725511966.215047) can0 60C#089d256a8220e8
(1725511966.215505) can0 60D#007cefa070800605
(1725511966.215940) can0 60D#017ccfa070800d05
(1725511966.215979) can0 60D#027d0fa070800705
(1725511966.216186) can0 60D#037d0fa070800505
(1725511966.216201) can0 60D#047d0fa070800505
(1725511966.216644) can0 60D#057d0fa070800505
(1725511966.216887) can0 60D#087d0fa070800505
(1725511966.281541) can0 60A#07049b10
(1725511966.282082) can0 60B#004ec3fd8020019c
(1725511966.282554) can0 60B#014f33fb8020018d
(1725511966.282589) can0 60B#024ffbf9802001a4
(1725511966.283005) can0 60B#03504c1d80200188
(1725511966.283044) can0 60B#0450b47880202189
(1725511966.283244) can0 60B#054efc0980200193
(1725511966.283260) can0 60B#0859e4308020017f
(1725511966.283485) can0 60C#0084633a0220e8
(1725511966.283713) can0 60C#0184a33a0220e8
(1725511966.284165) can0 60C#028ca33a0220e8
(1725511966.284595) can0 60C#038ca53a0220e8
(1725511966.284636) can0 60C#0494e53a8220e8
(1725511966.284938) can0 60C#058ca53a0220e8
(1725511966.284959) can0 60C#0895256a8220e8
(1725511966.285312) can0 60D#007cefa070800605
(1725511966.285714) can0 60D#017ccfa070800d05
(1725511966.286140) can0 60D#027d0fa070800705
(1725511966.286179) can0 60D#037d0fa070800505
(1725511966.286550) can0 60D#047d0fa070800505
(1725511966.286818) can0 60D#057d0fa070800505
(1725511966.286838) can0 60D#087d0fa070800505
(1725511966.356442) can0 60A#07049d10
(1725511966.356668) can0 60B#004ec3fd8020019c
(1725511966.356927) can0 60B#014f33fb8020018d
(1725511966.357159) can0 60B#024ffbf9802001a4
(1725511966.357569) can0 60B#03504c1d80200188
(1725511966.357898) can0 60B#0450b4788020218a
(1725511966.358129) can0 60B#054efc0980200193
(1725511966.358330) can0 60B#0859e4308020017f
(1725511966.358542) can0 60C#0084633a0220e8
(1725511966.358739) can0 60C#0184a33a0220e8
(1725511966.359017) can0 60C#028ca33a0220e8
(1725511966.359271) can0 60C#038ca53a0220e8
(1725511966.359511) can0 60C#0494e53a8220e8
(1725511966.359758) can0 60C#058ca53a0220e8
(1725511966.360055) can0 60C#0895256a8220e8
(1725511966.360621) can0 60D#007cefa070800605
(1725511966.361015) can0 60D#017ccfa070800d05
(1725511966.361040) can0 60D#027d0fa070800705
(1725511966.361499) can0 60D#037d0fa070800505
(1725511966.361529) can0 60D#047d0fa070800505
(1725511966.362165) can0 60D#057d0fa070800505
(1725511966.362413) can0 60D#087d0fa070800505
(1725511966.426641) can0 60A#07049f10
(1725511966.427013) can0 60B#004ec3fd8020019c
(1725511966.427049) can0 60B#014f33fb8020018d
(1725511966.427283) can0 60B#024ffbf9802001a5
(1725511966.427512) can0 60B#03504c1d80200188
(1725511966.427749) can0 60B#0450b4788020018a
(1725511966.428066) can0 60B#054efc0980200193
(1725511966.428275) can0 60B#0859e4308020017f
(1725511966.428481) can0 60C#0084633a0220e8
(1725511966.428713) can0 60C#0184a33a0220e8
(1725511966.429141) can0 60C#028ca33a0220e8
(1725511966.429422) can0 60C#038ca53a0220e8
(1725511966.429665) can0 60C#0494e53a8220e8
(1725511966.429949) can0 60C#058ca53a0220e8
(1725511966.430320) can0 60C#0895256a8220e8
(1725511966.430568) can0 60D#007cefa070800605
(1725511966.430583) can0 60D#017ccfa070800d05
(1725511966.430777) can0 60D#027d0fa070800705
(1725511966.430988) can0 60D#037d0fa070800505
(1725511966.432112) can0 60D#047d0fa070800505
(1725511966.432172) can0 60D#057d0fa070800505
(1725511966.432194) can0 60D#087d0fa070800505
(1725511966.501475) can0 60A#0704a110
(1725511966.501685) can0 60B#004ec3fd8020019c
(1725511966.502228) can0 60B#014f33fb8020018d
(1725511966.502514) can0 60B#024ffbf9802001a4
(1725511966.502547) can0 60B#03504c1d80200188
(1725511966.502939) can0 60B#0450b4788020218a
(1725511966.503363) can0 60B#054efc0980200193
(1725511966.503402) can0 60B#0859e4308020217e
(1725511966.503618) can0 60C#0084633a0220e8
(1725511966.503806) can0 60C#0184a33a0220e8
(1725511966.503990) can0 60C#028ca33a0220e8
(1725511966.504179) can0 60C#038ca53a0220e8
(1725511966.504523) can0 60C#0494e53a8220e8
(1725511966.504714) can0 60C#058ca53a0220e8
(1725511966.505042) can0 60C#0895256a8220e8
(1725511966.505503) can0 60D#007cefa070800605
(1725511966.505779) can0 60D#017cafa070800d05
(1725511966.505803) can0 60D#027d0fa070800705
(1725511966.506129) can0 60D#037d0fa070800505
(1725511966.506421) can0 60D#047d0fa070800505
(1725511966.506796) can0 60D#057d0fa070800505
(1725511966.507062) can0 60D#087d0fa070800505
(1725511966.571614) can0 60A#0704a310
(1725511966.571904) can0 60B#004ec3fd8020019c
(1725511966.572218) can0 60B#014f3bfb8020018d
(1725511966.572605) can0 60B#024ffbf9802001a4
(1725511966.572990) can0 60B#03504c1d80200188
(1725511966.573018) can0 60B#0450b4788020018a
(1725511966.573405) can0 60B#054efc0980200193
(1725511966.573444) can0 60B#0859dc318020217e
(1725511966.573666) can0 60C#0084633a0220e8
(1725511966.574074) can0 60C#0184a33a0220e8
(1725511966.574506) can0 60C#028ca33a0220e8
(1725511966.574546) can0 60C#038ca53a0220e8
(1725511966.574806) can0 60C#0494e53a8220e8
(1725511966.574830) can0 60C#058ca53a0220e8
(1725511966.575132) can0 60C#0895255a8220e8
(1725511966.575371) can0 60D#007cefa070800605
(1725511966.575568) can0 60D#017cafa070800d05
(1725511966.575790) can0 60D#027d0fa070800705
(1725511966.576102) can0 60D#037d0fa070800505
(1725511966.576362) can0 60D#047d0fa070800505
(1725511966.576689) can0 60D#057d0fa070800505
(1725511966.577169) can0 60D#087d2fa070800505
(1725511966.641581) can0 60A#0704a510
(1725511966.641799) can0 60B#004ec3fd8020019c
(1725511966.642024) can0 60B#014f33fb8020018d
(1725511966.642259) can0 60B#024ffbf9802001a4
(1725511966.642503) can0 60B#03504c1d80200188
(1725511966.643003) can0 60B#0450b4788020018a
(1725511966.643214) can0 60B#054efc0980200193
(1725511966.643407) can0 60B#0859e4318020217e
(1725511966.643600) can0 60C#0084633a0220e8
(1725511966.643834) can0 60C#0184a33a0220e8
(1725511966.644086) can0 60C#028ca33a0220e8
(1725511966.644326) can0 60C#038ca53a0220e8
(1725511966.644560) can0 60C#0494e53a8220e8
(1725511966.644801) can0 60C#058ca53a0220e8
(1725511966.645044) can0 60C#0895255a8220e8
(1725511966.645266) can0 60D#007cefa070800605
(1725511966.645768) can0 60D#017c8fa070800d05
(1725511966.646026) can0 60D#027d0fa070800705
(1725511966.646288) can0 60D#037d0fa070800505
(1725511966.646595) can0 60D#047d0fa070800505
(1725511966.646908) can0 60D#057d0fa070800505
(1725511966.647357) can0 60D#087d2fa070800505
(1725511966.711590) can0 60A#0704a710
(1725511966.711961) can0 60B#004ec3fd8020019c
(1725511966.712403) can0 60B#014f33fb8020018d
(1725511966.712821) can0 60B#024ffbf9802001a5
(1725511966.712892) can0 60B#03504c1d80200188
(1725511966.713292) can0 60B#0450ac788020018a
(1725511966.713332) can0 60B#054efc0980200193
(1725511966.713579) can0 60B#0859dc318020217d
(1725511966.713606) can0 60C#0084633a0220e8
(1725511966.713825) can0 60C#0184a33a0220e8
(1725511966.714075) can0 60C#028ca33a0220e8
(1725511966.714448) can0 60C#038ca53a0220e8
(1725511966.714873) can0 60C#0494e53a8220e8
(1725511966.715278) can0 60C#058ca53a0220e8
(1725511966.715318) can0 60C#0895255a8220e8
(1725511966.715571) can0 60D#007cefa070800605
(1725511966.715591) can0 60D#017c6fa070800d05
(1725511966.715990) can0 60D#027d0fa070800705
(1725511966.716187) can0 60D#037d0fa070800505
(1725511966.716369) can0 60D#047d0fa070800505
(1725511966.716711) can0 60D#057d0fa070800505
(1725511966.717082) can0 60D#087d2fa070800505
(1725511966.786547) can0 60A#0704a910
(1725511966.786764) can0 60B#004ec3fd8020019c
(1725511966.787116) can0 60B#014f3bfb8020018d
(1725511966.787299) can0 60B#024ffbf9802001a5
(1725511966.787640) can0 60B#03504c1d80200188
(1725511966.787879) can0 60B#0450ac7880200189
(1725511966.788060) can0 60B#054efc0980200193
(1725511966.788494) can0 60B#0859dc318020217d
(1725511966.788704) can0 60C#0084633a0220e8
(1725511966.789147) can0 60C#0184a33a0220e8
(1725511966.789569) can0 60C#028ca33a0220e8
(1725511966.789609) can0 60C#038ca53a0220e8
(1725511966.790070) can0 60C#0494e53a8220e8
(1725511966.790110) can0 60C#058ca53a0220e8
(1725511966.790499) can0 60C#0895255a8220e8
(1725511966.790543) can0 60D#007cefa070800605
(1725511966.790748) can0 60D#017c8fa070800d05
(1725511966.791009) can0 60D#027d0fa070800705
(1725511966.791290) can0 60D#037d0fa070800505
(1725511966.791497) can0 60D#047d2fa070800505
(1725511966.791685) can0 60D#057d0fa070800505
(1725511966.791974) can0 60D#087d2fa070800505
(1725511966.856802) can0 60A#0704ab10
(1725511966.856862) can0 60B#004ec3fd8020019c
(1725511966.857049) can0 60B#014f3bfb8020018d
(1725511966.857551) can0 60B#024ffbf9802001a5
(1725511966.857590) can0 60B#03504c1d80200188
(1725511966.857956) can0 60B#0450ac7880200189
(1725511966.858143) can0 60B#054efc0980200193
(1725511966.858482) can0 60B#0859dc308020017d
(1725511966.858718) can0 60C#0084633a0220e8
(1725511966.858996) can0 60C#0184a33a0220e8
(1725511966.859380) can0 60C#028ca33a0220e8
(1725511966.859399) can0 60C#038ca53a0220e8
(1725511966.859786) can0 60C#0494e73a8220cc
(1725511966.860239) can0 60C#058ca53a0220e8
(1725511966.860670) can0 60C#0895255a8220e8
(1725511966.860710) can0 60D#007d0fa070800605
(1725511966.861123) can0 60D#017c6fa070800d05
(1725511966.861152) can0 60D#027d0fa070800705
(1725511966.861541) can0 60D#037d0fa070800505
(1725511966.861983) can0 60D#047d2fa070800505
(1725511966.862022) can0 60D#057d0fa070800505
(1725511966.862425) can0 60D#087d2fa070800505
(1725511966.931598) can0 60A#0704ad10
(1725511966.931921) can0 60B#004ec3fd8020019c
(1725511966.932151) can0 60B#014f3bfb8020018d
(1725511966.932378) can0 60B#024ffbf9802001a5
(1725511966.932571) can0 60B#03504c1d80200188
(1725511966.932958) can0 60B#0450b47880200189
(1725511966.933199) can0 60B#054efc0980200193
(1725511966.933425) can0 60B#0859dc308020017d
(1725511966.933655) can0 60C#0084633a0220e8
(1725511966.933933) can0 60C#0184a33a0220e8
(1725511966.934250) can0 60C#028ca33a0220e8
(1725511966.934557) can0 60C#038ca53a0220e8
(1725511966.934858) can0 60C#0494e73a8220e8
(1725511966.935139) can0 60C#058ca53a0220e8
(1725511966.935167) can0 60C#0895255a8220e8
(1725511966.935467) can0 60D#007d0fa070800605
(1725511966.935719) can0 60D#017c6fa070800d05
(1725511966.935980) can0 60D#027d0fa070800705
(1725511966.936196) can0 60D#037d0fa070800505
(1725511966.936430) can0 60D#047d0fa070800505
(1725511966.938165) can0 60D#057d0fa070800505
(1725511966.938207) can0 60D#087d2fa070800505
(1725511967.001674) can0 60A#0704af10
(1725511967.001995) can0 60B#004ec3fd8020019c
(1725511967.002223) can0 60B#014f3bfb8020018d
(1725511967.002467) can0 60B#024ffbf9802001a5
(1725511967.002709) can0 60B#03504c1d80200188
(1725511967.003016) can0 60B#0450b47880200188
(1725511967.003267) can0 60B#054efc0980200193
(1725511967.003514) can0 60B#0859dc308020017d
(1725511967.003770) can0 60C#0084633a0220e8
(1725511967.004018) can0 60C#0184a33a0220e8
(1725511967.005433) can0 60C#028ca33a0220e8
(1725511967.007956) can0 60C#038ca53a0220e8
(1725511967.007997) can0 60C#0494e73a8220e8
(1725511967.008011) can0 60C#058ca53a0220e8
(1725511967.008025) can0 60C#0895254a0220e8
(1725511967.008041) can0 60D#007d0fa070800605
(1725511967.008054) can0 60D#017c6fa070800d05
(1725511967.008065) can0 60D#027d0fa070800705
(1725511967.008076) can0 60D#037d0fa070800505
(1725511967.008088) can0 60D#047d2fa070800505
(1725511967.008099) can0 60D#057d0fa070800505
(1725511967.008110) can0 60D#087d2fa070800505
(1725511967.071814) can0 60A#0704b110
(1725511967.072081) can0 60B#004ec3fd8020019c
(1725511967.072310) can0 60B#014f3bfb8020018d
(1725511967.072580) can0 60B#024ffbf9802001a5
(1725511967.072824) can0 60B#03504c1d80200188
(1725511967.073086) can0 60B#0450b47880200188
(1725511967.073314) can0 60B#054efc0980200193
(1725511967.073579) can0 60B#0859dc308020017d
(1725511967.073867) can0 60C#0084633a0220e8
(1725511967.074170) can0 60C#0184a33a0220e8
(1725511967.074504) can0 60C#028ca33a0220e8
(1725511967.074524) can0 60C#038ca53a0220e8
(1725511967.074783) can0 60C#0494e73a8220e8
(1725511967.075047) can0 60C#058ca53a0220e8
(1725511967.075271) can0 60C#0895254a0220e8
(1725511967.075583) can0 60D#007d0fa070800605
(1725511967.075899) can0 60D#017c8fa070800d05
(1725511967.076160) can0 60D#027d0fa070800705
(1725511967.076464) can0 60D#037d0fa070800505
(1725511967.076773) can0 60D#047d2fa070800505
(1725511967.077030) can0 60D#057d0fa070800505
(1725511967.077049) can0 60D#087d0fa070800505
(1725511967.146921) can0 60A#0704b310
(1725511967.147292) can0 60B#004ec3fd8020019c
(1725511967.147322) can0 60B#014f3bfb8020018d
(1725511967.147629) can0 60B#024ffbf9802001a5
(1725511967.148017) can0 60B#03504c1d80200188
(1725511967.148293) can0 60B#0450b47880200187
(1725511967.148308) can0 60B#054efc0980200193
(1725511967.148528) can0 60B#0859dc308020017d
(1725511967.148840) can0 60C#0084633a0220e8
(1725511967.149164) can0 60C#0184a33a0220e8
(1725511967.149476) can0 60C#028ca33a0220e8
(1725511967.149788) can0 60C#038ca53a0220e8
(1725511967.149809) can0 60C#0494e73a8220e8
(1725511967.150112) can0 60C#058ca53a0220e8
(1725511967.150425) can0 60C#0895254a0220e8
(1725511967.150655) can0 60D#007d0fa070800605
(1725511967.151001) can0 60D#017cafa070800d05
(1725511967.151266) can0 60D#027d0fa070800705
(1725511967.151531) can0 60D#037d0fa070800505
(1725511967.151758) can0 60D#047d2fa070800505
(1725511967.152016) can0 60D#057d0fa070800505
(1725511967.152321) can0 60D#087d0fa070800505
(1725511967.216718) can0 60A#0704b510
(1725511967.216959) can0 60B#004ec3fd8020019c
(1725511967.217141) can0 60B#014f3bfb8020018d
(1725511967.217677) can0 60B#024ffbf9802001a5
(1725511967.217716) can0 60B#03504c1d80200188
(1725511967.217958) can0 60B#0450b47880200187
(1725511967.218635) can0 60B#054efc0980200193
(1725511967.218674) can0 60B#0859dc308020017e
(1725511967.218899) can0 60C#0084633a0220e8
(1725511967.219260) can0 60C#0184a33a0220e8
(1725511967.219492) can0 60C#028ca33a0220e8
(1725511967.219509) can0 60C#038ca53a0220e8
(1725511967.219693) can0 60C#0494e73a8220cc
(1725511967.220053) can0 60C#058ca53a0220e8
(1725511967.220237) can0 60C#0895254a0220e8
(1725511967.220696) can0 60D#007d0fa070800605
(1725511967.221008) can0 60D#017cafa070800d05
(1725511967.221299) can0 60D#027d0fa070800705
(1725511967.221541) can0 60D#037d0fa070800505
(1725511967.221770) can0 60D#047d2fa070800505
(1725511967.222054) can0 60D#057d0fa070800505
(1725511967.222397) can0 60D#087d0fa070800505
(1725511967.286775) can0 60A#0704b710
(1725511967.287034) can0 60B#004ec3fd8020019c
(1725511967.287264) can0 60B#014f3bfb8020018d
(1725511967.287493) can0 60B#024ffbf9802001a5
(1725511967.287870) can0 60B#03504c1d80200188
(1725511967.288266) can0 60B#0450b47880200187
(1725511967.288662) can0 60B#054efc0980200193
(1725511967.288701) can0 60B#0859e4308020017d
(1725511967.288966) can0 60C#0084633a0220e8
(1725511967.288984) can0 60C#0184a33a0220e8
(1725511967.289331) can0 60C#028ca33a0220e8
(1725511967.289516) can0 60C#038ca53a0220e8
(1725511967.290241) can0 60C#0494e73a8220e8
(1725511967.290281) can0 60C#058ca53a0220e8
(1725511967.290659) can0 60C#0895254a0220e8
(1725511967.290699) can0 60D#007d0fa070800605
(1725511967.290960) can0 60D#017cafa070800d05
(1725511967.291159) can0 60D#027d0fa070800705
(1725511967.291390) can0 60D#037d0fa070800505
(1725511967.291756) can0 60D#047cefa070800505
(1725511967.291988) can0 60D#057d0fa070800505
(1725511967.292172) can0 60D#087d0fa070800505
(1725511967.361786) can0 60A#0704b910
(1725511967.362004) can0 60B#004ec3fd8020019c
(1725511967.362188) can0 60B#014f3bfb8020018d
(1725511967.362529) can0 60B#024ffbf9802001a5
(1725511967.362711) can0 60B#03504c1d80200188
(1725511967.362955) can0 60B#0450b47880200187
(1725511967.363297) can0 60B#054efc0980200193
(1725511967.363641) can0 60B#0859dc308020017e
(1725511967.363882) can0 60C#0084633a0220e8
(1725511967.364070) can0 60C#0184a33a0220e8
(1725511967.364254) can0 60C#028ca33a0220e8
(1725511967.364733) can0 60C#038ca53a0220e8
(1725511967.365035) can0 60C#0494e73a8220cc
(1725511967.365058) can0 60C#058ca53a0220e8
(1725511967.365286) can0 60C#0895254a0220e8
(1725511967.365480) can0 60D#007d0fa070800605
(1725511967.366066) can0 60D#017cafa070800d05
(1725511967.366487) can0 60D#027d0fa070800705
(1725511967.366525) can0 60D#037d0fa070800505
(1725511967.366940) can0 60D#047cefa070800505
(1725511967.367200) can0 60D#057d0fa070800505
(1725511967.367216) can0 60D#087d2fa070800505
(1725511967.431727) can0 60A#0704bb10
(1725511967.431960) can0 60B#004ec3fd8020019c
(1725511967.432302) can0 60B#014f3bfb8020018d
(1725511967.432488) can0 60B#024ffbf9802001a5
(1725511967.432881) can0 60B#03504c1d80200188
(1725511967.433065) can0 60B#0450b47880200187
(1725511967.433249) can0 60B#054efc0980200193
(1725511967.433589) can0 60B#0859dc308020017e
(1725511967.433777) can0 60C#0084633a0220e8
(1725511967.434120) can0 60C#0184a33a0220e8
(1725511967.434305) can0 60C#028ca33a0220e8
(1725511967.434489) can0 60C#038ca53a0220e8
(1725511967.434892) can0 60C#0494e73a8220cc
(1725511967.435364) can0 60C#058ca53a0220e8
(1725511967.435403) can0 60C#0895254a0220e8
(1725511967.435639) can0 60D#007d0fa070800605
(1725511967.435915) can0 60D#017ccfa070800d05
(1725511967.436158) can0 60D#027d0fa070800705
(1725511967.436517) can0 60D#037d0fa070800505
(1725511967.436746) can0 60D#047cefa070800505
(1725511967.436960) can0 60D#057d0fa070800505
(1725511967.437194) can0 60D#087d2fa070800505
(1725511967.501988) can0 60A#0704bd10
(1725511967.502427) can0 60B#004ec3fd8020019c
(1725511967.502465) can0 60B#014f3bfb8020018d
(1725511967.502701) can0 60B#024ffbf9802001a5
(1725511967.503227) can0 60B#03504c1d80200188
(1725511967.503266) can0 60B#0450b47880200187
(1725511967.503679) can0 60B#054efc0980200193
(1725511967.504162) can0 60B#0859dc308020017e
(1725511967.504208) can0 60C#0084633a0220e8
(1725511967.504446) can0 60C#0184a33a0220e8
(1725511967.504599) can0 60C#028ca33a0220e8
(1725511967.505008) can0 60C#038ca53a0220e8
(1725511967.505049) can0 60C#0494e73a8220cc
(1725511967.505453) can0 60C#058ca53a0220e8
(1725511967.505492) can0 60C#0894e54a0220e8
(1725511967.505752) can0 60D#007d0fa070800605
(1725511967.505967) can0 60D#017ccfa070800d05
(1725511967.506196) can0 60D#027d0fa070800705
(1725511967.506438) can0 60D#037d0fa070800505
(1725511967.506808) can0 60D#047cefa070800505
(1725511967.507230) can0 60D#057d0fa070800505
(1725511967.507627) can0 60D#087d2fa070800505
(1725511967.576940) can0 60A#0704bf10
(1725511967.577209) can0 60B#004ec3fd8020019c
(1725511967.577444) can0 60B#014f3bfb8020018d
(1725511967.577668) can0 60B#024ffbf9802001a5
(1725511967.577928) can0 60B#03504c1d80200188
(1725511967.578162) can0 60B#0450b47880200186
(1725511967.578398) can0 60B#054efc0980200193
(1725511967.578624) can0 60B#0859e4308020017e
