(1725510674.945479) can0 60A#0900f110
(1725510674.945544) can0 60B#004ecbfd8020019f
(1725510674.945556) can0 60B#015123f480200174
(1725510674.945787) can0 60B#024fe3f9802001a6
(1725510674.945807) can0 60B#03504c1d8020018a
(1725510674.946228) can0 60B#044f2bfb80200179
(1725510674.946530) can0 60B#054efc0980200193
(1725510674.946803) can0 60B#0650a4768020018d
(1725510674.948128) can0 60B#0759e4308020017d
(1725510674.950753) can0 60B#0850c45a80200190
(1725510674.950815) can0 60C#0084a33a0220e8
(1725510674.950830) can0 60C#0194e53a8220e8
(1725510674.950869) can0 60C#028ca33a0220e8
(1725510674.950884) can0 60C#038ca53a0220e8
(1725510674.950897) can0 60C#048ca33a0220e8
(1725510674.950910) can0 60C#058ca53a0220e8
(1725510674.950922) can0 60C#0694e53a8220e8
(1725510674.950934) can0 60C#078ce54a0220e8
(1725510674.950947) can0 60C#089d298d0220a8
(1725510674.950958) can0 60D#007d0fa070800505
(1725510674.950969) can0 60D#017cefa070800505
(1725510674.952831) can0 60D#027d2fa070800e05
(1725510674.952943) can0 60D#037d0fa070800505
(1725510674.952954) can0 60D#047d0fa070800505
(1725510674.952964) can0 60D#057d0fa070800505
(1725510674.952974) can0 60D#067d8fa070800505
(1725510674.952984) can0 60D#077d0fa070800505
(1725510674.952994) can0 60D#087cefa070800505
(1725510675.019897) can0 60A#0900f310
(1725510675.020300) can0 60B#004ecbfd8020019e
(1725510675.020558) can0 60B#015123f480200173
(1725510675.020572) can0 60B#024fe3f9802001a6
(1725510675.020785) can0 60B#03504c1d8020018a
(1725510675.021191) can0 60B#044f33fb80200179
(1725510675.021409) can0 60B#054efc0980200193
(1725510675.021634) can0 60B#0650a4768020018d
(1725510675.021888) can0 60B#0759e4308020017d
(1725510675.022272) can0 60B#0850c45a80200190
(1725510675.022699) can0 60C#0084a33a0220e8
(1725510675.023019) can0 60C#0194e53a8220e8
(1725510675.023044) can0 60C#028ca33a0220e8
(1725510675.023435) can0 60C#038ca53a0220e8
(1725510675.023695) can0 60C#048ca33a0220e8
(1725510675.023711) can0 60C#058ca53a0220e8
(1725510675.023931) can0 60C#0694e53a8220e8
(1725510675.024162) can0 60C#078ce53a0220e8
(1725510675.024449) can0 60C#089d2b8d0220ac
(1725510675.024820) can0 60D#007d0fa070800505
(1725510675.025088) can0 60D#017cefa070800505
(1725510675.025270) can0 60D#027d2fa070800e05
(1725510675.025518) can0 60D#037d0fa070800505
(1725510675.025919) can0 60D#047d2fa070800505
(1725510675.026366) can0 60D#057d0fa070800505
(1725510675.026403) can0 60D#067d6fa070800505
(1725510675.026798) can0 60D#077d0fa070800505
(1725510675.027246) can0 60D#087cefa070800505
(1725510675.095200) can0 60A#0a00f510
(1725510675.095239) can0 60B#004ecbfd8020019e
(1725510675.095635) can0 60B#015123f480200173
(1725510675.095964) can0 60B#024fe3f9802001a6
(1725510675.095981) can0 60B#03504c1d8020018a
(1725510675.096200) can0 60B#044f33fb80200178
(1725510675.096591) can0 60B#054efc0980200194
(1725510675.097030) can0 60B#0650a4768020018b
(1725510675.097067) can0 60B#0759e4308020017d
(1725510675.097467) can0 60B#0850c45a80200190
(1725510675.097778) can0 60B#0950dbf68020017a
(1725510675.097812) can0 60C#0084a33a0220e8
(1725510675.098220) can0 60C#0194e53a0220e8
(1725510675.098651) can0 60C#028ca33a0220e8
(1725510675.098689) can0 60C#038ca53a0220e8
(1725510675.098934) can0 60C#048ca53a0220e8
(1725510675.098950) can0 60C#058ca53a0220e8
(1725510675.099331) can0 60C#0694e53a8220e8
(1725510675.099787) can0 60C#078ce53a0220e8
(1725510675.099825) can0 60C#08a56d8d0220ac
(1725510675.100254) can0 60C#09a5278d822064
(1725510675.100293) can0 60D#007d0fa070800505
(1725510675.100691) can0 60D#017d2fa070800505
(1725510675.100969) can0 60D#027d0fa070800e05
(1725510675.100984) can0 60D#037d0fa070800505
(1725510675.101358) can0 60D#047d0fa070800505
(1725510675.101662) can0 60D#057d0fa070800505
(1725510675.101979) can0 60D#067d4fa070800505
(1725510675.101994) can0 60D#077d0fa070800505
(1725510675.102558) can0 60D#087cefa070800505
(1725510675.103050) can0 60D#097d0fa070800505
(1725510675.169976) can0 60A#0a00f710
(1725510675.170277) can0 60B#004ecbfd8020019e
(1725510675.170500) can0 60B#015123f480200172
(1725510675.170719) can0 60B#024fe3f9802001a6
(1725510675.170956) can0 60B#03504c1d8020018a
(1725510675.171182) can0 60B#044f33fb80200178
(1725510675.171538) can0 60B#054efc0980200194
(1725510675.171963) can0 60B#0650a4778020018b
(1725510675.172194) can0 60B#0759e4308020017e
(1725510675.172208) can0 60B#0850c45a80200190
(1725510675.172399) can0 60B#0950c3f68020017b
(1725510675.173002) can0 60C#0084a33a0220e8
(1725510675.173040) can0 60C#018ca53a0220e8
(1725510675.173399) can0 60C#028ca33a0220e8
(1725510675.173762) can0 60C#038ca53a0220e8
(1725510675.173779) can0 60C#048ca33a0220e8
(1725510675.174135) can0 60C#058ca53a0220e8
(1725510675.174367) can0 60C#0694e73a8220e8
(1725510675.174383) can0 60C#078ce53a0220e8
(1725510675.174991) can0 60C#08a56f8d02208c
(1725510675.175397) can0 60C#099ce78c8220a8
(1725510675.175436) can0 60D#007d0fa070800505
(1725510675.175698) can0 60D#017d4fa070800505
(1725510675.175715) can0 60D#027ccfa070800e05
(1725510675.176001) can0 60D#037d0fa070800505
(1725510675.176390) can0 60D#047cefa070800505
(1725510675.176818) can0 60D#057d0fa070800505
(1725510675.177263) can0 60D#067d4fa070800505
(1725510675.177300) can0 60D#077d2fa070800505
(1725510675.177701) can0 60D#087cefa070800505
(1725510675.177738) can0 60D#097c8fa070800505
(1725510675.245221) can0 60A#0a00f910
(1725510675.245486) can0 60B#004ecbfd8020019e
(1725510675.245499) can0 60B#015123f480200172
(1725510675.245708) can0 60B#024fe3f9802001a6
(1725510675.245962) can0 60B#03504c1d8020018a
(1725510675.246192) can0 60B#044f2bfb80200178
(1725510675.246574) can0 60B#054efc0980200194
(1725510675.247067) can0 60B#0650a4768020018b
(1725510675.247498) can0 60B#0759e4308020017e
(1725510675.247535) can0 60B#0850c45a80200190
(1725510675.247954) can0 60B#0950bbf5801fe17c
(1725510675.247998) can0 60C#0084a33a0220e8
(1725510675.248430) can0 60C#018ca53a0220e8
(1725510675.248468) can0 60C#028ca33a0220e8
(1725510675.248905) can0 60C#038ca53a0220e8
(1725510675.248943) can0 60C#048ca33a0220e8
(1725510675.249348) can0 60C#058ca53a0220e8
(1725510675.249385) can0 60C#0694e73a8220e8
(1725510675.249794) can0 60C#078ce53a8220e8
(1725510675.249832) can0 60C#08a5af8d02208c
(1725510675.250260) can0 60C#099ce57c0220e8
(1725510675.250690) can0 60D#007d0fa070800505
(1725510675.250728) can0 60D#017d6fa070800505
(1725510675.250943) can0 60D#027cafa070800e05
(1725510675.250957) can0 60D#037d0fa070800505
(1725510675.251548) can0 60D#047cefa070800505
(1725510675.251585) can0 60D#057d0fa070800505
(1725510675.251980) can0 60D#067d4fa070800505
(1725510675.252404) can0 60D#077d0fa070800505
(1725510675.252661) can0 60D#087cefa070800505
(1725510675.252675) can0 60D#097d6fa070800605
(1725510675.319921) can0 60A#0a00fb10
(1725510675.320158) can0 60B#004ecbfd8020019e
(1725510675.320371) can0 60B#015123f480200172
(1725510675.320949) can0 60B#024fe3f9802001a6
(1725510675.320986) can0 60B#03504c1d8020018a
(1725510675.321208) can0 60B#044f2bfb80200178
(1725510675.321434) can0 60B#054efc0980200194
(1725510675.321678) can0 60B#0650a4768020018c
(1725510675.321927) can0 60B#0759e4308020017d
(1725510675.322360) can0 60B#0850c45a80200190
(1725510675.322613) can0 60B#0950bbf5801fc17c
(1725510675.322904) can0 60C#0084a33a0220e8
(1725510675.323293) can0 60C#018ca53a0220e8
(1725510675.323721) can0 60C#028ca33a0220e8
(1725510675.323776) can0 60C#038ca53a0220e8
(1725510675.324181) can0 60C#048ca33a0220e8
(1725510675.324219) can0 60C#058ca53a0220e8
(1725510675.324459) can0 60C#0694e73a8220e8
(1725510675.324478) can0 60C#078ce53a8220e8
(1725510675.324700) can0 60C#08adb18d02206c
(1725510675.324958) can0 60C#0994e57b8220e8
(1725510675.325366) can0 60D#007d2fa070800505
(1725510675.325741) can0 60D#017dafa070800505
(1725510675.325976) can0 60D#027c8fa070800e05
(1725510675.326021) can0 60D#037d0fa070800505
(1725510675.326757) can0 60D#047d0fa070800505
(1725510675.326793) can0 60D#057d0fa070800505
(1725510675.327196) can0 60D#067d2fa070800505
(1725510675.327618) can0 60D#077d2fa070800505
(1725510675.327655) can0 60D#087cefa070800505
(1725510675.328022) can0 60D#097d6fa170800a0c
(1725510675.389997) can0 60A#0a00fd10
(1725510675.390414) can0 60B#004ecbfd8020019d
(1725510675.390677) can0 60B#015123f480200173
(1725510675.390694) can0 60B#024fe3f9802001a6
(1725510675.390963) can0 60B#03504c1d8020018b
(1725510675.391341) can0 60B#044f2bfb80200179
(1725510675.391762) can0 60B#054efc0980200194
(1725510675.392187) can0 60B#0650a4778020018c
(1725510675.392223) can0 60B#0759e4308020017d
(1725510675.392476) can0 60B#0850c45a80200190
(1725510675.392696) can0 60B#0950b3f5801fe17c
(1725510675.392973) can0 60C#0084a33a0220e8
(1725510675.393188) can0 60C#018ca53a8220e8
(1725510675.393572) can0 60C#028ca33a0220e8
(1725510675.394035) can0 60C#038ca53a0220e8
(1725510675.394075) can0 60C#048ca33a0220e8
(1725510675.394323) can0 60C#058ca53a0220e8
(1725510675.394343) can0 60C#0694e53a8220e8
(1725510675.394726) can0 60C#078ce53a0220e8
(1725510675.394994) can0 60C#08adb18d02206c
(1725510675.395010) can0 60C#0994e56b0220e8
(1725510675.395387) can0 60D#007d2fa070800505
(1725510675.395808) can0 60D#017dafa070800505
(1725510675.396061) can0 60D#027c4fa070800e05
(1725510675.396076) can0 60D#037d0fa070800505
(1725510675.396287) can0 60D#047d0fa070800505
(1725510675.396688) can0 60D#057d0fa070800505
(1725510675.396935) can0 60D#067d0fa070800505
(1725510675.397312) can0 60D#077d0fa070800505
(1725510675.397731) can0 60D#087cefa070800505
(1725510675.397989) can0 60D#097d8fa170800a0c
(1725510675.465252) can0 60A#0a00ff10
(1725510675.465674) can0 60B#004ecbfd8020019d
(1725510675.465711) can0 60B#015123f480200173
(1725510675.465968) can0 60B#024fe3f9802001a6
(1725510675.465981) can0 60B#03504c1d8020018b
(1725510675.466198) can0 60B#044f2bfb80200179
(1725510675.466556) can0 60B#054efc0980200193
(1725510675.466769) can0 60B#0650a4778020018c
(1725510675.466982) can0 60B#0759e4308020017d
(1725510675.467362) can0 60B#0850c45a80200190
(1725510675.467623) can0 60B#0950b3f5801fe17c
(1725510675.467899) can0 60C#0084a33a0220e8
(1725510675.468286) can0 60C#018ca53a8220e8
(1725510675.468561) can0 60C#028ca33a0220e8
(1725510675.468579) can0 60C#038ca53a0220e8
(1725510675.468971) can0 60C#048ca33a0220e8
(1725510675.469397) can0 60C#058ca53a0220e8
(1725510675.469435) can0 60C#0694e53a8220e8
(1725510675.469857) can0 60C#078ce53a8220e8
(1725510675.470285) can0 60C#08b5b18d02206c
(1725510675.470325) can0 60C#0994e56a8220e8
(1725510675.470726) can0 60D#007d2fa070800505
(1725510675.470762) can0 60D#017d8fa070800505
(1725510675.470995) can0 60D#027c2fa070800e05
(1725510675.471206) can0 60D#037d0fa070800505
(1725510675.471415) can0 60D#047d2fa070800505
(1725510675.471624) can0 60D#057d0fa070800505
(1725510675.472031) can0 60D#067d0fa070800505
(1725510675.472450) can0 60D#077d0fa070800505
(1725510675.472714) can0 60D#087cefa070800505
(1725510675.472731) can0 60D#097d6fa170800a0c
(1725510675.543340) can0 60A#0a010110
(1725510675.543386) can0 60B#004ecbfd8020019d
(1725510675.543398) can0 60B#015123f480200173
(1725510675.543409) can0 60B#024fe3f9802001a6
(1725510675.543419) can0 60B#03504c1d8020018a
(1725510675.543429) can0 60B#044f2bfb80200178
(1725510675.543439) can0 60B#054efc0980200193
(1725510675.543448) can0 60B#0650a4778020018d
(1725510675.546157) can0 60B#0759e4308020017d
(1725510675.546194) can0 60B#0850c45a80200190
(1725510675.546205) can0 60B#0950b3f5801fe17c
(1725510675.546223) can0 60C#0084a33a0220e8
(1725510675.546237) can0 60C#018ca53a0220e8
(1725510675.546252) can0 60C#028ca33a0220e8
(1725510675.546265) can0 60C#038ca53a0220e8
(1725510675.546277) can0 60C#048ca33a0220e8
(1725510675.546289) can0 60C#058ca53a0220e8
(1725510675.546301) can0 60C#0694a53a8220e8
(1725510675.546313) can0 60C#078ce53a8220e8
(1725510675.546325) can0 60C#08b5f38d02204c
(1725510675.546337) can0 60C#0994a35a8220e8
(1725510675.549016) can0 60D#007d2fa070800505
(1725510675.549053) can0 60D#017d8fa070800505
(1725510675.549064) can0 60D#027c0fa070800e05
(1725510675.549074) can0 60D#037d0fa070800505
(1725510675.549084) can0 60D#047d4fa070800505
(1725510675.549094) can0 60D#057d0fa070800505
(1725510675.549104) can0 60D#067d2fa070800505
(1725510675.549114) can0 60D#077d0fa070800505
(1725510675.549128) can0 60D#087cefa070800505
(1725510675.549138) can0 60D#097d4fa170800a0c
(1725510675.615007) can0 60A#0a010310
(1725510675.615414) can0 60B#004ecbfd8020019d
(1725510675.615834) can0 60B#015123f380200170
(1725510675.616273) can0 60B#024febf9802001a6
(1725510675.616310) can0 60B#03504c1d8020018b
(1725510675.616546) can0 60B#044f2bfb80200179
(1725510675.616560) can0 60B#054efc0980200193
(1725510675.616770) can0 60B#0650a4778020018d
(1725510675.617172) can0 60B#0759e4308020017d
(1725510675.617381) can0 60B#0850c45a80200190
(1725510675.617591) can0 60B#0950b3f5801fe17d
(1725510675.617888) can0 60C#0084a33a0220e8
(1725510675.618110) can0 60C#018ca53a8220c8
(1725510675.618499) can0 60C#028ca33a0220e8
(1725510675.618953) can0 60C#038ca53a0220e8
(1725510675.618992) can0 60C#048ca33a0220e8
(1725510675.619397) can0 60C#058ca53a0220e8
(1725510675.619825) can0 60C#0694e53a8220e8
(1725510675.619892) can0 60C#078ce53a0220e8
(1725510675.620139) can0 60C#08bdf38d02204c
(1725510675.620158) can0 60C#098ce55a8220e8
(1725510675.620535) can0 60D#007d2fa070800505
(1725510675.620971) can0 60D#017d8fa070800505
(1725510675.621009) can0 60D#027befa070800e05
(1725510675.621241) can0 60D#037d2fa070800505
(1725510675.621453) can0 60D#047d4fa070800505
(1725510675.621663) can0 60D#057d0fa070800505
(1725510675.621887) can0 60D#067d2fa070800505
(1725510675.622301) can0 60D#077cefa070800505
(1725510675.622683) can0 60D#087cefa070800505
(1725510675.622969) can0 60D#097d4fa170800a0c
(1725510675.685120) can0 60A#09010510
(1725510675.685357) can0 60B#004ecbfd8020019d
(1725510675.685735) can0 60B#015123f380200171
(1725510675.686007) can0 60B#024febf9802001a6
(1725510675.686026) can0 60B#03504c1d8020018b
(1725510675.686428) can0 60B#044f2bfb80200179
(1725510675.686876) can0 60B#054efc0980200193
(1725510675.687296) can0 60B#0650a4778020018d
(1725510675.687333) can0 60B#0759e4308020017d
(1725510675.687696) can0 60B#0950b3f5801fe17d
(1725510675.687741) can0 60C#0084a33a0220e8
(1725510675.687954) can0 60C#018ca53a8220e8
(1725510675.688219) can0 60C#028ca33a0220e8
(1725510675.688621) can0 60C#038ca53a0220e8
(1725510675.688929) can0 60C#048ca33a0220e8
(1725510675.688944) can0 60C#058ca53a0220e8
(1725510675.689323) can0 60C#0694a53a8220e8
(1725510675.689767) can0 60C#078ce53a8220e8
(1725510675.689806) can0 60C#098ca35a0220e8
(1725510675.690205) can0 60D#007d2fa070800505
(1725510675.690628) can0 60D#017d6fa070800505
(1725510675.690665) can0 60D#027befa070800e05
(1725510675.690938) can0 60D#037d2fa070800505
(1725510675.690956) can0 60D#047d4fa070800505
(1725510675.691329) can0 60D#057cefa070800505
(1725510675.691594) can0 60D#067d0fa070800505
(1725510675.692026) can0 60D#077d0fa070800505
(1725510675.692443) can0 60D#097d4fa170800a0c
(1725510675.760363) can0 60A#09010710
(1725510675.760624) can0 60B#004ecbfd8020019d
(1725510675.760638) can0 60B#015123f38020016f
(1725510675.760895) can0 60B#024febf9802001a6
(1725510675.761279) can0 60B#03504c1d8020018b
(1725510675.761562) can0 60B#044f2bfb80200179
(1725510675.761580) can0 60B#054efc0980200193
(1725510675.762034) can0 60B#0650a4778020018d
(1725510675.762459) can0 60B#0759e4308020017d
(1725510675.762902) can0 60B#0950b3f5801fe17d
(1725510675.762947) can0 60C#0084a33a0220e8
(1725510675.763194) can0 60C#018ca53a8220c8
(1725510675.763214) can0 60C#028ca33a0220e8
(1725510675.763600) can0 60C#038ca53a0220e8
(1725510675.764046) can0 60C#048ca33a0220e8
(1725510675.764085) can0 60C#058ca53a0220e8
(1725510675.764517) can0 60C#0694a53a8220e8
(1725510675.764555) can0 60C#078ce53a8220e8
(1725510675.764965) can0 60C#098ce35a0220e8
(1725510675.765395) can0 60D#007d2fa070800505
(1725510675.765432) can0 60D#017d6fa070800505
(1725510675.765826) can0 60D#027befa070800d05
(1725510675.765883) can0 60D#037d2fa070800505
(1725510675.766282) can0 60D#047d6fa070800505
(1725510675.766697) can0 60D#057cefa070800505
(1725510675.766733) can0 60D#067cefa070800505
(1725510675.766965) can0 60D#077d0fa070800505
(1725510675.766979) can0 60D#097d4fa170800a0c
(1725510675.835246) can0 60A#09010910
(1725510675.835547) can0 60B#004ecbfd8020019d
(1725510675.835955) can0 60B#015123f380200170
(1725510675.836377) can0 60B#024febf9802001a6
(1725510675.836415) can0 60B#03504c1d8020018b
(1725510675.836821) can0 60B#044f2bfb80200178
(1725510675.836879) can0 60B#054efc0980200193
(1725510675.837275) can0 60B#0650a4778020018c
(1725510675.837312) can0 60B#0759e4308020017d
(1725510675.837553) can0 60B#0950b3f5801fe17d
(1725510675.837953) can0 60C#0084a33a0220e8
(1725510675.838214) can0 60C#018ca53a0220e8
(1725510675.838230) can0 60C#028ca33a0220e8
(1725510675.838414) can0 60C#038ca53a0220e8
(1725510675.838604) can0 60C#048ca33a0220e8
(1725510675.839080) can0 60C#058ca53a0220e8
(1725510675.839463) can0 60C#0694e73a8220c8
(1725510675.839911) can0 60C#078ce53a8220e8
(1725510675.839948) can0 60C#098ce34a0220e8
(1725510675.840158) can0 60D#007d2fa070800505
(1725510675.840172) can0 60D#017d2fa070800505
(1725510675.840563) can0 60D#027befa070800d05
(1725510675.840777) can0 60D#037d2fa070800505
(1725510675.840987) can0 60D#047d6fa070800505
(1725510675.841199) can0 60D#057cefa070800505
(1725510675.841596) can0 60D#067cefa070800505
(1725510675.841856) can0 60D#077cefa070800505
(1725510675.842047) can0 60D#097d2fa170800a0c
(1725510675.910250) can0 60A#09010b10
(1725510675.910673) can0 60B#004ecbfd8020019d
(1725510675.910961) can0 60B#015123f380200171
(1725510675.910978) can0 60B#024febf9802001a6
(1725510675.911200) can0 60B#03504c1d8020018b
(1725510675.911583) can0 60B#044f2bfb80200178
(1725510675.912024) can0 60B#054efc0980200193
(1725510675.912060) can0 60B#0650a4778020018d
(1725510675.912455) can0 60B#0759e4308020017e
(1725510675.912901) can0 60B#0950b3f58020017d
(1725510675.912947) can0 60C#0084a33a0220e8
(1725510675.913188) can0 60C#018ca53a8220e8
(1725510675.913206) can0 60C#028ca33a0220e8
(1725510675.913423) can0 60C#038ca53a0220e8
(1725510675.913653) can0 60C#048ca33a0220e8
(1725510675.913867) can0 60C#058ca53a0220e8
(1725510675.914409) can0 60C#0694e73a8220e8
(1725510675.914448) can0 60C#078ce53a8220e8
(1725510675.914696) can0 60C#098ca34a0220e8
(1725510675.914965) can0 60D#007d2fa070800505
(1725510675.915349) can0 60D#017d2fa070800505
(1725510675.915768) can0 60D#027befa070800d05
(1725510675.916185) can0 60D#037d2fa070800505
(1725510675.916222) can0 60D#047d6fa070800505
(1725510675.916461) can0 60D#057cefa070800505
(1725510675.916478) can0 60D#067ccfa070800505
(1725510675.917233) can0 60D#077cefa070800505
(1725510675.917270) can0 60D#097d2fa170800a0c
(1725510675.985155) can0 60A#09010d10
(1725510675.985570) can0 60B#004ecbfd8020019d
(1725510675.985891) can0 60B#015123f380200172
(1725510675.985905) can0 60B#024febf9802001a6
(1725510675.986120) can0 60B#03504c1d8020018b
(1725510675.986330) can0 60B#044f2bfb80200178
(1725510675.986959) can0 60B#054efc0980200194
(1725510675.986996) can0 60B#0650a4778020018d
(1725510675.987375) can0 60B#0759e4308020017e
(1725510675.987798) can0 60B#0950b3f58020017c
(1725510675.987860) can0 60C#0084a33a0220e8
(1725510675.988266) can0 60C#018ca53a8220e8
(1725510675.988696) can0 60C#028ca33a0220e8
(1725510675.988735) can0 60C#038ca53a0220e8
(1725510675.989060) can0 60C#048ca53a0220e8
(1725510675.989076) can0 60C#058ca53a0220e8
(1725510675.989454) can0 60C#0694e53a8220e8
(1725510675.989909) can0 60C#078ce53a8220e8
(1725510675.989948) can0 60C#098ca34a0220e8
(1725510675.990185) can0 60D#007d2fa070800505
(1725510675.990201) can0 60D#017d0fa070800505
(1725510675.990382) can0 60D#027befa070800d05
(1725510675.990775) can0 60D#037d2fa070800505
(1725510675.990987) can0 60D#047d6fa070800505
(1725510675.991199) can0 60D#057cefa070800505
(1725510675.991596) can0 60D#067cefa070800505
(1725510675.991885) can0 60D#077cefa070800505
(1725510675.992109) can0 60D#097d2fa170800a0c
(1725510676.060293) can0 60A#09010f10
(1725510676.060714) can0 60B#004ecbfd8020019d
(1725510676.060961) can0 60B#015123f380200172
(1725510676.060975) can0 60B#024febf9802001a6
(1725510676.061346) can0 60B#03504c1d8020018b
(1725510676.061610) can0 60B#044f2bfb80200177
(1725510676.061902) can0 60B#054efc0980200194
(1725510676.062289) can0 60B#0650a4778020018c
(1725510676.062329) can0 60B#0759e4308020017e
(1725510676.062562) can0 60B#0950b3f58020017c
(1725510676.062968) can0 60C#0084a33a0220e8
(1725510676.063401) can0 60C#018ce53a8220e8
(1725510676.063439) can0 60C#028ca33a0220e8
(1725510676.063839) can0 60C#038ca53a0220e8
(1725510676.063908) can0 60C#048ca53a0220e8
(1725510676.064172) can0 60C#058ca53a0220e8
(1725510676.064188) can0 60C#0694e53a8220e8
(1725510676.064590) can0 60C#078ce53a8220e8
(1725510676.064901) can0 60C#098ca34a0220e8
(1725510676.065090) can0 60D#007d2fa070800505
(1725510676.065288) can0 60D#017d0fa070800505
(1725510676.065499) can0 60D#027befa070800d05
(1725510676.065733) can0 60D#037d2fa070800505
(1725510676.066309) can0 60D#047d4fa070800505
(1725510676.066731) can0 60D#057cefa070800505
(1725510676.066768) can0 60D#067ccfa070800505
(1725510676.067017) can0 60D#077cefa070800505
(1725510676.067403) can0 60D#097d2fa170800a0c
(1725510676.135340) can0 60A#09011110
(1725510676.135737) can0 60B#004ecbfd8020019d
(1725510676.135775) can0 60B#015123f380200172
(1725510676.135981) can0 60B#024febf9802001a6
(1725510676.136162) can0 60B#03504c1d8020018b
(1725510676.136348) can0 60B#044f2bfb80200177
(1725510676.136891) can0 60B#054efc0980200194
(1725510676.137156) can0 60B#0650a4778020018c
(1725510676.137173) can0 60B#0759e4308020017e
(1725510676.137550) can0 60B#0950b3f58020017c
(1725510676.137769) can0 60C#0084a33a0220e8
(1725510676.138062) can0 60C#018ca53a0220e8
(1725510676.138459) can0 60C#028ca33a0220e8
(1725510676.138902) can0 60C#038ca53a0220e8
(1725510676.138942) can0 60C#048ca33a0220e8
(1725510676.139204) can0 60C#058ca53a0220e8
(1725510676.139229) can0 60C#0694e53a8220e8
(1725510676.139472) can0 60C#078ce53a0220e8
(1725510676.140147) can0 60C#098ca33a0220e8
(1725510676.140438) can0 60D#007d2fa070800505
(1725510676.140462) can0 60D#017d0fa070800505
(1725510676.140676) can0 60D#027befa070800d05
(1725510676.140974) can0 60D#037d2fa070800505
(1725510676.141200) can0 60D#047d2fa070800505
(1725510676.141396) can0 60D#057cefa070800505
(1725510676.141612) can0 60D#067ccfa070800505
(1725510676.141912) can0 60D#077cefa070800505
(1725510676.142410) can0 60D#097d4fa170800a0c
(1725510676.210484) can0 60A#09011310
(1725510676.210523) can0 60B#004ecbfd8020019d
(1725510676.210927) can0 60B#015123f380200172
(1725510676.211192) can0 60B#024febf9802001a6
(1725510676.211209) can0 60B#03504c1d8020018b
(1725510676.211520) can0 60B#044f2bfb80200177
(1725510676.211778) can0 60B#054efc0980200194
(1725510676.211996) can0 60B#0650a4778020018d
(1725510676.212211) can0 60B#0759e4308020017f
(1725510676.212627) can0 60B#0950abf58020017c
(1725510676.212898) can0 60C#0084a33a0220e8
(1725510676.213294) can0 60C#018ca53a0220e8
(1725510676.213724) can0 60C#028ca33a0220e8
(1725510676.213763) can0 60C#038ca53a0220e8
(1725510676.214011) can0 60C#048ca33a0220e8
(1725510676.214030) can0 60C#058ca53a0220e8
(1725510676.214253) can0 60C#0694e53a8220e8
(1725510676.214483) can0 60C#078ce53a0220e8
(1725510676.214890) can0 60C#098ca33a0220e8
(1725510676.215318) can0 60D#007d2fa070800505
(1725510676.215736) can0 60D#017d0fa070800505
(1725510676.215773) can0 60D#027befa070800d05
(1725510676.216013) can0 60D#037d2fa070800505
(1725510676.216242) can0 60D#047d2fa070800505
(1725510676.216463) can0 60D#057d0fa070800505
(1725510676.216835) can0 60D#067cefa070800505
(1725510676.217288) can0 60D#077ccfa070800505
(1725510676.217325) can0 60D#097d6fa170800a0c
(1725510676.280293) can0 60A#09011510
(1725510676.280532) can0 60B#004ecbfd8020019d
(1725510676.280744) can0 60B#015123f380200172
(1725510676.280955) can0 60B#024febf9802001a6
(1725510676.281178) can0 60B#03504c1d8020018b
(1725510676.281712) can0 60B#044f2bfb80200176
(1725510676.282012) can0 60B#054efc0980200194
(1725510676.282034) can0 60B#0650a4778020018d
(1725510676.282422) can0 60B#0759e42f8020017f
(1725510676.282680) can0 60B#0950abf58020017c
(1725510676.282965) can0 60C#0084a33a0220e8
(1725510676.283193) can0 60C#018ca53a0220e8
(1725510676.283583) can0 60C#028ca33a0220e8
(1725510676.284055) can0 60C#038ca53a0220e8
(1725510676.284083) can0 60C#048ca33a0220e8
(1725510676.284096) can0 60C#058ca53a0220e8
(1725510676.284504) can0 60C#0694e53a8220e8
(1725510676.284959) can0 60C#078ce53a0220e8
(1725510676.284997) can0 60C#098ca33a0220e8
(1725510676.285391) can0 60D#007d2fa070800505
(1725510676.285833) can0 60D#017d2fa070800505
(1725510676.285903) can0 60D#027c0fa070800d05
(1725510676.286124) can0 60D#037d0fa070800505
(1725510676.286139) can0 60D#047d2fa070800505
(1725510676.286350) can0 60D#057d0fa070800505
(1725510676.286784) can0 60D#067ccfa070800505
(1725510676.287169) can0 60D#077ccfa070800505
(1725510676.287430) can0 60D#097d6fa170800a0c
(1725510676.355622) can0 60A#09011710
(1725510676.355661) can0 60B#004ecbfd8020019d
(1725510676.356107) can0 60B#015123f380200172
(1725510676.356144) can0 60B#024febf9802001a6
(1725510676.356583) can0 60B#03504c1d8020018b
(1725510676.357043) can0 60B#044f2bfb80200176
(1725510676.357095) can0 60B#054efc0980200194
(1725510676.357454) can0 60B#0650a4778020018c
(1725510676.357490) can0 60B#0759e42f8020017f
(1725510676.357946) can0 60B#0950abf58020017c
(1725510676.358266) can0 60C#0084a33a0220e8
(1725510676.358282) can0 60C#018ca53a0220e8
(1725510676.358663) can0 60C#028ca53a0220e8
(1725510676.358700) can0 60C#038ca53a0220e8
(1725510676.359109) can0 60C#048ca53a0220e8
(1725510676.359412) can0 60C#058ca53a0220e8
(1725510676.359432) can0 60C#0694e53a8220e8
(1725510676.359744) can0 60C#078ce53a0220e8
(1725510676.360191) can0 60C#098ca33a0220e8
(1725510676.360228) can0 60D#007d2fa070800505
(1725510676.360664) can0 60D#017d2fa070800505
(1725510676.360956) can0 60D#027c0fa070800d05
(1725510676.360971) can0 60D#037d0fa070800505
(1725510676.361377) can0 60D#047d0fa070800505
(1725510676.361836) can0 60D#057d0fa070800505
(1725510676.361897) can0 60D#067ccfa070800505
(1725510676.362182) can0 60D#077ccfa070800505
(1725510676.362195) can0 60D#097d6fa170800a0c
(1725510676.430291) can0 60A#09011910
(1725510676.430530) can0 60B#004ecbfd8020019d
(1725510676.430740) can0 60B#015123f380200173
(1725510676.430951) can0 60B#024febf9802001a6
(1725510676.431680) can0 60B#03504c1d8020018b
(1725510676.431718) can0 60B#044f2bfb80200177
(1725510676.431933) can0 60B#054efc0980200194
(1725510676.432312) can0 60B#0650a4778020018b
(1725510676.432801) can0 60B#0759e42f8020017e
(1725510676.432857) can0 60B#0950abf58020017c
(1725510676.433265) can0 60C#0084a33a0220e8
(1725510676.433303) can0 60C#018ca53a0220e8
(1725510676.433703) can0 60C#028ca33a0220e8
(1725510676.433741) can0 60C#038ca53a0220e8
(1725510676.433980) can0 60C#048ca53a0220e8
(1725510676.434366) can0 60C#058ca53a0220e8
(1725510676.434792) can0 60C#0694a53a8220e8
(1725510676.434831) can0 60C#078ce53a0220e8
(1725510676.435088) can0 60C#098ca33a0220e8
(1725510676.435103) can0 60D#007d2fa070800505
(1725510676.435289) can0 60D#017d2fa070800505
(1725510676.435674) can0 60D#027c0fa070800d05
(1725510676.435966) can0 60D#037d0fa070800505
(1725510676.436177) can0 60D#047d0fa070800505
(1725510676.436555) can0 60D#057d0fa070800505
(1725510676.437034) can0 60D#067ccfa070800505
(1725510676.437305) can0 60D#077ccfa070800505
(1725510676.437324) can0 60D#097d4fa170800a0c
(1725510676.505449) can0 60A#0a011b10
(1725510676.505712) can0 60B#004ecbfd8020019d
(1725510676.505731) can0 60B#015123f380200174
(1725510676.505979) can0 60B#024febf9802001a6
(1725510676.506719) can0 60B#03504c1d8020018b
(1725510676.506760) can0 60B#044f2bfb80200177
(1725510676.507055) can0 60B#054efc0980200194
(1725510676.507098) can0 60B#0650a4778020018b
(1725510676.507330) can0 60B#0759e42f8020017e
(1725510676.507634) can0 60B#084ff3e680200188
(1725510676.507933) can0 60B#0950abf58020017c
(1725510676.508317) can0 60C#0084a33a0220e8
(1725510676.508742) can0 60C#018ca53a8220e8
(1725510676.508780) can0 60C#028ca33a0220e8
(1725510676.509027) can0 60C#038ca53a0220e8
(1725510676.509262) can0 60C#048ca53a0220e8
(1725510676.509656) can0 60C#058ca53a0220e8
(1725510676.509935) can0 60C#0694e53a8220e8
(1725510676.509951) can0 60C#078ce53a0220e8
(1725510676.510328) can0 60C#08a5278d822064
(1725510676.510758) can0 60C#098ca33a0220e8
(1725510676.510801) can0 60D#007d2fa070800505
(1725510676.511093) can0 60D#017d4fa070800505
(1725510676.511493) can0 60D#027c2fa070800d05
(1725510676.511940) can0 60D#037d0fa070800505
(1725510676.511977) can0 60D#047cefa070800505
(1725510676.512370) can0 60D#057d0fa070800505
(1725510676.512407) can0 60D#067ccfa070800505
(1725510676.512651) can0 60D#077cefa070800505
(1725510676.512905) can0 60D#087d0fa070800505
(1725510676.513128) can0 60D#097d6fa170800a0c
(1725510676.580633) can0 60A#0a011d10
(1725510676.580672) can0 60B#004ecbfd8020019d
(1725510676.580941) can0 60B#015123f480200174
(1725510676.581318) can0 60B#024febf9802001a6
(1725510676.581736) can0 60B#03504c1d8020018b
(1725510676.581773) can0 60B#044f2bfb80200177
(1725510676.582022) can0 60B#054efc0980200194
(1725510676.582406) can0 60B#0650a4778020018b
(1725510676.582827) can0 60B#0759e42f8020017e
(1725510676.582886) can0 60B#084ff3e680200187
(1725510676.583284) can0 60B#0950abf58020017c
(1725510676.583329) can0 60C#0084a33a0220e8
(1725510676.583613) can0 60C#018ca53a0220e8
(1725510676.584036) can0 60C#028ca33a0220e8
(1725510676.584074) can0 60C#038ca53a0220e8
(1725510676.584312) can0 60C#048ca53a0220e8
(1725510676.584526) can0 60C#058ca53a0220e8
(1725510676.584746) can0 60C#0694e53a8220e8
(1725510676.584942) can0 60C#078ce53a0220e8
(1725510676.585170) can0 60C#089d278d0220a8
(1725510676.585555) can0 60C#098ca53a0220e8
(1725510676.586029) can0 60D#007d2fa070800505
(1725510676.586450) can0 60D#017d4fa070800505
(1725510676.586487) can0 60D#027c2fa070800d05
(1725510676.586899) can0 60D#037d0fa070800505
(1725510676.586936) can0 60D#047cefa070800505
(1725510676.587334) can0 60D#057d0fa070800505
(1725510676.587751) can0 60D#067cefa070800505
(1725510676.587788) can0 60D#077cefa070800505
(1725510676.588030) can0 60D#087cefa070800505
(1725510676.588048) can0 60D#097d6fa170800a0c
(1725510676.655661) can0 60A#0a011f10
(1725510676.655699) can0 60B#004ecbfd8020019d
(1725510676.655932) can0 60B#015123f480200174
(1725510676.656200) can0 60B#024febf9802001a6
(1725510676.656595) can0 60B#03504c1d8020018b
(1725510676.657027) can0 60B#044f2bfb80200177
(1725510676.657064) can0 60B#054efc0980200194
(1725510676.657472) can0 60B#0650a4778020018a
(1725510676.657739) can0 60B#0759e42f8020017e
(1725510676.657756) can0 60B#084ff3e680200187
(1725510676.657970) can0 60B#0950abf58020017c
(1725510676.658356) can0 60C#0084a33a0220e8
(1725510676.658784) can0 60C#018ca53a0220e8
(1725510676.658822) can0 60C#028ca33a0220e8
(1725510676.659271) can0 60C#038ca53a0220e8
(1725510676.659313) can0 60C#048ca53a0220e8
(1725510676.659556) can0 60C#058ca53a0220e8
(1725510676.659781) can0 60C#0694e53a8220e8
(1725510676.659998) can0 60C#078ce53a0220e8
(1725510676.660211) can0 60C#089ce77c0220e8
(1725510676.660591) can0 60C#098ca53a0220e8
(1725510676.661030) can0 60D#007d2fa070800505
(1725510676.661067) can0 60D#017d4fa070800505
(1725510676.661306) can0 60D#027c2fa070800d05
(1725510676.661685) can0 60D#037d0fa070800505
(1725510676.661933) can0 60D#047ccfa070800505
(1725510676.661948) can0 60D#057d0fa070800505
(1725510676.662673) can0 60D#067cefa070800505
(1725510676.662710) can0 60D#077d0fa070800505
(1725510676.662934) can0 60D#087d0fa070800505
(1725510676.663197) can0 60D#097d6fa170800a0c
(1725510676.725665) can0 60A#0a012110
(1725510676.725704) can0 60B#004ecbfd8020019d
(1725510676.725929) can0 60B#015123f480200174
(1725510676.726305) can0 60B#024febf9802001a6
(1725510676.726729) can0 60B#03504c1d8020018b
(1725510676.726766) can0 60B#044f2bfb80200176
(1725510676.727170) can0 60B#054efc0980200194
(1725510676.727589) can0 60B#0650a4778020018a
(1725510676.727630) can0 60B#0759e42f8020017e
(1725510676.727866) can0 60B#084ff3e680200187
(1725510676.727880) can0 60B#0950abf58020017c
(1725510676.728610) can0 60C#0084a33a0220e8
(1725510676.728648) can0 60C#018ca53a0220e8
(1725510676.728940) can0 60C#028ca33a0220e8
(1725510676.728956) can0 60C#038ca53a0220e8
(1725510676.729339) can0 60C#048ca53a0220e8
(1725510676.729762) can0 60C#058ca53a0220e8
(1725510676.729940) can0 60C#0694e53a8220e8
(1725510676.730342) can0 60C#078ce53a0220e8
(1725510676.730380) can0 60C#089ce77b8220e8
(1725510676.730784) can0 60C#098ca53a0220e8
(1725510676.730822) can0 60D#007d2fa070800505
(1725510676.731129) can0 60D#017d4fa070800505
(1725510676.731507) can0 60D#027c4fa070800d05
(1725510676.731953) can0 60D#037d0fa070800505
(1725510676.731991) can0 60D#047cefa070800505
(1725510676.732384) can0 60D#057d0fa070800505
(1725510676.732420) can0 60D#067d0fa070800505
(1725510676.732652) can0 60D#077cefa070800505
(1725510676.732869) can0 60D#087d0fa070800505
(1725510676.733084) can0 60D#097d6fa170800a0c
(1725510676.800710) can0 60A#0a012310
(1725510676.801203) can0 60B#004ecbfd8020019d
(1725510676.801240) can0 60B#015123f480200172
(1725510676.801677) can0 60B#024ff3f9802001a6
(1725510676.801712) can0 60B#03504c1d8020018b
(1725510676.801983) can0 60B#044f2bfb80200176
(1725510676.801997) can0 60B#054efc0980200194
(1725510676.802182) can0 60B#0650a4778020018a
(1725510676.802441) can0 60B#0759e42f8020017e
(1725510676.802880) can0 60B#084ff3e680200187
(1725510676.803337) can0 60B#0950abf58020017c
(1725510676.803381) can0 60C#0084a33a0220e8
(1725510676.803679) can0 60C#018ca53a0220e8
(1725510676.804152) can0 60C#028ca33a0220e8
(1725510676.804190) can0 60C#038ca53a0220e8
(1725510676.804592) can0 60C#048ca53a0220e8
(1725510676.804629) can0 60C#058ca53a0220e8
(1725510676.805100) can0 60C#0694e53a8220e8
(1725510676.805563) can0 60C#078ce53a0220e8
(1725510676.805602) can0 60C#089d297b8220cc
(1725510676.806038) can0 60C#098ca53a0220e8
(1725510676.806076) can0 60D#007d2fa070800505
(1725510676.806525) can0 60D#017d4fa070800505
(1725510676.806562) can0 60D#027c4fa070800d05
(1725510676.807017) can0 60D#037d0fa070800505
(1725510676.807053) can0 60D#047cefa070800505
(1725510676.807499) can0 60D#057d0fa070800505
(1725510676.807536) can0 60D#067d0fa070800505
(1725510676.807994) can0 60D#077d0fa070800505
(1725510676.808449) can0 60D#087d0fa070800505
(1725510676.808484) can0 60D#097d4fa170800a0c
(1725510676.875712) can0 60A#0a012510
(1725510676.875998) can0 60B#004ecbfd8020019d
(1725510676.876012) can0 60B#015123f380200173
(1725510676.876275) can0 60B#024ff3f9802001a6
(1725510676.876461) can0 60B#03504c1d8020018b
(1725510676.876646) can0 60B#044f2bfb80200176
(1725510676.876860) can0 60B#054efc0980200194
(1725510676.877515) can0 60B#0650ac778020018b
(1725510676.877991) can0 60B#0759e42f8020017f
(1725510676.878027) can0 60B#084ff3e680200187
(1725510676.878481) can0 60B#0950abf58020017b
(1725510676.878526) can0 60C#0084a33a0220e8
(1725510676.878982) can0 60C#018ca53a8220e8
(1725510676.879021) can0 60C#028ca33a0220e8
(1725510676.879461) can0 60C#038ca53a0220e8
(1725510676.879498) can0 60C#048ca53a0220e8
(1725510676.879969) can0 60C#058ca53a0220e8
(1725510676.880009) can0 60C#0694e53a8220e8
(1725510676.880376) can0 60C#078ce53a0220e8
(1725510676.880420) can0 60C#089d297b8220cc
(1725510676.880890) can0 60C#098ca33a0220e8
(1725510676.880929) can0 60D#007d2fa070800505
(1725510676.881221) can0 60D#017d4fa070800505
(1725510676.881631) can0 60D#027c4fa070800d05
(1725510676.881972) can0 60D#037d0fa070800505
(1725510676.881994) can0 60D#047cefa070800505
(1725510676.882417) can0 60D#057d0fa070800505
(1725510676.882893) can0 60D#067cefa070800505
(1725510676.882929) can0 60D#077cefa070800505
(1725510676.883368) can0 60D#087d0fa070800505
(1725510676.883404) can0 60D#097d4fa170800a0c
(1725510676.950611) can0 60A#0a012710
(1725510676.951037) can0 60B#004ecbfd8020019d
(1725510676.951418) can0 60B#015123f380200173
(1725510676.951454) can0 60B#024ff3f9802001a6
(1725510676.951921) can0 60B#03504c1d8020018a
(1725510676.951958) can0 60B#044f2bfb80200176
(1725510676.952388) can0 60B#054efc0980200194
(1725510676.952880) can0 60B#0650ac778020018a
(1725510676.952917) can0 60B#0759e42f8020017f
(1725510676.953283) can0 60B#084ff3e680200187
(1725510676.953319) can0 60B#0950abf58020017c
(1725510676.953761) can0 60C#0084a33a0220e8
(1725510676.953799) can0 60C#018ca53a0220e8
(1725510676.954223) can0 60C#028ca33a0220e8
(1725510676.954261) can0 60C#038ca53a0220e8
(1725510676.954730) can0 60C#048ca33a0220e8
(1725510676.954771) can0 60C#058ca53a0220e8
(1725510676.955072) can0 60C#0694e53a8220e8
(1725510676.955088) can0 60C#078ce53a0220e8
(1725510676.955350) can0 60C#089d276b0220e8
(1725510676.955768) can0 60C#098ca33a0220e8
(1725510676.956212) can0 60D#007d2fa070800505
(1725510676.956545) can0 60D#017d4fa070800505
(1725510676.956559) can0 60D#027c4fa070800d05
(1725510676.956999) can0 60D#037d0fa070800505
(1725510676.957469) can0 60D#047cefa070800505
(1725510676.957506) can0 60D#057d0fa070800505
(1725510676.957957) can0 60D#067d0fa070800505
(1725510676.957994) can0 60D#077cefa070800505
(1725510676.958349) can0 60D#087d0fa070800505
(1725510676.958385) can0 60D#097d4fa170800a0c
(1725510677.025724) can0 60A#0a012910
(1725510677.026021) can0 60B#004ecbfd8020019d
(1725510677.026036) can0 60B#015123f380200172
(1725510677.026443) can0 60B#024ff3f9802001a6
(1725510677.026926) can0 60B#03504c1d8020018a
(1725510677.026963) can0 60B#044f2bfb80200176
(1725510677.027393) can0 60B#054efc0980200194
(1725510677.027430) can0 60B#0650ac778020018a
(1725510677.027882) can0 60B#0759e42f8020017f
(1725510677.028194) can0 60B#084ff3e680200187
(1725510677.028208) can0 60B#0950abf58020017c
(1725510677.028473) can0 60C#0084a33a0220e8
(1725510677.028920) can0 60C#018ca53a8220e8
(1725510677.029162) can0 60C#028ca33a0220e8
(1725510677.029178) can0 60C#038ca53a0220e8
(1725510677.029366) can0 60C#048ca33a0220e8
(1725510677.029554) can0 60C#058ca53a0220e8
(1725510677.029818) can0 60C#0694e73a8220cc
(1725510677.030236) can0 60C#078ce53a0220e8
(1725510677.030699) can0 60C#0894e56a8220e8
(1725510677.030737) can0 60C#098ca33a0220e8
(1725510677.030958) can0 60D#007d2fa070800505
(1725510677.031789) can0 60D#017d4fa070800505
(1725510677.031826) can0 60D#027c6fa070800d05
(1725510677.032133) can0 60D#037d0fa070800505
(1725510677.032393) can0 60D#047d0fa070800505
(1725510677.032577) can0 60D#057d0fa070800505
(1725510677.032763) can0 60D#067d0fa070800505
(1725510677.033190) can0 60D#077d0fa070800505
(1725510677.033501) can0 60D#087d0fa070800505
(1725510677.033765) can0 60D#097d2fa170800a0c
(1725510677.100931) can0 60A#0a012b10
(1725510677.100969) can0 60B#004ecbfd8020019d
(1725510677.101401) can0 60B#015123f380200172
(1725510677.101438) can0 60B#024ff3f9802001a6
(1725510677.101723) can0 60B#03504c1d8020018a
(1725510677.101737) can0 60B#044f2bfb80200176
(1725510677.102278) can0 60B#054efc0980200194
(1725510677.102680) can0 60B#0650ac778020018a
(1725510677.102717) can0 60B#0759e42f8020017f
(1725510677.102971) can0 60B#084ff3e680200187
(1725510677.103353) can0 60B#0950abf58020017c
(1725510677.103757) can0 60C#0084a33a0220e8
(1725510677.103796) can0 60C#018ca53a0220e8
(1725510677.104005) can0 60C#028ca33a0220e8
(1725510677.104020) can0 60C#038ca53a0220e8
(1725510677.104293) can0 60C#048ca33a0220e8
(1725510677.104526) can0 60C#058ca53a0220e8
(1725510677.104751) can0 60C#0694e73a8220e8
(1725510677.105110) can0 60C#078ce53a0220e8
(1725510677.105374) can0 60C#0895276a8220cc
(1725510677.105612) can0 60C#098ca33a0220e8
(1725510677.106096) can0 60D#007d2fa070800505
(1725510677.106394) can0 60D#017d2fa070800505
(1725510677.106419) can0 60D#027c6fa070800d05
(1725510677.106671) can0 60D#037d0fa070800505
(1725510677.107087) can0 60D#047d0fa070800505
(1725510677.107498) can0 60D#057d0fa070800505
(1725510677.107535) can0 60D#067d0fa070800505
(1725510677.107744) can0 60D#077d0fa070800505
(1725510677.108005) can0 60D#087d0fa070800505
(1725510677.108227) can0 60D#097d0fa170800a0c
(1725510677.170572) can0 60A#0a012d10
(1725510677.170906) can0 60B#004ecbfd8020019d
(1725510677.171113) can0 60B#015123f480200173
(1725510677.171498) can0 60B#024ff3f9802001a6
(1725510677.171955) can0 60B#03504c1d8020018a
(1725510677.171993) can0 60B#044f2bfb80200176
(1725510677.172389) can0 60B#054efc0980200194
(1725510677.172426) can0 60B#0650ac778020018b
(1725510677.172660) can0 60B#0759e42f8020017e
(1725510677.172863) can0 60B#084ff3e680200187
(1725510677.173112) can0 60B#0950abf58020017c
(1725510677.173347) can0 60C#0084a33a0220e8
(1725510677.173774) can0 60C#018ca53a0220e8
(1725510677.174083) can0 60C#028ca33a0220e8
(1725510677.174369) can0 60C#038ca53a0220e8
(1725510677.174397) can0 60C#048ca33a0220e8
(1725510677.174912) can0 60C#058ca53a0220e8
(1725510677.175562) can0 60C#0694e73a8220e8
(1725510677.175607) can0 60C#078ce53a0220e8
(1725510677.175965) can0 60C#0894e55a8220e8
(1725510677.175989) can0 60C#0984a33a0220e8
(1725510677.176004) can0 60D#007d2fa070800505
(1725510677.176199) can0 60D#017d2fa070800505
(1725510677.176381) can0 60D#027c6fa070800d05
(1725510677.176880) can0 60D#037d0fa070800505
(1725510677.177189) can0 60D#047d0fa070800505
(1725510677.177215) can0 60D#057d0fa070800505
(1725510677.177428) can0 60D#067cafa070800505
(1725510677.177905) can0 60D#077d0fa070800505
(1725510677.178144) can0 60D#087d0fa070800505
(1725510677.178162) can0 60D#097cefa170800a0c
(1725510677.248930) can0 60A#0a012f10
(1725510677.248987) can0 60B#004ecbfd8020019d
(1725510677.248998) can0 60B#015123f480200174
(1725510677.249009) can0 60B#024ff3f9802001a6
(1725510677.249019) can0 60B#03504c1d8020018a
(1725510677.249031) can0 60B#044f2bfb80200176
(1725510677.249262) can0 60B#054efc0980200194
(1725510677.249279) can0 60B#0650ac778020018b
(1725510677.249289) can0 60B#0759e42f8020017e
(1725510677.249300) can0 60B#084ff3e680200187
(1725510677.251972) can0 60B#0950abf58020017c
(1725510677.252017) can0 60C#0084a33a0220e8
(1725510677.252030) can0 60C#018ca53a0220e8
(1725510677.252044) can0 60C#028ca33a0220e8
(1725510677.252057) can0 60C#038ca53a0220e8
(1725510677.252069) can0 60C#048ca33a0220e8
(1725510677.252081) can0 60C#058ca53a0220e8
(1725510677.252094) can0 60C#0694e53a8220e8
(1725510677.252105) can0 60C#078ce53a0220e8
(1725510677.252118) can0 60C#0895275a8220cc
(1725510677.252130) can0 60C#0984a33a0220e8
(1725510677.252142) can0 60D#007d2fa070800505
(1725510677.254745) can0 60D#017d4fa070800505
(1725510677.254792) can0 60D#027c6fa070800d05
(1725510677.254802) can0 60D#037d0fa070800505
(1725510677.254812) can0 60D#047d0fa070800505
(1725510677.254822) can0 60D#057d0fa070800505
(1725510677.254832) can0 60D#067c8fa070800505
(1725510677.254881) can0 60D#077cefa070800505
(1725510677.254895) can0 60D#087d0fa070800505
(1725510677.254906) can0 60D#097ccfa170800a0c
(1725510677.320550) can0 60A#0a013110
(1725510677.320765) can0 60B#004ecbfd8020019d
(1725510677.321037) can0 60B#015123f480200174
(1725510677.321427) can0 60B#024ff3f9802001a6
(1725510677.321668) can0 60B#03504c1d8020018a
(1725510677.321971) can0 60B#044f2bfb80200176
(1725510677.322342) can0 60B#054efc0980200194
(1725510677.322586) can0 60B#0650ac778020018b
(1725510677.322600) can0 60B#0759e42f8020017e
(1725510677.322875) can0 60B#084ff3e680200187
(1725510677.323230) can0 60B#0950b3f58020017c
(1725510677.323482) can0 60C#0084a33a0220e8
(1725510677.324506) can0 60C#018ca53a0220e8
(1725510677.327280) can0 60C#028ca33a0220e8
(1725510677.327347) can0 60C#038ca53a0220e8
(1725510677.327360) can0 60C#048ca53a0220e8
(1725510677.327373) can0 60C#058ca53a0220e8
(1725510677.327385) can0 60C#0694e53a8220e8
(1725510677.327397) can0 60C#078ce53a0220e8
(1725510677.327410) can0 60C#0895275a8220cc
(1725510677.327422) can0 60C#0984a33a0220e8
(1725510677.327437) can0 60D#007d2fa070800505
(1725510677.327448) can0 60D#017d4fa070800505
(1725510677.330039) can0 60D#027c8fa070800d05
(1725510677.330080) can0 60D#037d0fa070800505
(1725510677.330091) can0 60D#047d0fa070800505
(1725510677.330105) can0 60D#057d0fa070800505
(1725510677.330115) can0 60D#067c8fa070800505
(1725510677.330125) can0 60D#077cefa070800505
(1725510677.330144) can0 60D#087d0fa070800505
(1725510677.330154) can0 60D#097cafa170800a0c
(1725510677.395705) can0 60A#0a013310
(1725510677.395934) can0 60B#004ecbfd8020019d
(1725510677.396203) can0 60B#015123f480200172
(1725510677.396481) can0 60B#024ff3f9802001a6
(1725510677.396742) can0 60B#03504c1d8020018a
(1725510677.397012) can0 60B#044f2bfb80200176
(1725510677.397597) can0 60B#054efc0980200194
(1725510677.398248) can0 60B#0650ac778020018b
(1725510677.398298) can0 60B#0759e42f8020017d
(1725510677.398309) can0 60B#084ff3e680200187
(1725510677.400938) can0 60B#0950b3f58020017b
(1725510677.400987) can0 60C#0084a33a0220e8
(1725510677.401000) can0 60C#018ca53a0220c8
(1725510677.401013) can0 60C#028ca33a0220e8
(1725510677.401025) can0 60C#038ca53a0220e8
(1725510677.401037) can0 60C#048ca33a0220e8
(1725510677.401049) can0 60C#058ca53a0220e8
(1725510677.401062) can0 60C#0694e53a8220e8
(1725510677.403650) can0 60C#078ce53a8220e8
(1725510677.403691) can0 60C#0895275a8220cc
(1725510677.403704) can0 60C#0984a33a0220e8
(1725510677.403718) can0 60D#007d2fa070800505
(1725510677.403729) can0 60D#017d4fa070800505
(1725510677.403738) can0 60D#027c8fa070800d05
(1725510677.403748) can0 60D#037d0fa070800505
(1725510677.403758) can0 60D#047d0fa070800505
(1725510677.403768) can0 60D#057d0fa070800505
(1725510677.403896) can0 60D#067c6fa070800505
(1725510677.403910) can0 60D#077cefa070800505
(1725510677.404215) can0 60D#087d0fa070800505
(1725510677.404243) can0 60D#097cafa170800a0c
(1725510677.471224) can0 60A#0a013510
(1725510677.471283) can0 60B#004ecbfd8020019d
(1725510677.471575) can0 60B#015123f480200172
(1725510677.471596) can0 60B#024ff3f9802001a6
(1725510677.471606) can0 60B#03504c1d8020018a
(1725510677.472016) can0 60B#044f2bfb80200177
(1725510677.472314) can0 60B#054efc0980200194
(1725510677.472577) can0 60B#0650ac778020018b
(1725510677.472867) can0 60B#0759e42f8020017d
(1725510677.473214) can0 60B#084ff3e680200187
(1725510677.473598) can0 60B#0950abf58020017b
(1725510677.473633) can0 60C#0084a33a0220e8
(1725510677.473878) can0 60C#018ca53a0220e8
(1725510677.474307) can0 60C#028ca33a0220e8
(1725510677.474352) can0 60C#038ca53a0220e8
(1725510677.474822) can0 60C#048ca33a0220e8
(1725510677.475349) can0 60C#058ca53a0220e8
(1725510677.475377) can0 60C#0694e73a8220cc
(1725510677.475389) can0 60C#078ce53a8220e8
(1725510677.478305) can0 60C#089d295a8220cc
(1725510677.478358) can0 60C#0984a33a0220e8
(1725510677.478372) can0 60D#007d4fa070800505
(1725510677.478383) can0 60D#017d4fa070800505
(1725510677.478393) can0 60D#027c8fa070800d05
(1725510677.478403) can0 60D#037d0fa070800505
(1725510677.478413) can0 60D#047d2fa070800505
(1725510677.478423) can0 60D#057d0fa070800505
(1725510677.481278) can0 60D#067c6fa070800505
(1725510677.481330) can0 60D#077cefa070800505
(1725510677.481341) can0 60D#087d0fa070800505
(1725510677.481351) can0 60D#097cafa170800a0c
(1725510677.545743) can0 60A#0a013710
(1725510677.546005) can0 60B#004ecbfd8020019d
(1725510677.546246) can0 60B#015123f480200173
(1725510677.546505) can0 60B#024ff3f9802001a6
(1725510677.547263) can0 60B#03504c1d8020018a
(1725510677.547556) can0 60B#044f2bfb80200177
(1725510677.547575) can0 60B#054efc0980200194
(1725510677.547585) can0 60B#0650ac778020018b
(1725510677.547915) can0 60B#0759e42f8020017d
(1725510677.548154) can0 60B#084ff3e680200187
(1725510677.548170) can0 60B#0950abf58020017b
(1725510677.548383) can0 60C#0084a33a0220e8
(1725510677.548796) can0 60C#018ca53a0220e8
(1725510677.549019) can0 60C#028ca33a0220e8
(1725510677.549230) can0 60C#038ca53a0220e8
(1725510677.549429) can0 60C#048ca33a0220e8
(1725510677.549645) can0 60C#058ca53a0220e8
(1725510677.549901) can0 60C#0694e73a8220e8
(1725510677.550343) can0 60C#078ce53a0220e8
(1725510677.550625) can0 60C#089d695a8220ac
(1725510677.550650) can0 60C#0984a33a0220e8
(1725510677.550907) can0 60D#007d6fa070800505
(1725510677.551695) can0 60D#017d4fa070800505
(1725510677.554594) can0 60D#027c8fa070800d05
(1725510677.554655) can0 60D#037d0fa070800505
(1725510677.554666) can0 60D#047d2fa070800505
(1725510677.554676) can0 60D#057d0fa070800505
(1725510677.554687) can0 60D#067c8fa070800505
(1725510677.554697) can0 60D#077d0fa070800505
(1725510677.554713) can0 60D#087d0fa070800505
(1725510677.554723) can0 60D#097cefa170800a0c
(1725510677.615713) can0 60A#0a013910
(1725510677.615990) can0 60B#004ec3fd8020019d
(1725510677.616252) can0 60B#015123f480200172
(1725510677.617072) can0 60B#024ff3f9802001a6
(1725510677.619829) can0 60B#03504c1d8020018a
(1725510677.619888) can0 60B#044f2bfb80200177
(1725510677.619900) can0 60B#054efc0980200194
(1725510677.620025) can0 60B#0650ac778020018b
(1725510677.620039) can0 60B#0759e42f8020017e
(1725510677.620050) can0 60B#084ff3e680200187
(1725510677.620060) can0 60B#0950abf58020017c
(1725510677.620077) can0 60C#0084a33a0220e8
(1725510677.620091) can0 60C#018ca53a0220c8
(1725510677.622905) can0 60C#028ca33a0220e8
(1725510677.622942) can0 60C#038ca53a0220e8
(1725510677.622957) can0 60C#048ca33a0220e8
(1725510677.622969) can0 60C#058ca53a0220e8
(1725510677.622982) can0 60C#0694e73a8220e8
(1725510677.622995) can0 60C#078ce53a0220e8
(1725510677.623008) can0 60C#089d695a8220ac
(1725510677.623030) can0 60C#0984a33a0220e8
(1725510677.623046) can0 60D#007dafa070800505
(1725510677.623057) can0 60D#017d4fa070800505
(1725510677.623067) can0 60D#027c8fa070800d05
(1725510677.623077) can0 60D#037d0fa070800505
(1725510677.625894) can0 60D#047d2fa070800505
(1725510677.625953) can0 60D#057d0fa070800505
(1725510677.625964) can0 60D#067c8fa070800505
(1725510677.625974) can0 60D#077d0fa070800505
(1725510677.625984) can0 60D#087d0fa070800505
(1725510677.625994) can0 60D#097d0fa170800a0c
(1725510677.690581) can0 60A#0a013b10
(1725510677.690955) can0 60B#004ec3fd8020019d
(1725510677.691201) can0 60B#015123f480200170
(1725510677.691415) can0 60B#024ff3f9802001a6
(1725510677.691961) can0 60B#03504c1d8020018a
(1725510677.692305) can0 60B#044f2bfb80200178
(1725510677.692335) can0 60B#054efc0980200194
(1725510677.692730) can0 60B#0650ac778020018b
(1725510677.693232) can0 60B#0759e42f8020017e
(1725510677.693273) can0 60B#084ff3e680200187
(1725510677.693551) can0 60B#0950abf58020017c
(1725510677.693593) can0 60C#0084a33a0220e8
(1725510677.693974) can0 60C#018ca53a8220c8
(1725510677.694487) can0 60C#028ca53a0220e8
(1725510677.694542) can0 60C#038ca53a0220e8
(1725510677.694870) can0 60C#048ca33a0220e8
(1725510677.694902) can0 60C#058ca53a0220e8
(1725510677.695418) can0 60C#0694e73a8220cc
(1725510677.695703) can0 60C#078ce53a0220e8
(1725510677.695729) can0 60C#089d695a8220ac
(1725510677.695741) can0 60C#0984a33a0220e8
(1725510677.695982) can0 60D#007dcfa070800505
(1725510677.696884) can0 60D#017d2fa070800505
(1725510677.699525) can0 60D#027c8fa070800d05
(1725510677.699580) can0 60D#037d0fa070800505
(1725510677.699591) can0 60D#047d2fa070800505
(1725510677.699601) can0 60D#057d0fa070800505
(1725510677.699611) can0 60D#067c8fa070800505
(1725510677.700313) can0 60D#077d0fa070800505
(1725510677.700379) can0 60D#087d0fa070800505
(1725510677.700391) can0 60D#097d0fa170800a0c
(1725510677.765765) can0 60A#0a013d10
(1725510677.766274) can0 60B#004ec3fd8020019d
(1725510677.766708) can0 60B#015123f480200172
(1725510677.766724) can0 60B#024ff3f9802001a6
(1725510677.766979) can0 60B#03504c1d8020018a
(1725510677.766997) can0 60B#044f2bfb80200177
(1725510677.767427) can0 60B#054efc0980200194
(1725510677.767934) can0 60B#0650ac778020018b
(1725510677.767971) can0 60B#0759e42f8020017f
(1725510677.768414) can0 60B#084ff3e680200187
(1725510677.768451) can0 60B#0950abf58020017c
(1725510677.768883) can0 60C#0084a33a0220e8
(1725510677.768923) can0 60C#018ca53a0220e8
(1725510677.769389) can0 60C#028ca33a0220e8
(1725510677.769884) can0 60C#038ca53a0220e8
(1725510677.769934) can0 60C#048ca33a0220e8
(1725510677.770195) can0 60C#058ca53a0220e8
(1725510677.770216) can0 60C#0694e73a8220e8
(1725510677.770228) can0 60C#078ce53a0220e8
(1725510677.770529) can0 60C#089d6b5a8220ac
(1725510677.770838) can0 60C#0984a33a0220e8
(1725510677.771251) can0 60D#007defa070800505
(1725510677.771640) can0 60D#017d2fa070800505
(1725510677.771677) can0 60D#027cafa070800d05
(1725510677.771990) can0 60D#037d0fa070800505
(1725510677.772352) can0 60D#047d2fa070800505
(1725510677.772811) can0 60D#057d0fa070800505
(1725510677.772868) can0 60D#067c8fa070800505
(1725510677.773305) can0 60D#077d0fa070800505
(1725510677.773341) can0 60D#087d0fa070800505
(1725510677.773757) can0 60D#097d0fa170800a0c
(1725510677.840901) can0 60A#0a013f10
(1725510677.841365) can0 60B#004ec3fd8020019d
(1725510677.841422) can0 60B#015123f480200172
(1725510677.841986) can0 60B#024ff3f9802001a6
(1725510677.842046) can0 60B#03504c1d8020018a
(1725510677.842308) can0 60B#044f2bfb80200176
(1725510677.842332) can0 60B#054efc0980200194
(1725510677.842566) can0 60B#0650ac778020018b
(1725510677.842829) can0 60B#0759e42f8020017f
(1725510677.843590) can0 60B#084ff3e680200187
(1725510677.846277) can0 60B#0950abf58020017c
(1725510677.846359) can0 60C#0084a33a0220e8
(1725510677.846372) can0 60C#018ca53a0220e8
(1725510677.846385) can0 60C#028ca33a0220e8
(1725510677.846397) can0 60C#038ca53a0220e8
(1725510677.846409) can0 60C#048ca33a0220e8
(1725510677.846421) can0 60C#058ca53a0220e8
(1725510677.846435) can0 60C#0694e73a8220e8
(1725510677.846447) can0 60C#078ce53a0220e8
(1725510677.849336) can0 60C#089d6b5b0220ac
(1725510677.849576) can0 60C#0984a33a0220e8
(1725510677.849593) can0 60D#007e0fa070800605
(1725510677.849611) can0 60D#017d0fa070800505
(1725510677.849621) can0 60D#027cafa070800d05
(1725510677.849631) can0 60D#037d0fa070800505
(1725510677.849641) can0 60D#047d2fa070800505
(1725510677.849651) can0 60D#057d0fa070800505
(1725510677.849661) can0 60D#067ccfa070800505
(1725510677.849671) can0 60D#077d2fa070800505
(1725510677.849681) can0 60D#087d0fa070800505
(1725510677.850018) can0 60D#097d0fa170800a0c
(1725510677.915776) can0 60A#0a014110
(1725510677.915998) can0 60B#004ec3fd8020019d
(1725510677.916192) can0 60B#015123f480200173
(1725510677.916376) can0 60B#024ff3f9802001a6
(1725510677.916726) can0 60B#03504c1d8020018a
(1725510677.916923) can0 60B#044f2bfb80200176
(1725510677.917279) can0 60B#054efc0980200194
(1725510677.917466) can0 60B#0650ac778020018a
(1725510677.917976) can0 60B#0759e42f80200180
(1725510677.918341) can0 60B#084ff3e680200187
(1725510677.918728) can0 60B#0950b3f58020017c
(1725510677.918777) can0 60C#0084a33a0220e8
(1725510677.919148) can0 60C#018ca53a0220e8
(1725510677.919187) can0 60C#028ca33a0220e8
(1725510677.919552) can0 60C#038ca53a0220e8
(1725510677.920039) can0 60C#048ca53a0220e8
(1725510677.920078) can0 60C#058ca53a0220e8
(1725510677.920469) can0 60C#0694e73a8220e8
(1725510677.920508) can0 60C#078ce53a0220e8
(1725510677.920736) can0 60C#08a56b5b02208c
(1725510677.920751) can0 60C#0984a33a0220e8
(1725510677.921229) can0 60D#007e2fa070800605
(1725510677.921487) can0 60D#017d0fa070800505
(1725510677.921741) can0 60D#027cafa070800d05
(1725510677.921992) can0 60D#037d0fa070800505
(1725510677.922249) can0 60D#047d2fa070800505
(1725510677.922680) can0 60D#057d0fa070800505
(1725510677.923038) can0 60D#067cefa070800505
(1725510677.923055) can0 60D#077d2fa070800505
(1725510677.923349) can0 60D#087d0fa070800505
(1725510677.923659) can0 60D#097d0fa170800a0c
(1725510677.990926) can0 60A#0a014310
(1725510677.991199) can0 60B#004ec3fd8020019d
(1725510677.991223) can0 60B#015123f480200172
(1725510677.991436) can0 60B#024ff3f9802001a6
(1725510677.991988) can0 60B#03504c1d8020018a
(1725510677.993036) can0 60B#044f2bfb80200176
(1725510677.993095) can0 60B#054efc0980200194
(1725510677.995962) can0 60B#0650ac778020018a
(1725510677.996033) can0 60B#0759e42f80200180
(1725510677.996044) can0 60B#084ff3e680200187
(1725510677.996054) can0 60B#0950b3f58020017c
(1725510677.996081) can0 60C#0084a33a0220e8
(1725510677.996094) can0 60C#018ca53a0220e8
(1725510677.996107) can0 60C#028ca33a0220e8
(1725510677.996119) can0 60C#038ca53a0220e8
(1725510677.996131) can0 60C#048ca33a0220e8
(1725510677.996143) can0 60C#058ca53a0220e8
(1725510677.998943) can0 60C#0694e73a8220e8
(1725510677.998996) can0 60C#078ce53a0220e8
(1725510677.999010) can0 60C#08a56b5b02208c
(1725510677.999022) can0 60C#0984a33a0220e8
(1725510677.999036) can0 60D#007e2fa070800605
(1725510677.999046) can0 60D#017d0fa070800505
(1725510677.999056) can0 60D#027cafa070800d05
(1725510677.999071) can0 60D#037d0fa070800505
(1725510677.999081) can0 60D#047d0fa070800505
(1725510677.999091) can0 60D#057d0fa070800505
(1725510677.999101) can0 60D#067cefa070800505
(1725510677.999558) can0 60D#077d2fa070800505
(1725510677.999611) can0 60D#087d0fa070800505
(1725510677.999622) can0 60D#097cefa170800a0c
(1725510678.065749) can0 60A#0a014510
(1725510678.065976) can0 60B#004ec3fd8020019d
(1725510678.066532) can0 60B#015123f480200170
(1725510678.066558) can0 60B#024ff3f9802001a6
(1725510678.066740) can0 60B#03504c1d8020018a
(1725510678.067370) can0 60B#044f2bfb80200177
(1725510678.067407) can0 60B#054efc0980200194
(1725510678.067609) can0 60B#0650ac778020018a
(1725510678.067990) can0 60B#0759e42f80200180
(1725510678.068179) can0 60B#084ff3e680200187
(1725510678.068529) can0 60B#0950b3f58020017c
(1725510678.068952) can0 60C#0084a33a0220e8
(1725510678.068990) can0 60C#018ca53a8220e8
(1725510678.069196) can0 60C#028ca33a0220e8
(1725510678.069382) can0 60C#038ca53a0220e8
(1725510678.069567) can0 60C#048ca33a0220e8
(1725510678.069746) can0 60C#058ca53a0220e8
(1725510678.070287) can0 60C#0694e73a8220cc
(1725510678.070310) can0 60C#078ce53a0220e8
(1725510678.070693) can0 60C#08a5ab5b02206c
(1725510678.071030) can0 60C#0984a33a0220e8
(1725510678.071439) can0 60D#007e2fa070800605
(1725510678.071703) can0 60D#017d0fa070800505
(1725510678.071720) can0 60D#027cafa070800d05
(1725510678.072063) can0 60D#037d0fa070800505
(1725510678.072475) can0 60D#047d0fa070800505
(1725510678.072911) can0 60D#057d0fa070800505
(1725510678.072948) can0 60D#067cefa070800505
(1725510678.073344) can0 60D#077d2fa070800505
(1725510678.073380) can0 60D#087d0fa070800505
(1725510678.073792) can0 60D#097cefa170800a0c
(1725510678.140930) can0 60A#0a014710
(1725510678.141366) can0 60B#004ec3fd8020019d
(1725510678.141455) can0 60B#015123f480200172
(1725510678.141748) can0 60B#024ff3f9802001a6
(1725510678.142561) can0 60B#03504c1d8020018a
(1725510678.145250) can0 60B#044f2bfb80200177
(1725510678.145290) can0 60B#054efc0980200194
(1725510678.145301) can0 60B#0650ac778020018a
(1725510678.145311) can0 60B#0759e42f8020017f
(1725510678.145321) can0 60B#084ff3e680200187
(1725510678.145331) can0 60B#0950b3f58020017c
(1725510678.145352) can0 60C#0084a33a0220e8
(1725510678.145366) can0 60C#018ca53a0220e8
(1725510678.145378) can0 60C#028ca53a0220e8
(1725510678.148529) can0 60C#038ca53a0220e8
(1725510678.148609) can0 60C#0484a33a0220e8
(1725510678.148622) can0 60C#058ca53a0220e8
(1725510678.148635) can0 60C#0694e73a8220e8
(1725510678.148648) can0 60C#078ce53a0220e8
(1725510678.148661) can0 60C#08a5ab5b02206c
(1725510678.148674) can0 60C#0984a33a0220e8
(1725510678.148696) can0 60D#007e2fa070800605
(1725510678.148707) can0 60D#017cefa070800505
(1725510678.148722) can0 60D#027cafa070800d05
(1725510678.148733) can0 60D#037d0fa070800505
(1725510678.148742) can0 60D#047d2fa070800505
(1725510678.148752) can0 60D#057d0fa070800505
(1725510678.151377) can0 60D#067ccfa070800505
(1725510678.151559) can0 60D#077d2fa070800505
(1725510678.151609) can0 60D#087d0fa070800505
(1725510678.151621) can0 60D#097ccfa170800a0c
(1725510678.213957) can0 60A#0a014910
(1725510678.214029) can0 60B#004ec3fd8020019d
(1725510678.214040) can0 60B#015123f380200170
(1725510678.214051) can0 60B#024ff3f9802001a6
(1725510678.214071) can0 60B#03504c1d8020018a
(1725510678.214082) can0 60B#044f2bfb80200176
(1725510678.214092) can0 60B#054efc0980200194
(1725510678.214102) can0 60B#0650ac7780200189
(1725510678.216980) can0 60B#0759e42f8020017f
(1725510678.217026) can0 60B#084ff3e680200187
(1725510678.217037) can0 60B#0950b3f58020017c
(1725510678.217057) can0 60C#0084a33a0220e8
(1725510678.217070) can0 60C#018ca53a8220e8
(1725510678.217083) can0 60C#028ca33a0220e8
(1725510678.217095) can0 60C#038ca53a0220e8
(1725510678.217107) can0 60C#0484a33a0220e8
(1725510678.217124) can0 60C#058ca53a0220e8
(1725510678.217136) can0 60C#0694e73a8220e8
(1725510678.217148) can0 60C#078ce53a0220e8
(1725510678.217161) can0 60C#08adad5b02204c
(1725510678.217173) can0 60C#0984a33a0220e8
(1725510678.219995) can0 60D#007e2fa070800605
(1725510678.220032) can0 60D#017cefa070800505
(1725510678.220043) can0 60D#027cafa070800d05
(1725510678.220053) can0 60D#037d0fa070800505
(1725510678.220063) can0 60D#047d2fa070800505
(1725510678.220073) can0 60D#057d0fa070800505
(1725510678.220083) can0 60D#067cafa070800505
(1725510678.220093) can0 60D#077d0fa070800505
(1725510678.220103) can0 60D#087d0fa070800505
(1725510678.220113) can0 60D#097ccfa170800a0c
(1725510678.285777) can0 60A#0a014b10
(1725510678.286122) can0 60B#004ec3fd8020019d
(1725510678.286363) can0 60B#015123f480200172
(1725510678.286588) can0 60B#024ff3f9802001a6
(1725510678.286902) can0 60B#03504c1d8020018a
(1725510678.287713) can0 60B#044f2bfb80200176
(1725510678.290208) can0 60B#054efc0980200194
(1725510678.290246) can0 60B#0650ac778020018a
(1725510678.290257) can0 60B#0759e42f8020017f
(1725510678.290267) can0 60B#084ff3e680200187
(1725510678.290277) can0 60B#0950b3f58020017c
(1725510678.290295) can0 60C#0084a33a0220e8
(1725510678.290309) can0 60C#018ca53a0220e8
(1725510678.290321) can0 60C#028ca33a0220e8
(1725510678.290333) can0 60C#038ca53a0220e8
(1725510678.292958) can0 60C#048ca53a0220e8
(1725510678.293022) can0 60C#058ca53a0220e8
(1725510678.293042) can0 60C#0694e73a8220e8
(1725510678.293055) can0 60C#078ce53a0220e8
(1725510678.293068) can0 60C#08adad5b02204c
(1725510678.293081) can0 60C#0984a33a0220e8
(1725510678.293095) can0 60D#007e2fa070800605
(1725510678.293106) can0 60D#017cefa070800505
(1725510678.293116) can0 60D#027cafa070800d05
(1725510678.293126) can0 60D#037d0fa070800505
(1725510678.296414) can0 60D#047d2fa070800505
(1725510678.296468) can0 60D#057d0fa070800505
(1725510678.296479) can0 60D#067ccfa070800505
(1725510678.296489) can0 60D#077d0fa070800505
(1725510678.296499) can0 60D#087d0fa070800505
(1725510678.296509) can0 60D#097cafa170800a0c
(1725510678.361033) can0 60A#0b014d10
(1725510678.361751) can0 60B#004ec3fd8020019d
(1725510678.361793) can0 60B#015123f480200173
(1725510678.362064) can0 60B#024ff3f9802001a6
(1725510678.362095) can0 60B#03504c1d8020018a
(1725510678.362348) can0 60B#044f2bfb80200177
(1725510678.362619) can0 60B#054efc0980200194
(1725510678.362648) can0 60B#0650ac778020018a
(1725510678.363018) can0 60B#0759e42f8020017f
(1725510678.363300) can0 60B#084ff3e680200187
(1725510678.363574) can0 60B#0950b3f58020017c
(1725510678.364496) can0 60B#0a51a45480200180
(1725510678.367702) can0 60C#0084a33a0220e8
(1725510678.367743) can0 60C#018ca53a0220e8
(1725510678.367755) can0 60C#028ca33a0220e8
(1725510678.367768) can0 60C#038ca53a0220e8
(1725510678.367779) can0 60C#048ca53a0220e8
(1725510678.367792) can0 60C#058ca53a0220e8
(1725510678.367804) can0 60C#0694e73a8220cc
(1725510678.367816) can0 60C#078ce53a0220e8
(1725510678.367828) can0 60C#08adad5b02202c
(1725510678.367861) can0 60C#0984a33a0220e8
(1725510678.367876) can0 60C#0aa5278d822064
(1725510678.367890) can0 60D#007e0fa070800605
(1725510678.370492) can0 60D#017cefa070800505
(1725510678.370531) can0 60D#027ccfa070800d05
(1725510678.370545) can0 60D#037d0fa070800505
(1725510678.370556) can0 60D#047d2fa070800505
(1725510678.370566) can0 60D#057d0fa070800505
(1725510678.370576) can0 60D#067ccfa070800505
(1725510678.370586) can0 60D#077d2fa070800505
(1725510678.370596) can0 60D#087d0fa070800505
(1725510678.370607) can0 60D#097cafa170800a0c
(1725510678.370617) can0 60D#0a7d0fa070800505
(1725510678.435926) can0 60A#0a014f10
(1725510678.436223) can0 60B#004ec3fd8020019d
(1725510678.436477) can0 60B#015123f480200174
(1725510678.436728) can0 60B#024ff3f9802001a6
(1725510678.436952) can0 60B#03504c1d8020018a
(1725510678.437189) can0 60B#044f2bfb80200177
(1725510678.437432) can0 60B#054efc0980200194
(1725510678.437645) can0 60B#0650ac778020018a
(1725510678.437873) can0 60B#0759e42f8020017f
(1725510678.438357) can0 60B#0950b3f58020017c
(1725510678.438630) can0 60B#0a51a45480200180
(1725510678.438895) can0 60C#0084a33a0220e8
(1725510678.439217) can0 60C#018ca53a0220e8
(1725510678.439476) can0 60C#028ca33a0220e8
(1725510678.439498) can0 60C#038ca53a0220e8
(1725510678.439838) can0 60C#048ca53a8220e8
(1725510678.440133) can0 60C#058ca53a0220e8
(1725510678.440154) can0 60C#0694e73a8220e8
(1725510678.440361) can0 60C#078ce53a0220e8
(1725510678.440727) can0 60C#0984a33a0220e8
(1725510678.440929) can0 60C#0aa52d8d82206c
(1725510678.441168) can0 60D#007dcfa070800605
(1725510678.441422) can0 60D#017cefa070800505
(1725510678.441708) can0 60D#027ccfa070800d05
(1725510678.441964) can0 60D#037d0fa070800505
(1725510678.442387) can0 60D#047d2fa070800505
(1725510678.442664) can0 60D#057d0fa070800505
(1725510678.442953) can0 60D#067d0fa070800505
(1725510678.443213) can0 60D#077d0fa070800505
(1725510678.443480) can0 60D#097cafa170800a0c
(1725510678.443700) can0 60D#0a7d0fa070800505
(1725510678.511306) can0 60A#0a015110
(1725510678.513544) can0 60B#004ec3fd8020019d
(1725510678.513585) can0 60B#015123f480202175
(1725510678.513596) can0 60B#024ff3f9802001a6
(1725510678.513607) can0 60B#03504c1d8020018a
(1725510678.513617) can0 60B#044f2bfb80200176
(1725510678.513627) can0 60B#054efc0980200194
(1725510678.513638) can0 60B#0650ac778020018a
(1725510678.513648) can0 60B#0759e42f8020017e
(1725510678.515872) can0 60B#0950b3f58020017c
(1725510678.515913) can0 60B#0a51a45480200180
(1725510678.515934) can0 60C#0084a33a0220e8
(1725510678.515948) can0 60C#018ca53a0220e8
(1725510678.515960) can0 60C#028ca33a0220e8
(1725510678.515973) can0 60C#038ca53a0220e8
(1725510678.515985) can0 60C#048ca53a0220e8
(1725510678.515997) can0 60C#058ca53a0220e8
(1725510678.516010) can0 60C#0694e73a8220cc
(1725510678.516023) can0 60C#078ce53a0220e8
(1725510678.518658) can0 60C#0984a33a0220e8
(1725510678.518698) can0 60C#0aa56f8d82204c
(1725510678.518712) can0 60D#007d8fa070800605
(1725510678.518723) can0 60D#017d0fa070800505
(1725510678.518733) can0 60D#027ccfa070800d05
(1725510678.518743) can0 60D#037d0fa070800505
(1725510678.518753) can0 60D#047d0fa070800505
(1725510678.518765) can0 60D#057d0fa070800505
(1725510678.521275) can0 60D#067d0fa070800505
(1725510678.521311) can0 60D#077d0fa070800505
(1725510678.521322) can0 60D#097cafa170800a0c
(1725510678.521332) can0 60D#0a7d0fa070800505
(1725510678.581006) can0 60A#0a015310
(1725510678.581288) can0 60B#004ec3fd8020019d
(1725510678.581543) can0 60B#015123f480200173
(1725510678.581797) can0 60B#024ff3f9802001a6
(1725510678.582090) can0 60B#03504c1d8020018a
(1725510678.582332) can0 60B#044f2bfb80200176
(1725510678.582545) can0 60B#054efc0980200194
(1725510678.583005) can0 60B#0650ac7780200189
(1725510678.583027) can0 60B#0759e42f8020017e
(1725510678.583259) can0 60B#0950b3f58020017c
(1725510678.583496) can0 60B#0a51a4548020017f
(1725510678.583710) can0 60C#0084a33a0220e8
(1725510678.583970) can0 60C#018ca53a8220e8
(1725510678.584197) can0 60C#028ca33a0220e8
(1725510678.584675) can0 60C#038ca53a0220e8
(1725510678.584942) can0 60C#048ca53a0220e8
(1725510678.584964) can0 60C#058ca53a0220e8
(1725510678.585440) can0 60C#0694e73a8220e8
(1725510678.585671) can0 60C#078ce53a0220e8
(1725510678.585692) can0 60C#0984a33a0220e8
(1725510678.585949) can0 60C#0aa52d7c822088
(1725510678.586453) can0 60D#007d8fa070800605
(1725510678.586700) can0 60D#017d0fa070800505
(1725510678.587001) can0 60D#027ccfa070800d05
(1725510678.587226) can0 60D#037d0fa070800505
(1725510678.587427) can0 60D#047cefa070800505
(1725510678.587625) can0 60D#057d0fa070800505
(1725510678.588077) can0 60D#067cefa070800505
(1725510678.588800) can0 60D#077d0fa070800505
(1725510678.589144) can0 60D#097cafa170800a0c
(1725510678.589169) can0 60D#0a7d2fa070800505
(1725510678.655955) can0 60A#0a015510
(1725510678.656321) can0 60B#004ebbfd8020019d
(1725510678.656706) can0 60B#015123f480200174
(1725510678.657095) can0 60B#024ff3f9802001a6
(1725510678.657133) can0 60B#03504c1d8020018a
(1725510678.657506) can0 60B#044f2bfb80200176
(1725510678.657915) can0 60B#054efc0980200194
(1725510678.657953) can0 60B#0650ac778020018a
(1725510678.658546) can0 60B#0759e4308020017e
(1725510678.658591) can0 60B#0950b3f58020017c
(1725510678.658905) can0 60B#0a51a4548020017f
(1725510678.658942) can0 60C#0084a33a0220e8
(1725510678.659205) can0 60C#018ca53a0220e8
(1725510678.659499) can0 60C#028ca33a0220e8
(1725510678.659528) can0 60C#038ca53a0220e8
(1725510678.659772) can0 60C#048ca53a0220e8
(1725510678.660006) can0 60C#058ca53a0220e8
(1725510678.660204) can0 60C#0694e73a8220e8
(1725510678.660728) can0 60C#078ce53a0220e8
(1725510678.661135) can0 60C#0984a33a0220e8
(1725510678.661174) can0 60C#0aa56d7c82206c
(1725510678.661541) can0 60D#007d6fa070800605
(1725510678.662002) can0 60D#017d2fa070800505
(1725510678.662039) can0 60D#027ccfa070800d05
(1725510678.662408) can0 60D#037d0fa070800505
(1725510678.662445) can0 60D#047cefa070800505
(1725510678.662815) can0 60D#057d0fa070800505
(1725510678.663231) can0 60D#067cafa070800505
(1725510678.663267) can0 60D#077d0fa070800505
(1725510678.663482) can0 60D#097cafa170800a0c
(1725510678.663674) can0 60D#0a7d2fa070800505
(1725510678.731101) can0 60A#0a015710
(1725510678.731350) can0 60B#004ebbfd8020019d
(1725510678.732216) can0 60B#015123f580202175
(1725510678.734740) can0 60B#024ff3f9802001a6
(1725510678.734780) can0 60B#03504c1d8020018a
(1725510678.734791) can0 60B#044f2bfb80200177
(1725510678.734802) can0 60B#054efc0980200194
(1725510678.734812) can0 60B#0650ac778020018a
(1725510678.734822) can0 60B#0759e42f8020017f
(1725510678.734837) can0 60B#0950b3f58020017c
(1725510678.734870) can0 60B#0a51a4548020017f
(1725510678.734891) can0 60C#0084a33a0220e8
(1725510678.737383) can0 60C#018ca53a0220e8
(1725510678.737424) can0 60C#028ca33a0220e8
(1725510678.737437) can0 60C#038ca53a0220e8
(1725510678.737449) can0 60C#048ca53a8220e8
(1725510678.737462) can0 60C#058ca53a0220e8
(1725510678.737474) can0 60C#0694e73a8220e8
(1725510678.737486) can0 60C#078ce53a0220e8
(1725510678.737498) can0 60C#0984a33a0220e8
(1725510678.737511) can0 60C#0a9d297c0220a8
(1725510678.737524) can0 60D#007d6fa070800605
(1725510678.737535) can0 60D#017d4fa070800505
(1725510678.740068) can0 60D#027ccfa070800d05
(1725510678.740107) can0 60D#037d0fa070800505
(1725510678.740118) can0 60D#047cefa070800505
(1725510678.740128) can0 60D#057d0fa070800505
(1725510678.740138) can0 60D#067cafa070800505
(1725510678.740148) can0 60D#077d0fa070800505
(1725510678.740162) can0 60D#097ccfa170800a0c
(1725510678.740173) can0 60D#0a7cafa070800505
(1725510678.806078) can0 60A#0a015910
(1725510678.806308) can0 60B#004ebbfd8020019d
(1725510678.806508) can0 60B#015123f580202176
(1725510678.806701) can0 60B#024ff3f9802001a6
(1725510678.806932) can0 60B#03504c1d8020018a
(1725510678.807327) can0 60B#044f33fb80200177
(1725510678.808016) can0 60B#054efc0980200194
(1725510678.810509) can0 60B#0650ac778020018a
(1725510678.810547) can0 60B#0759e42f8020017f
(1725510678.810558) can0 60B#0950b3f58020017c
(1725510678.810569) can0 60B#0a51a4548020017f
(1725510678.810588) can0 60C#0084a33a0220e8
(1725510678.810601) can0 60C#018ca53a0220e8
(1725510678.810614) can0 60C#028ca33a0220e8
(1725510678.810626) can0 60C#038ca53a0220e8
(1725510678.813116) can0 60C#048ca53a8220e8
(1725510678.813157) can0 60C#058ca53a0220e8
(1725510678.813169) can0 60C#0694e73a8220e8
(1725510678.813186) can0 60C#078ce53a0220e8
(1725510678.813199) can0 60C#0984a33a0220e8
(1725510678.813211) can0 60C#0a9d2b7c02208c
(1725510678.813224) can0 60D#007d6fa070800605
(1725510678.813235) can0 60D#017d6fa070800505
(1725510678.813246) can0 60D#027ccfa070800d05
(1725510678.813256) can0 60D#037d0fa070800505
(1725510678.815825) can0 60D#047cefa070800505
(1725510678.815881) can0 60D#057d0fa070800505
(1725510678.815892) can0 60D#067ccfa070800505
(1725510678.815903) can0 60D#077d0fa070800505
(1725510678.815913) can0 60D#097ccfa170800a0c
(1725510678.815923) can0 60D#0a7cafa070800505
(1725510678.880959) can0 60A#0a015b10
(1725510678.881189) can0 60B#004ebbfd8020019d
(1725510678.881695) can0 60B#015123f580202176
(1725510678.881935) can0 60B#024ff3f9802001a6
(1725510678.881957) can0 60B#03504c1d8020018a
(1725510678.882314) can0 60B#044f33fb80200176
(1725510678.882504) can0 60B#054efc0980200194
(1725510678.882716) can0 60B#0650ac778020018b
(1725510678.883088) can0 60B#0759e42f8020017e
(1725510678.883419) can0 60B#0950b3f58020017c
(1725510678.883635) can0 60B#0a51a4548020017f
(1725510678.883869) can0 60C#0084a33a0220e8
(1725510678.884067) can0 60C#018ca53a0220e8
(1725510678.884427) can0 60C#028ca33a0220e8
(1725510678.884618) can0 60C#038ca53a0220e8
(1725510678.884908) can0 60C#048ca53a0220e8
(1725510678.885217) can0 60C#058ca53a0220e8
(1725510678.886769) can0 60C#0694e73a8220e8
(1725510678.889451) can0 60C#078ce53a0220e8
(1725510678.889490) can0 60C#0984a33a0220e8
(1725510678.889635) can0 60C#0aa56b7c02208c
(1725510678.889653) can0 60D#007d8fa070800605
(1725510678.889665) can0 60D#017d6fa070800505
(1725510678.889675) can0 60D#027ccfa070800d05
(1725510678.889685) can0 60D#037d0fa070800505
(1725510678.889695) can0 60D#047cafa070800505
(1725510678.889705) can0 60D#057d0fa070800505
(1725510678.889715) can0 60D#067cefa070800505
(1725510678.889726) can0 60D#077cefa070800505
(1725510678.889736) can0 60D#097ccfa170800a0c
(1725510678.889954) can0 60D#0a7cafa070800505
(1725510678.950986) can0 60A#0a015d10
(1725510678.951226) can0 60B#004ebbfd8020019d
(1725510678.951437) can0 60B#01511bf580202177
(1725510678.951947) can0 60B#024ff3f9802001a6
(1725510678.952235) can0 60B#03504c1d8020018a
(1725510678.952579) can0 60B#044f33fb80200177
(1725510678.952918) can0 60B#054efc0980200194
(1725510678.952946) can0 60B#0650ac778020018a
(1725510678.953207) can0 60B#0759e42f8020017e
(1725510678.953454) can0 60B#0950b3f58020017c
(1725510678.953665) can0 60B#0a51a4548020017f
(1725510678.953991) can0 60C#0084a33a0220e8
(1725510678.954217) can0 60C#018ca53a0220e8
(1725510678.954425) can0 60C#028ca33a0220e8
(1725510678.954631) can0 60C#038ca53a0220e8
(1725510678.955795) can0 60C#048ca53a0220e8
(1725510678.958404) can0 60C#058ca53a0220e8
(1725510678.958472) can0 60C#0694e73a8220e8
(1725510678.958485) can0 60C#078ce53a0220e8
(1725510678.958498) can0 60C#0984a33a0220e8
(1725510678.958511) can0 60C#0aa56d7c02206c
(1725510678.958528) can0 60D#007d8fa070800605
(1725510678.958539) can0 60D#017d8fa070800505
(1725510678.958550) can0 60D#027ccfa070800d05
(1725510678.958560) can0 60D#037d0fa070800505
(1725510678.958570) can0 60D#047cafa070800505
(1725510678.961399) can0 60D#057d0fa070800505
(1725510678.961447) can0 60D#067d2fa070800505
(1725510678.961459) can0 60D#077d0fa070800505
(1725510678.961472) can0 60D#097ccfa170800a0c
(1725510678.961482) can0 60D#0a7cafa070800505
(1725510679.026359) can0 60A#0a015f10
(1725510679.026657) can0 60B#004ebbfd8020019d
(1725510679.026680) can0 60B#01511bf580202177
(1725510679.026946) can0 60B#024ff3f9802001a6
(1725510679.027160) can0 60B#03504c1d8020018a
(1725510679.027366) can0 60B#044f33fb80200177
(1725510679.027798) can0 60B#054efc0980200194
(1725510679.028137) can0 60B#0650ac778020018a
(1725510679.028163) can0 60B#0759e4308020017e
(1725510679.028374) can0 60B#0950b3f58020017c
(1725510679.028589) can0 60B#0a51a4548020017f
(1725510679.028949) can0 60C#0084a33a0220e8
(1725510679.029383) can0 60C#018ca53a0220e8
(1725510679.029419) can0 60C#028ca33a0220e8
(1725510679.029638) can0 60C#038ca53a0220e8
(1725510679.029955) can0 60C#048ca53a8220e8
(1725510679.030188) can0 60C#058ca53a0220e8
(1725510679.030396) can0 60C#0694e73a8220e8
(1725510679.030609) can0 60C#078ce53a0220e8
(1725510679.030919) can0 60C#0984a33a0220e8
(1725510679.031404) can0 60C#0a9d296b0220a8
(1725510679.031647) can0 60D#007dafa070800605
(1725510679.031946) can0 60D#017d8fa070800505
(1725510679.032758) can0 60D#027ccfa070800d05
(1725510679.032812) can0 60D#037d0fa070800505
(1725510679.034534) can0 60D#047c8fa070800505
(1725510679.034570) can0 60D#057d0fa070800505
(1725510679.037082) can0 60D#067d4fa070800505
(1725510679.037114) can0 60D#077cefa070800505
(1725510679.037124) can0 60D#097ccfa170800a0c
(1725510679.037135) can0 60D#0a7d4fa070800505
(1725510679.101165) can0 60A#0a016110
(1725510679.101542) can0 60B#004ebbfd8020019d
(1725510679.101824) can0 60B#01511bf580202177
(1725510679.101898) can0 60B#024ff3f9802001a6
(1725510679.102192) can0 60B#03504c1d8020018a
(1725510679.102538) can0 60B#044f33fb80200177
(1725510679.102993) can0 60B#054efc0980200194
(1725510679.103049) can0 60B#0650ac778020018a
(1725510679.103375) can0 60B#0759e4308020017e
(1725510679.104103) can0 60B#0950b3f58020017c
(1725510679.104181) can0 60B#0a51a4548020017f
(1725510679.104211) can0 60C#0084a33a0220e8
(1725510679.104594) can0 60C#018ca53a0220e8
(1725510679.104636) can0 60C#028ca33a0220e8
(1725510679.104916) can0 60C#038ca53a0220e8
(1725510679.105919) can0 60C#048ca53a0220e8
(1725510679.108588) can0 60C#058ca53a0220e8
(1725510679.108653) can0 60C#0694e73a8220cc
(1725510679.108666) can0 60C#078ce53a0220e8
(1725510679.108686) can0 60C#0984a33a0220e8
(1725510679.108700) can0 60C#0a9d296b0220ac
(1725510679.108714) can0 60D#007d8fa070800605
(1725510679.108725) can0 60D#017d8fa070800505
(1725510679.108736) can0 60D#027ccfa070800d05
(1725510679.108746) can0 60D#037d0fa070800505
(1725510679.108756) can0 60D#047c4fa070800505
(1725510679.111365) can0 60D#057d0fa070800505
(1725510679.111431) can0 60D#067d4fa070800505
(1725510679.111442) can0 60D#077cefa070800505
(1725510679.111453) can0 60D#097ccfa170800a0c
(1725510679.111463) can0 60D#0a7d4fa070800505
(1725510679.176191) can0 60A#0a016310
(1725510679.176474) can0 60B#004ebbfd8020019d
(1725510679.176696) can0 60B#01511bf580202177
(1725510679.176960) can0 60B#024ff3f9802001a6
(1725510679.177204) can0 60B#03504c1d8020018a
(1725510679.177760) can0 60B#044f33fb80200176
(1725510679.182232) can0 60B#054efc0980200194
(1725510679.182273) can0 60B#0650ac7780200189
(1725510679.182284) can0 60B#0759e4308020017e
(1725510679.182294) can0 60B#0950b3f58020017c
(1725510679.182305) can0 60B#0a51a4548020017f
(1725510679.182324) can0 60C#0084a33a0220e8
(1725510679.182337) can0 60C#018ca53a0220e8
(1725510679.182350) can0 60C#028ca33a0220e8
(1725510679.182362) can0 60C#038ca53a0220e8
(1725510679.182374) can0 60C#048ca53a0220e8
(1725510679.182386) can0 60C#058ca53a0220e8
(1725510679.182399) can0 60C#0694e73a8220e8
(1725510679.182411) can0 60C#078ce53a0220e8
(1725510679.182424) can0 60C#0984a33a0220e8
(1725510679.182436) can0 60C#0a9d6b6b82208c
(1725510679.182448) can0 60D#007d6fa070800605
(1725510679.185064) can0 60D#017d8fa070800505
(1725510679.185127) can0 60D#027ccfa070800d05
(1725510679.185144) can0 60D#037d0fa070800505
(1725510679.185155) can0 60D#047c4fa070800505
(1725510679.185165) can0 60D#057d0fa070800505
(1725510679.185175) can0 60D#067dafa070800505
(1725510679.185185) can0 60D#077cefa070800505
(1725510679.185195) can0 60D#097ccfa170800a0c
(1725510679.185205) can0 60D#0a7d4fa070800505
(1725510679.251093) can0 60A#0a016510
(1725510679.251496) can0 60B#004ebbfd8020019d
(1725510679.251764) can0 60B#015123f580202174
(1725510679.252007) can0 60B#024ff3f9802001a6
(1725510679.252239) can0 60B#03504c1d8020018a
(1725510679.252475) can0 60B#044f33fb80200176
(1725510679.252716) can0 60B#054efc0980200194
(1725510679.252945) can0 60B#0650ac7780200189
(1725510679.253249) can0 60B#0759e4308020017d
(1725510679.253510) can0 60B#0950b3f58020017c
(1725510679.253741) can0 60B#0a51a4548020017f
(1725510679.253980) can0 60C#0084a33a0220e8
(1725510679.254216) can0 60C#018ca53a8220e8
(1725510679.254472) can0 60C#028ca33a0220e8
(1725510679.254723) can0 60C#038ca53a0220e8
(1725510679.255046) can0 60C#048ca53a0220e8
(1725510679.255312) can0 60C#058ca53a0220e8
(1725510679.255555) can0 60C#0694e73a8220e8
(1725510679.255784) can0 60C#078ce53a0220e8
(1725510679.256016) can0 60C#0984a33a0220e8
(1725510679.256273) can0 60C#0a9d6b6b82208c
(1725510679.256519) can0 60D#007d4fa070800605
(1725510679.256783) can0 60D#017d8fa070800505
(1725510679.257033) can0 60D#027ccfa070800d05
(1725510679.257415) can0 60D#037d0fa070800505
(1725510679.257771) can0 60D#047c4fa070800505
(1725510679.258101) can0 60D#057d0fa070800505
(1725510679.258132) can0 60D#067dafa070800505
(1725510679.258595) can0 60D#077cefa070800505
(1725510679.259004) can0 60D#097ccfa170800a0c
(1725510679.259042) can0 60D#0a7d4fa070800505
(1725510679.321094) can0 60A#0a016710
(1725510679.321315) can0 60B#004ebbfd8020019d
(1725510679.321880) can0 60B#015123f580200172
(1725510679.321906) can0 60B#024ff3f9802001a6
(1725510679.322107) can0 60B#03504c1d8020018a
(1725510679.322471) can0 60B#044f33fb80200175
(1725510679.322672) can0 60B#054efc0980200194
(1725510679.322929) can0 60B#0650ac7780200189
(1725510679.323130) can0 60B#0759e4308020017d
(1725510679.323505) can0 60B#0950b3f58020017d
(1725510679.323827) can0 60B#0a51a4548020017f
(1725510679.324055) can0 60C#0084a33a0220e8
(1725510679.325451) can0 60C#018ca53a8220c8
(1725510679.328210) can0 60C#028ca33a0220e8
(1725510679.328274) can0 60C#038ca53a0220e8
(1725510679.328472) can0 60C#048ca53a0220e8
(1725510679.328495) can0 60C#058ca53a0220e8
(1725510679.328509) can0 60C#0694e73a8220cc
(1725510679.328521) can0 60C#078ce53a0220e8
(1725510679.328533) can0 60C#0984a33a0220e8
(1725510679.328546) can0 60C#0aa56b6b82206c
(1725510679.328559) can0 60D#007d2fa070800605
(1725510679.328570) can0 60D#017d8fa070800505
(1725510679.328581) can0 60D#027cefa070800d05
(1725510679.331251) can0 60D#037d0fa070800505
(1725510679.331304) can0 60D#047c6fa070800505
(1725510679.331315) can0 60D#057d0fa070800505
(1725510679.331325) can0 60D#067dafa070800505
(1725510679.331335) can0 60D#077cefa070800505
(1725510679.331345) can0 60D#097ccfa170800a0c
(1725510679.331355) can0 60D#0a7d4fa070800505
(1725510679.396165) can0 60A#0a016910
(1725510679.396402) can0 60B#004ebbfd8020019d
(1725510679.396617) can0 60B#015123f580200173
(1725510679.397096) can0 60B#024ff3f9802001a6
(1725510679.397353) can0 60B#03504c1d80200189
(1725510679.398201) can0 60B#044f33fb80200175
(1725510679.401062) can0 60B#054efc0980200194
(1725510679.401101) can0 60B#0650ac7780200189
(1725510679.401114) can0 60B#0759e42f8020017d
(1725510679.401124) can0 60B#0950b3f58020017d
(1725510679.401134) can0 60B#0a51a4538020017f
(1725510679.401153) can0 60C#0084a33a0220e8
(1725510679.401165) can0 60C#018ca53a0220e8
(1725510679.401178) can0 60C#028ca33a0220e8
(1725510679.401190) can0 60C#038ca53a0220e8
(1725510679.401202) can0 60C#048ca53a0220e8
(1725510679.403828) can0 60C#058ca53a0220e8
(1725510679.403931) can0 60C#0694e73a8220cc
(1725510679.403944) can0 60C#078ce53a0220e8
(1725510679.403957) can0 60C#0984a33a0220e8
(1725510679.403970) can0 60C#0a9d275a8220a8
(1725510679.403986) can0 60D#007d0fa070800605
(1725510679.403996) can0 60D#017d4fa070800505
(1725510679.404006) can0 60D#027cefa070800d05
(1725510679.404021) can0 60D#037d0fa070800505
(1725510679.404031) can0 60D#047c8fa070800505
(1725510679.406640) can0 60D#057d0fa070800505
(1725510679.406677) can0 60D#067dafa070800505
(1725510679.406689) can0 60D#077cefa070800505
(1725510679.406699) can0 60D#097ccfa170800a0c
(1725510679.406709) can0 60D#0a7cefa070800505
(1725510679.471154) can0 60A#0a016b10
(1725510679.471518) can0 60B#004ebbfd8020019d
(1725510679.471801) can0 60B#015123f580200174
(1725510679.472014) can0 60B#024ff3f9802001a6
(1725510679.472208) can0 60B#03504c1d80200189
(1725510679.472402) can0 60B#044f33fb80200175
(1725510679.472899) can0 60B#054efc0980200194
(1725510679.473170) can0 60B#0650ac7780200189
(1725510679.473414) can0 60B#0759e42f8020017d
(1725510679.473616) can0 60B#0950b3f58020017d
(1725510679.473877) can0 60B#0a51a4538020017f
(1725510679.474093) can0 60C#0084a33a0220e8
(1725510679.474295) can0 60C#018ca53a0220e8
(1725510679.474493) can0 60C#028ca33a0220e8
(1725510679.475071) can0 60C#038ca53a0220e8
(1725510679.475108) can0 60C#048ca53a0220e8
(1725510679.475399) can0 60C#058ca53a0220e8
(1725510679.475672) can0 60C#0694e73a8220cc
(1725510679.475933) can0 60C#078ce53a0220e8
(1725510679.475952) can0 60C#0984a33a0220e8
(1725510679.476434) can0 60C#0a9d274a8220c8
(1725510679.476692) can0 60D#007cefa070800605
(1725510679.476958) can0 60D#017d2fa070800505
(1725510679.477195) can0 60D#027cefa070800d05
(1725510679.478246) can0 60D#037d0fa070800505
(1725510679.480768) can0 60D#047cafa070800505
(1725510679.480806) can0 60D#057d0fa070800505
(1725510679.480817) can0 60D#067dafa070800505
(1725510679.480827) can0 60D#077cefa070800505
(1725510679.480865) can0 60D#097ccfa170800a0c
(1725510679.480878) can0 60D#0a7cafa070800505
(1725510679.546173) can0 60A#0a016d10
(1725510679.547401) can0 60B#004ebbfd8020019d
(1725510679.552368) can0 60B#015123f580200175
(1725510679.552407) can0 60B#024ff3f9802001a6
(1725510679.552418) can0 60B#03504c1d80200189
(1725510679.552428) can0 60B#044f33fb80200175
(1725510679.552438) can0 60B#054efc0980200194
(1725510679.552448) can0 60B#0650ac7780200189
(1725510679.552459) can0 60B#0759e42f8020017e
(1725510679.552469) can0 60B#0950b3f58020017d
(1725510679.552479) can0 60B#0a51a4538020017f
(1725510679.552498) can0 60C#0084a33a0220e8
(1725510679.552512) can0 60C#018ca53a0220e8
(1725510679.554966) can0 60C#028ca33a0220e8
(1725510679.555012) can0 60C#038ca53a0220e8
(1725510679.555025) can0 60C#048ca53a0220e8
(1725510679.555037) can0 60C#058ca53a0220e8
(1725510679.555050) can0 60C#0694e94a8220cc
(1725510679.555062) can0 60C#078ce53a0220e8
(1725510679.555074) can0 60C#0984a33a0220e8
(1725510679.555087) can0 60C#0a9ce54a8220e8
(1725510679.555099) can0 60D#007cefa070800605
(1725510679.555110) can0 60D#017d2fa070800505
(1725510679.555120) can0 60D#027cefa070800d05
(1725510679.555130) can0 60D#037d0fa070800505
(1725510679.555140) can0 60D#047ccfa070800505
(1725510679.555150) can0 60D#057d0fa070800505
(1725510679.555160) can0 60D#067dafa070800505
(1725510679.555170) can0 60D#077d0fa070800505
(1725510679.555180) can0 60D#097ccfa170800a0c
(1725510679.555202) can0 60D#0a7c8fa070800505
(1725510679.621317) can0 60A#0a016f10
(1725510679.621672) can0 60B#004ebbfd8020019d
(1725510679.621961) can0 60B#015123f580200175
(1725510679.621983) can0 60B#024ff3f9802001a6
(1725510679.622228) can0 60B#03504c1d80200189
(1725510679.622522) can0 60B#044f33fb80200176
(1725510679.622880) can0 60B#054efc0980200194
(1725510679.623264) can0 60B#0650ac7780200189
(1725510679.623652) can0 60B#0759e42f8020017e
(1725510679.623688) can0 60B#0950b3f58020017d
(1725510679.623970) can0 60B#0a51a4538020017f
(1725510679.624331) can0 60C#0084a33a0220e8
(1725510679.624733) can0 60C#018ca53a0220e8
(1725510679.624771) can0 60C#028ca33a0220e8
(1725510679.625139) can0 60C#038ca53a0220e8
(1725510679.625419) can0 60C#048ca53a0220e8
(1725510679.625441) can0 60C#058ca53a0220e8
(1725510679.625643) can0 60C#069ce94a8220ac
(1725510679.625872) can0 60C#078ce53a0220e8
(1725510679.626195) can0 60C#0984a33a0220e8
(1725510679.626504) can0 60C#0a94e54a8220e8
(1725510679.626701) can0 60D#007cefa070800605
(1725510679.626978) can0 60D#017d0fa070800505
(1725510679.627284) can0 60D#027cefa070800d05
(1725510679.627583) can0 60D#037d0fa070800505
(1725510679.627896) can0 60D#047ccfa070800505
(1725510679.628199) can0 60D#057d0fa070800505
(1725510679.628216) can0 60D#067dafa070800505
(1725510679.628509) can0 60D#077d0fa070800505
(1725510679.628735) can0 60D#097ccfa170800a0c
(1725510679.628972) can0 60D#0a7c8fa070800505
(1725510679.696356) can0 60A#0a017110
(1725510679.696596) can0 60B#004ebbfd8020019d
(1725510679.696851) can0 60B#015123f580200176
(1725510679.697073) can0 60B#024ff3f9802001a6
(1725510679.697271) can0 60B#03504c1d80200189
(1725510679.697462) can0 60B#044f33fb80200175
(1725510679.697976) can0 60B#054efc0980200194
(1725510679.698235) can0 60B#0650ac7780200189
(1725510679.698494) can0 60B#0759e42f8020017f
(1725510679.698722) can0 60B#0950b3f58020017d
(1725510679.698959) can0 60B#0a51a4538020017f
(1725510679.699220) can0 60C#0084a33a0220e8
(1725510679.699484) can0 60C#018ca53a0220e8
(1725510679.699740) can0 60C#028ca33a0220e8
(1725510679.699941) can0 60C#038ca53a0220e8
(1725510679.700168) can0 60C#048ca53a0220e8
(1725510679.700433) can0 60C#058ca53a0220e8
(1725510679.700690) can0 60C#069d294a8220ac
(1725510679.700928) can0 60C#078ce53a0220e8
(1725510679.701161) can0 60C#0984a33a0220e8
(1725510679.701424) can0 60C#0a94e74a8220cc
(1725510679.701682) can0 60D#007d0fa070800605
(1725510679.702024) can0 60D#017d0fa070800505
(1725510679.702303) can0 60D#027cefa070800d05
(1725510679.702560) can0 60D#037d0fa070800505
(1725510679.702817) can0 60D#047cefa070800505
(1725510679.703013) can0 60D#057d0fa070800505
(1725510679.703206) can0 60D#067dafa070800505
(1725510679.703423) can0 60D#077d2fa070800505
(1725510679.703911) can0 60D#097cefa170800a0c
(1725510679.704144) can0 60D#0a7c8fa070800505
(1725510679.766575) can0 60A#0a017310
(1725510679.766888) can0 60B#004ebbfd8020019d
(1725510679.766902) can0 60B#015123f580200176
(1725510679.767111) can0 60B#024ff3f9802001a6
(1725510679.767329) can0 60B#03504c1d80200189
(1725510679.767556) can0 60B#044f33fb80200175
(1725510679.767792) can0 60B#054efc0980200194
(1725510679.768534) can0 60B#0650ac7780200189
(1725510679.768571) can0 60B#0759e42f80200180
(1725510679.769082) can0 60B#0950b3f58020017d
(1725510679.769234) can0 60B#0a51a4538020017f
(1725510679.769608) can0 60C#0084a33a0220e8
(1725510679.769647) can0 60C#018ca53a0220e8
(1725510679.769976) can0 60C#028ca33a0220e8
(1725510679.769995) can0 60C#038ca53a0220e8
(1725510679.770378) can0 60C#048ca53a0220e8
(1725510679.770802) can0 60C#058ca53a0220e8
(1725510679.770862) can0 60C#069d294a8220ac
(1725510679.771113) can0 60C#078ce33a0220e8
(1725510679.771132) can0 60C#0984a33a0220e8
(1725510679.771358) can0 60C#0a94e74a8220cc
(1725510679.771748) can0 60D#007d2fa070800605
(1725510679.772181) can0 60D#017d0fa070800505
(1725510679.772600) can0 60D#027cefa070800d05
(1725510679.772636) can0 60D#037d0fa070800505
(1725510679.772931) can0 60D#047cefa070800505
(1725510679.772945) can0 60D#057d0fa070800505
(1725510679.773168) can0 60D#067dafa070800505
(1725510679.773953) can0 60D#077d2fa070800505
(1725510679.773990) can0 60D#097cefa170800a0c
(1725510679.774230) can0 60D#0a7c8fa070800505
(1725510679.841276) can0 60A#0a017510
(1725510679.841514) can0 60B#004ebbfd8020019d
(1725510679.841729) can0 60B#015123f580200174
(1725510679.842336) can0 60B#024ff3f9802001a6
(1725510679.842373) can0 60B#03504c1d80200189
(1725510679.842630) can0 60B#044f33fb80200175
(1725510679.842898) can0 60B#054efc0980200194
(1725510679.843283) can0 60B#0650ac7780200189
(1725510679.843577) can0 60B#0759e42f80200180
(1725510679.843594) can0 60B#0950b3f58020017d
(1725510679.844251) can0 60B#0a51a4538020017f
(1725510679.844297) can0 60C#0084a33a0220e8
(1725510679.844702) can0 60C#018ca53a8220c8
(1725510679.844973) can0 60C#028ca33a0220e8
(1725510679.844993) can0 60C#038ca53a0220e8
(1725510679.845378) can0 60C#048ca53a0220e8
(1725510679.845806) can0 60C#058ca53a0220e8
(1725510679.845870) can0 60C#069d274a8220c8
(1725510679.846272) can0 60C#078ce33a0220e8
(1725510679.846311) can0 60C#0984a33a0220e8
(1725510679.846719) can0 60C#0a94e54a8220e8
(1725510679.846989) can0 60D#007d4fa070800605
(1725510679.847007) can0 60D#017d0fa070800505
(1725510679.847361) can0 60D#027cefa070800d05
(1725510679.847785) can0 60D#037d0fa070800505
(1725510679.848203) can0 60D#047cefa070800505
(1725510679.848239) can0 60D#057d0fa070800505
(1725510679.848445) can0 60D#067d4fa070800505
(1725510679.848459) can0 60D#077d2fa070800505
(1725510679.849045) can0 60D#097cefa170800a0c
(1725510679.849466) can0 60D#0a7cafa070800505
(1725510679.916412) can0 60A#0a017710
(1725510679.916724) can0 60B#004ebbfd8020019d
(1725510679.916988) can0 60B#015123f580200172
(1725510679.917248) can0 60B#024ff3f9802001a6
(1725510679.917503) can0 60B#03504c1d80200189
(1725510679.917735) can0 60B#044f33fb80200175
(1725510679.917957) can0 60B#054efc0980200194
(1725510679.918163) can0 60B#0650ac7780200189
(1725510679.918368) can0 60B#0759e42f80200181
(1725510679.918571) can0 60B#0950b3f58020017d
(1725510679.918955) can0 60B#0a51a4538020017f
(1725510679.919223) can0 60C#0084a33a0220e8
(1725510679.919491) can0 60C#018ca53a8220c8
(1725510679.919748) can0 60C#028ca33a0220e8
(1725510679.920045) can0 60C#038ca53a0220e8
(1725510679.921304) can0 60C#048ca53a0220e8
(1725510679.924014) can0 60C#058ca53a0220e8
(1725510679.924055) can0 60C#069d294a8220cc
(1725510679.924067) can0 60C#078ce33a0220e8
(1725510679.924080) can0 60C#0984a33a0220e8
(1725510679.924093) can0 60C#0a94e74a8220cc
(1725510679.924105) can0 60D#007d6fa070800605
(1725510679.924116) can0 60D#017d0fa070800505
(1725510679.924126) can0 60D#027cefa070800d05
(1725510679.924140) can0 60D#037d0fa070800505
(1725510679.924150) can0 60D#047d0fa070800505
(1725510679.924160) can0 60D#057d0fa070800505
(1725510679.926634) can0 60D#067d4fa070800505
(1725510679.926671) can0 60D#077d2fa070800505
(1725510679.926681) can0 60D#097cefa170800a0c
(1725510679.926691) can0 60D#0a7cafa070800505
(1725510679.991550) can0 60A#0a017910
(1725510679.991910) can0 60B#004ebbfd8020019d
(1725510679.991934) can0 60B#015123f580200174
(1725510679.992184) can0 60B#024ff3f9802001a6
(1725510679.992436) can0 60B#03504c1d80200189
(1725510679.992688) can0 60B#044f33fb80200175
(1725510679.992941) can0 60B#054efc0980200194
(1725510679.993749) can0 60B#0650ac7780200189
(1725510679.996264) can0 60B#0759e42f80200180
(1725510679.996307) can0 60B#0950b3f58020017d
(1725510679.996318) can0 60B#0a51a4538020017f
(1725510679.996337) can0 60C#0084a33a0220e8
(1725510679.996351) can0 60C#018ca53a0220e8
(1725510679.996363) can0 60C#028ca33a0220e8
(1725510679.996375) can0 60C#038ca53a0220e8
(1725510679.996387) can0 60C#048ca53a0220e8
(1725510679.998951) can0 60C#058ca53a0220e8
(1725510679.998993) can0 60C#069d294a8220cc
(1725510679.999007) can0 60C#078ce33a0220e8
(1725510679.999019) can0 60C#0984a33a0220e8
(1725510679.999031) can0 60C#0a94e54a8220e8
(1725510679.999044) can0 60D#007d8fa070800605
(1725510679.999055) can0 60D#017cefa070800505
(1725510679.999065) can0 60D#027cefa070800d05
(1725510679.999075) can0 60D#037d0fa070800505
(1725510679.999089) can0 60D#047d0fa070800505
(1725510679.999100) can0 60D#057d0fa070800505
(1725510680.001822) can0 60D#067d4fa070800505
(1725510680.001881) can0 60D#077d2fa070800505
(1725510680.001892) can0 60D#097cefa170800a0c
(1725510680.001902) can0 60D#0a7ccfa070800505
(1725510680.066526) can0 60A#0a017b10
(1725510680.066760) can0 60B#004ebbfd8020019d
(1725510680.066957) can0 60B#015123f580200174
(1725510680.067177) can0 60B#024ff3f9802001a6
(1725510680.067535) can0 60B#03504c1d80200189
(1725510680.068338) can0 60B#044f33fb80200175
(1725510680.068633) can0 60B#054efc0980200194
(1725510680.068663) can0 60B#0650ac7780200189
(1725510680.068674) can0 60B#0759e42f80200180
(1725510680.068948) can0 60B#0950b3f58020017d
(1725510680.068968) can0 60B#0a51a4538020017f
(1725510680.069233) can0 60C#0084a33a0220e8
(1725510680.069504) can0 60C#018ca53a0220e8
(1725510680.069756) can0 60C#028ca33a0220e8
(1725510680.069999) can0 60C#038ca53a0220e8
(1725510680.070217) can0 60C#048ca53a0220e8
(1725510680.070623) can0 60C#058ca53a0220e8
(1725510680.071982) can0 60C#069d294a8220ac
(1725510680.072021) can0 60C#078ce53a0220e8
(1725510680.074698) can0 60C#0984a33a0220e8
(1725510680.074761) can0 60C#0a94e74a8220cc
(1725510680.074777) can0 60D#007dafa070800605
(1725510680.074788) can0 60D#017cefa070800505
(1725510680.074798) can0 60D#027cefa070800d05
(1725510680.074809) can0 60D#037d0fa070800505
(1725510680.074819) can0 60D#047d0fa070800505
(1725510680.074829) can0 60D#057d0fa070800505
(1725510680.074839) can0 60D#067d4fa070800505
(1725510680.074883) can0 60D#077d2fa070800505
(1725510680.075209) can0 60D#097cefa170800a0c
(1725510680.075238) can0 60D#0a7ccfa070800505
(1725510680.136487) can0 60A#0a017d10
(1725510680.136765) can0 60B#004ebbfd8020019d
(1725510680.136999) can0 60B#015123f580200172
(1725510680.137266) can0 60B#024ff3f9802001a6
(1725510680.137520) can0 60B#03504c1d80200189
(1725510680.137779) can0 60B#044f33fb80200175
(1725510680.138036) can0 60B#054efc0980200194
(1725510680.138291) can0 60B#0650ac7780200189
(1725510680.138517) can0 60B#0759e42f8020017f
(1725510680.138712) can0 60B#0950b3f58020017d
(1725510680.138971) can0 60B#0a51a4538020017f
(1725510680.139191) can0 60C#0084a33a0220e8
(1725510680.139670) can0 60C#018ca53a8220c8
(1725510680.139689) can0 60C#028ca33a0220e8
(1725510680.139942) can0 60C#038ca53a0220e8
(1725510680.140172) can0 60C#048ca53a0220e8
(1725510680.140494) can0 60C#058ca53a0220e8
(1725510680.140719) can0 60C#069d294a8220ac
(1725510680.141000) can0 60C#078ce53a0220e8
(1725510680.141247) can0 60C#0984a33a0220e8
(1725510680.141487) can0 60C#0a94e74a8220cc
(1725510680.141707) can0 60D#007dafa070800605
(1725510680.141990) can0 60D#017cefa070800505
(1725510680.142203) can0 60D#027cefa070800d05
(1725510680.142567) can0 60D#037d0fa070800505
(1725510680.142754) can0 60D#047d0fa070800505
(1725510680.142971) can0 60D#057d0fa070800505
(1725510680.143401) can0 60D#067d4fa070800505
(1725510680.143630) can0 60D#077d0fa070800505
(1725510680.143883) can0 60D#097cefa170800a0c
(1725510680.144229) can0 60D#0a7ccfa070800505
(1725510680.211347) can0 60A#0a017f10
(1725510680.211561) can0 60B#004ebbfd8020019d
(1725510680.211945) can0 60B#015123f480200171
(1725510680.212195) can0 60B#024ff3f9802001a6
(1725510680.212418) can0 60B#03504c1d80200189
(1725510680.212994) can0 60B#044f33fb80200175
(1725510680.213020) can0 60B#054efc0980200194
(1725510680.213233) can0 60B#0650ac7780200189
(1725510680.213463) can0 60B#0759e42f8020017f
(1725510680.213719) can0 60B#0950b3f58020017d
(1725510680.213974) can0 60B#0a51a4538020017f
(1725510680.214290) can0 60C#0084a33a0220e8
(1725510680.214521) can0 60C#018ca53a8220c8
(1725510680.214719) can0 60C#028ca33a0220e8
(1725510680.214970) can0 60C#038ca53a0220e8
(1725510680.215276) can0 60C#048ca53a0220e8
(1725510680.215581) can0 60C#058ca53a0220e8
(1725510680.215984) can0 60C#069d294a8220ac
(1725510680.216290) can0 60C#078ce53a0220e8
(1725510680.216309) can0 60C#0984a33a0220e8
(1725510680.216533) can0 60C#0a95274a8220cc
(1725510680.216765) can0 60D#007dcfa070800705
(1725510680.217021) can0 60D#017cefa070800505
(1725510680.217327) can0 60D#027cefa070800d05
(1725510680.217627) can0 60D#037d0fa070800505
(1725510680.217953) can0 60D#047d0fa070800505
(1725510680.218179) can0 60D#057d0fa070800505
(1725510680.218415) can0 60D#067d4fa070800505
(1725510680.218670) can0 60D#077d0fa070800505
(1725510680.218939) can0 60D#097cefa170800a0c
(1725510680.219236) can0 60D#0a7ccfa070800505
(1725510680.286392) can0 60A#0a018110
(1725510680.286631) can0 60B#004ebbfd8020019d
(1725510680.287036) can0 60B#015123f48020016f
(1725510680.287268) can0 60B#024ff3f9802001a6
(1725510680.287525) can0 60B#03504c1d80200189
(1725510680.287752) can0 60B#044f33fb80200176
(1725510680.288000) can0 60B#054efc0980200194
(1725510680.288255) can0 60B#0650ac7780200189
(1725510680.288647) can0 60B#0759e42f80200180
(1725510680.289018) can0 60B#0950b3f58020017d
(1725510680.289036) can0 60B#0a51a4538020017f
(1725510680.289426) can0 60C#0084a33a0220e8
(1725510680.289713) can0 60C#018ce53a8220c8
(1725510680.290009) can0 60C#028ca33a0220e8
(1725510680.290033) can0 60C#038ca53a0220e8
(1725510680.290443) can0 60C#048ca53a8220e8
(1725510680.290703) can0 60C#058ca53a0220e8
(1725510680.290719) can0 60C#069d274a8220c8
(1725510680.290957) can0 60C#078ce53a0220e8
(1725510680.291376) can0 60C#0984a33a0220e8
(1725510680.291609) can0 60C#0a95294a8220cc
